! RsaToolbox (C) 2013 Rohde & Schwarz America
! 
! Number of points: 101
! Number of ports: 2
! Balanced ports?: 0
! 
! 
# Hz S RI R 50
9000              1.023853719       -0.02469858199    -5.736602638e-05  -0.0001146621832  
                  -5.736602638e-05  -0.0001146621832  1.02437252        -0.02807613586    
85008910          0.002909672068    0.1593769682      3.193868874       5.526560166       
                  3.193868874       5.526560166       -0.0921503928     -0.1153817069     
170008820         0.1424560154      -0.04431232133    3.198756629       -5.226650036      
                  3.198756629       -5.226650036      -0.02039082524    0.1710695321      
255008730         -0.1761648234     -0.07602187709    -6.064503419      -0.1741502992     
                  -6.064503419      -0.1741502992     0.07761828639     -0.02636717253    
340008640         -0.06344104967    0.1702514716      2.65167349        5.364146914       
                  2.65167349        5.364146914       -0.1268294015     -0.05288308431    
425008550         0.1597556188      -0.0463574821     3.398123777       -4.869566521      
                  3.398123777       -4.869566521      0.01720846016     0.1023798999      
510008460         -0.1017573192     -0.1634754594     -5.911883308      -0.6527485908     
                  -5.911883308      -0.6527485908     0.07008655775     -0.07939301283    
595008370         -0.1071741933     0.1405030306      2.224526125       5.433540691       
                  2.224526125       5.433540691       -0.08403947731    -0.01186586506    
680008280         0.2048759454      0.0342058861      3.673346267       -4.576108683      
                  3.673346267       -4.576108683      0.09206288287     0.07578913262     
765008190         0.009278618471    -0.1641215858     -5.738942765      -1.109447384      
                  -5.738942765      -1.109447384      0.06002027227     -0.06055492102    
850008100         -0.1821191394     0.111978875       1.868090874       5.531323111       
                  1.868090874       5.531323111       -0.07132608882    0.06535427006     
935008010         0.1459886176      0.1235332981      3.954186542       -4.232208483      
                  3.954186542       -4.232208483      0.102079082       0.03910434542     
1020007920        0.07573102001     -0.1540957046     -5.593066125      -1.454167475      
                  -5.593066125      -1.454167475      -0.005044780273   -0.07586497844    
1105007830        -0.2254137096     -0.007953790361   1.479486079       5.624210149       
                  1.479486079       5.624210149       -0.06245505045    0.07466700318     
1190007740        0.07148457541     0.1405313908      4.200881457       -3.86160413       
                  4.200881457       -3.86160413       0.124580329       -0.04262444835    
1275007650        0.1644829303      -0.1091427791     -5.472248831      -1.836864541      
                  -5.472248831      -1.836864541      -0.03025814276    -0.08894455378    
1360007560        -0.1636764661     -0.1012167165     1.038206037       5.650636028       
                  1.038206037       5.650636028       -0.005757339217   0.1014696042      
1445007470        0.0003679427495   0.1422024529      4.418093399       -3.541439226      
                  4.418093399       -3.541439226      0.1468544112      -0.08881939012    
1530007380        0.1849106518      -0.01152257751    -5.309167223      -2.193280617      
                  -5.309167223      -2.193280617      -0.06885289927    -0.06420829542    
1615007290        -0.09469439397    -0.1245964183     0.6147071605      5.606337265       
                  0.6147071605      5.606337265       0.02313293322     0.1418788285      
1700007200        -0.08897660647    0.0975573364      4.677265388       -3.240708692      
                  4.677265388       -3.240708692      0.1108114875      -0.1332692698     
1785007110        0.1288837593      0.03176613413     -5.066364654      -2.536714162      
                  -5.066364654      -2.536714162      -0.1315281568     -0.06354053647    
1870007020        -0.02196211445    -0.1364021887     0.2223885788      5.612778815       
                  0.2223885788      5.612778815       0.06636698575     0.1320281552      
1955006930        -0.1074998918     0.02193716322     4.884797292       -2.884809706      
                  4.884797292       -2.884809706      0.08925241136     -0.1940211151     
2040006840        0.08325460236     0.03897661466     -4.82792249       -2.823192937      
                  -4.82792249       -2.823192937      -0.154560954      -0.04125229173    
2125006750        0.03625823533     -0.09376375076    -0.1991265321     5.641502074       
                  -0.1991265321     5.641502074       0.1317017732      0.137028265       
2210006660        -0.09294341163    -0.0006604070474  4.979707571       -2.529246751      
                  4.979707571       -2.529246751      0.04823903146     -0.2179854165     
2295006570        0.03022965453     0.03749960384     -4.598141184      -3.152147504      
                  -4.598141184      -3.152147504      -0.1856726841     0.01537363111     
2380006480        0.0295457159      -0.05333321639    -0.5630449096     5.578384507       
                  -0.5630449096     5.578384507       0.1668249933      0.1139650397      
2465006390        -0.0885647544     -0.01700483056    5.058887716       -2.211381179      
                  5.058887716       -2.211381179      -0.01995439017    -0.2593083404     
2550006300        0.0114481875      0.001961182553    -4.292587544      -3.488302621      
                  -4.292587544      -3.488302621      -0.1906810224     0.06094354997     
2635006210        0.02654273012     -0.0453930275     -0.9012584894     5.520621356       
                  -0.9012584894     5.520621356       0.2137069156      0.06432695849     
2720006120        -0.08320161425    -0.01098256048    5.13495756        -1.839211269      
                  5.13495756        -1.839211269      -0.09078569259    -0.264430699      
2805006030        0.01700595223     0.0009504495601   -4.007004312      -3.73977624       
                  -4.007004312      -3.73977624       -0.1630843511     0.1238114228      
2890005940        0.02219779151     -0.03688058018    -1.243675071      5.399718905       
                  -1.243675071      5.399718905       0.2323173826      0.008627954791    
2975005850        -0.09508914198    -0.008890646281   5.166729966       -1.383984842      
                  5.166729966       -1.383984842      -0.1626917508     -0.2476951828     
3060005760        0.01828826082     0.01059902608     -3.706988462      -4.082775595      
                  -3.706988462      -4.082775595      -0.1191362215     0.1690186741      
3145005670        0.03652424893     -0.04443921682    -1.636079479      5.249822816       
                  -1.636079479      5.249822816       0.2311828034      -0.07162156851    
3230005580        -0.1015677491     -0.03391650702    5.278052141       -0.9834225995     
                  5.278052141       -0.9834225995     -0.2273902144     -0.207908447      
3315005490        0.01077848549     0.03202743373     -3.434371615      -4.310911645      
                  -3.434371615      -4.310911645      -0.04574151449    0.2025563459      
3400005400        0.06194142128     -0.0285255215     -1.997747963      5.080098302       
                  -1.997747963      5.080098302       0.2012653035      -0.1444762789     
3485005310        -0.09735896583    -0.0642835909     5.380255086       -0.6132228871     
                  5.380255086       -0.6132228871     -0.2818822757     -0.1300923189     
3570005220        -0.02016329632    0.04981938777     -3.254529495      -4.503386404      
                  -3.254529495      -4.503386404      0.03332850396     0.2110302537      
3655005130        0.06917500994     0.00478650594     -2.19267998       4.947490226       
                  -2.19267998       4.947490226       0.1346748422      -0.2084401738     
3740005040        -0.07696319207    -0.09348320511    5.37057785        -0.2568813864     
                  5.37057785        -0.2568813864     -0.3123829447     -0.03900496185    
3825004950        -0.05907905905    0.03680073619     -2.980547176      -4.638933362      
                  -2.980547176      -4.638933362      0.1134104427      0.1765596672      
3910004860        0.06411970906     0.03783669495     -2.615314026      4.727062039       
                  -2.615314026      4.727062039       0.05030326216     -0.2588069041     
3995004770        -0.03085384482    -0.1116652805     5.406378532       0.06735945047     
                  5.406378532       0.06735945047     -0.305696458      0.06535878549     
4080004680        -0.08472183989    0.007572690001    -2.709230305      -4.807134492      
                  -2.709230305      -4.807134492      0.1902418517      0.1280983849      
4165004590        0.0396436195      0.07060670308     -2.875368399      4.589856291       
                  -2.875368399      4.589856291       -0.04671577669    -0.2711056786     
4250004500        0.01140188521     -0.08744006945    5.491790868       0.3098263094      
                  5.491790868       0.3098263094      -0.2659292602     0.1756871907      
4335004410        -0.1014094959     -0.0196835378     -2.450021799      -4.918805674      
                  -2.450021799      -4.918805674      0.230238985       0.04513758452     
4420004320        -0.00759465958    0.08359117103     -3.07765196       4.47787158        
                  -3.07765196       4.47787158        -0.1644650474     -0.250821431      
4505004230        0.03843630561     -0.05642588032    5.444185417       0.4914918959      
                  5.444185417       0.4914918959      -0.1960626086     0.2594490965      
4590004140        -0.09936605256    -0.05175679688    -2.18417754       -4.956346412      
                  -2.18417754       -4.956346412      0.2295342982      -0.05786188668    
4675004050        -0.04520652212    0.0702320655      -3.182652379      4.35741162        
                  -3.182652379      4.35741162        -0.255198058      -0.1913146193     
4760003960        0.05705867955     -0.01568748027    5.295461822       0.7266810161      
                  5.295461822       0.7266810161      -0.08629704229    0.3111381571      
4845003870        -0.07624225978    -0.06810664878    -1.936621085      -5.008557623      
                  -1.936621085      -5.008557623      0.1999914547      -0.1553881516     
4930003780        -0.07616368382    0.04034893357     -3.362550944      4.175394247       
                  -3.362550944      4.175394247       -0.3194451762     -0.09940306551    
5015003690        0.04995879553     0.03793567597     5.166195017       0.965304148       
                  5.166195017       0.965304148       0.03595593284     0.3350666551      
5100003600        -0.05179388865    -0.05640391122    -1.765513864      -5.07974285       
                  -1.765513864      -5.07974285       0.1199018441      -0.2289549169     
5185003510        -0.09061619433    0.00405270899     -3.418541136      3.955181512       
                  -3.418541136      3.955181512       -0.3494462326     0.01191317319     
5270003420        0.01381576934     0.0714982995      5.030522425       1.200308246       
                  5.030522425       1.200308246       0.1501689953      0.299514881       
5355003330        -0.04231467546    -0.02193599847    -1.650854678      -5.141683015      
                  -1.650854678      -5.141683015      -0.002233786846   -0.2792220955     
5440003240        -0.07143325422    -0.03955535625    -3.361859075      3.788868326       
                  -3.361859075      3.788868326       -0.319341202      0.1319669861      
5525003150        -0.01862874236    0.06089736711     5.017430418       1.31300153        
                  5.017430418       1.31300153        0.2690178051      0.2011786328      
5610003060        -0.03880022887    0.02829555135     -1.595079932      -4.985250852      
                  -1.595079932      -4.985250852      -0.1370358887     -0.2672597031     
5695002970        -0.01358766216    -0.04310523486    -3.365691706      3.571543746       
                  -3.365691706      3.571543746       -0.2211834879     0.2527517554      
5780002880        -0.0262133631     0.0232818797      4.970158929       1.408942787       
                  4.970158929       1.408942787       0.3292447141      0.05796324021     
5865002790        -0.07707945272    0.07630613754     -1.497193209      -4.721294159      
                  -1.497193209      -4.721294159      -0.2721464832     -0.1848636388     
5950002700        0.03694925663     0.005078697761    -3.399018394      3.363165643       
                  -3.399018394      3.363165643       -0.08288554969    0.3329518526      
6035002610        -0.0187472834     -0.03990712671    4.756408148       1.305897845       
                  4.756408148       1.305897845       0.2976118933      -0.09863114802    
6120002520        -0.1450730014     0.07358481736     -1.380144966      -4.462797749      
                  -1.380144966      -4.462797749      -0.3586701374     -0.04548327204    
6205002430        0.07106403533     0.08858057546     -3.283707685      3.157657674       
                  -3.283707685      3.157657674       0.1016397477      0.337456468       
6290002340        0.06064974518     -0.09153650663    4.530243937       1.164246227       
                  4.530243937       1.164246227       0.1944747703      -0.2477699788     
6375002250        -0.2156561921     0.008618211739    -1.278888276      -4.167806865      
                  -1.278888276      -4.167806865      -0.3759795338     0.1298233284      
6460002160        0.02970665704     0.2067182048      -3.040198684      2.957130154       
                  -3.040198684      2.957130154       0.2703224443      0.2719888359      
6545002070        0.1767129148      -0.06016153696    4.123065888       1.064761507       
                  4.123065888       1.064761507       0.0281820721      -0.3199191777     
6630001980        -0.2077348436     -0.1109910326     -1.133007126      -3.859955531      
                  -1.133007126      -3.859955531      -0.2992477935     0.3018618984      
6715001890        -0.0721526901     0.2753075178      -2.734049659      2.638562676       
                  -2.734049659      2.638562676       0.3838859383      0.1553601495      
6800001800        0.2664428744      0.05528784964     3.635207931       1.126773173       
                  3.635207931       1.126773173       -0.1314921119     -0.3089335659     
6885001710        -0.1029874847     -0.2409201037     -0.8203420876     -3.509777206      
                  -0.8203420876     -3.509777206      -0.188471346      0.3876891965      
6970001620        -0.2096340924     0.2340588714      -2.640268902      2.233703829       
                  -2.640268902      2.233703829       0.4227461667      0.02296264115     
7055001530        0.2639364184      0.2069668552      3.23008783        1.239972125       
                  3.23008783        1.239972125       -0.2564385013     -0.2713364844     
7140001440        0.0819114784      -0.3002122657     -0.5435250806     -3.23508428       
                  -0.5435250806     -3.23508428       -0.06295271194    0.453843576       
7225001350        -0.297118248      0.09639870778     -2.583007904      1.90135891        
                  -2.583007904      1.90135891        0.4523232962      -0.1031303501     
7310001260        0.170814229       0.3479040916      2.869083153       1.163047641       
                  2.869083153       1.163047641       -0.3588169984     -0.1849303185     
7395001170        0.2855588606      -0.2276638695     -0.24729002       -2.970974249      
                  -0.24729002       -2.970974249      0.07811256353     0.4819550194      
7480001080        -0.299185867      -0.1108912819     -2.418344691      1.614154883       
                  -2.418344691      1.614154883       0.3947038915      -0.2372876833     
7565000990        -0.03119715517    0.3998966002      2.619421407       1.165607146       
                  2.619421407       1.165607146       -0.4248201967     -0.08411072733    
7650000900        0.4010835551      -0.05604911954    -0.05482740053    -2.612420268      
                  -0.05482740053    -2.612420268      0.2130361381      0.4389242714      
7735000810        -0.1620867736     -0.3067597784     -2.298066732      1.347901623       
                  -2.298066732      1.347901623       0.3166205842      -0.3462073882     
7820000720        -0.2070106274     0.3175361392      2.279794275       1.241142741       
                  2.279794275       1.241142741       -0.4058796144     0.02482478001     
7905000630        0.4145271508      0.1385429917      0.09570759503     -2.301975848      
                  0.09570759503     -2.301975848      0.3248121086      0.362459745       
7990000540        0.0660683933      -0.3908326795     -2.215797796      0.926823993       
                  -2.215797796      0.926823993       0.2207453829      -0.4071103003     
8075000450        -0.3501622543     0.1201965074      1.909029384       1.433649117       
                  1.909029384       1.433649117       -0.3877393458     0.1188477753      
8160000360        0.2975250436      0.3137972282      0.250819925       -2.191225396      
                  0.250819925       -2.191225396      0.398814116       0.2796901056      
8245000270        0.2578655199      -0.3370555471     -2.040512117      0.6168077153      
                  -2.040512117      0.6168077153      0.1143704349      -0.4439286557     
8330000180        -0.3669903821     -0.1327052974     1.63867552        1.50019151        
                  1.63867552        1.50019151        -0.343267519      0.1942820399      
8415000090        0.07920381851     0.3931252165      0.3823479946      -1.999241108      
                  0.3823479946      -1.999241108      0.4354965095      0.1665843734      
8500000000        0.3836904056      -0.185960632      -1.832275432      0.4464868083      
                  -1.832275432      0.4464868083      -0.004550096882   -0.4600061872     
