! RsaToolbox (C) 2013 Rohde & Schwarz America
! 
! Number of points: 101
! Number of ports: 2
! Balanced ports?: 0
! 
! 
# Hz S RI R 50
9000              1.020323896       -0.02739862236    4.626663714e-05   -0.0001234719121  
                  4.626663714e-05   -0.0001234719121  1.023102131       -0.02466372461    
85008910          0.002591249968    0.1592069646      3.19412317        5.520136855       
                  3.19412317        5.520136855       -0.09229316957    -0.1155339087     
170008820         0.1423036723      -0.0444046885     3.196000622       -5.225988089      
                  3.196000622       -5.225988089      -0.02036008527    0.1714720333      
255008730         -0.1761397251     -0.07604991079    -6.063386735      -0.1702048162     
                  -6.063386735      -0.1702048162     0.07773238279     -0.02670011789    
340008640         -0.06366828868    0.1698520126      2.648676711       5.361274092       
                  2.648676711       5.361274092       -0.1262673338     -0.0536558725     
425008550         0.1597988963      -0.04628324562    3.392876137       -4.871071937      
                  3.392876137       -4.871071937      0.01689933548     0.1028766386      
510008460         -0.1015724288     -0.1637412632     -5.909341722      -0.6503644917     
                  -5.909341722      -0.6503644917     0.0706531945      -0.07972875254    
595008370         -0.1073676822     0.1399906799      2.232679705       5.431781843       
                  2.232679705       5.431781843       -0.08398018624    -0.01224940033    
680008280         0.2045588433      0.03376212807     3.668733563       -4.577665362      
                  3.668733563       -4.577665362      0.0919608309      0.07527578749     
765008190         0.009173505406    -0.164003483      -5.736556769      -1.105361132      
                  -5.736556769      -1.105361132      0.06011697363     -0.06075478647    
850008100         -0.1818828368     0.1118850598      1.86882138        5.528209995       
                  1.86882138        5.528209995       -0.07137719592    0.06502001069     
935008010         0.14563289        0.1237565505      3.951254429       -4.233140028      
                  3.951254429       -4.233140028      0.1020891414      0.03879704815     
1020007920        0.07547082997     -0.1542440252     -5.593577629      -1.452964577      
                  -5.593577629      -1.452964577      -0.004647184991   -0.07545816433    
1105007830        -0.2256827845     -0.008232557606   1.477077994       5.621013          
                  1.477077994       5.621013          -0.06292820042    0.07516465788     
1190007740        0.07162004556     0.1404481382      4.197522465       -3.86252143       
                  4.197522465       -3.86252143       0.1243966222      -0.04240111949    
1275007650        0.1643469854      -0.1087971837     -5.472065589      -1.835444774      
                  -5.472065589      -1.835444774      -0.03007987605    -0.08924857693    
1360007560        -0.1636845585     -0.1006648132     1.042301782       5.647273583       
                  1.042301782       5.647273583       -0.005570072238   0.1017317051      
1445007470        0.000605305829    0.1422016499      4.416450591       -3.543001468      
                  4.416450591       -3.543001468      0.1469340125      -0.08849641651    
1530007380        0.1844662928      -0.01148694114    -5.308282319      -2.191906359      
                  -5.308282319      -2.191906359      -0.06918492597    -0.064539838      
1615007290        -0.09425013301    -0.124227504      0.6176025199      5.606880263       
                  0.6176025199      5.606880263       0.02331711849     0.1418316828      
1700007200        -0.08868192098    0.09765599473     4.673655762       -3.244498315      
                  4.673655762       -3.244498315      0.1107038304      -0.1335542521     
1785007110        0.1286809994      0.03175710253     -5.066308272      -2.532673254      
                  -5.066308272      -2.532673254      -0.1314611626     -0.06406826967    
1870007020        -0.02186880105    -0.136444779      0.2231504941      5.611765475       
                  0.2231504941      5.611765475       0.06583034337     0.1318416525      
1955006930        -0.1071389408     0.02157630408     4.880672454       -2.886808979      
                  4.880672454       -2.886808979      0.08918747162     -0.1936838749     
2040006840        0.08354332955     0.03959765858     -4.829226732      -2.817824995      
                  -4.829226732      -2.817824995      -0.1546383768     -0.0415118675     
2125006750        0.03613765302     -0.09349344517    -0.194493388      5.640523147       
                  -0.194493388      5.640523147       0.1310401514      0.1366318531      
2210006660        -0.09282065706    -0.0008360033407  4.976860142       -2.53338001       
                  4.976860142       -2.53338001       0.04803972474     -0.2181352863     
2295006570        0.02953744646     0.03702114419     -4.596425995      -3.149277597      
                  -4.596425995      -3.149277597      -0.1862840691     0.01556968512     
2380006480        0.02937631875     -0.05318347523    -0.5604854702     5.577581075       
                  -0.5604854702     5.577581075       0.1666891049      0.1136949697      
2465006390        -0.08821018855    -0.0167012784     5.055630733       -2.213511344      
                  5.055630733       -2.213511344      -0.01956112693    -0.2597172731     
2550006300        0.01163964772     0.001876893747    -4.289634519      -3.487002399      
                  -4.289634519      -3.487002399      -0.1909007561     0.06070424731     
2635006210        0.02591501688     -0.04521881434    -0.9009920556     5.519488823       
                  -0.9009920556     5.519488823       0.2134194652      0.06409645802     
2720006120        -0.08267683247    -0.01078194823    5.132058648       -1.84248605       
                  5.132058648       -1.84248605       -0.09050231095    -0.264269084      
2805006030        0.01744618346     0.0005455094359   -4.002182338      -3.735049006      
                  -4.002182338      -3.735049006      -0.1628882168     0.1235417945      
2890005940        0.02183621983     -0.03662710706    -1.241080996      5.395887418       
                  -1.241080996      5.395887418       0.2322070424      0.009045766071    
2975005850        -0.09540307372    -0.008781287514   5.16469491        -1.385559301      
                  5.16469491        -1.385559301      -0.1620221805     -0.2472641534     
3060005760        0.01815527413     0.01038730004     -3.705850269      -4.078522653      
                  -3.705850269      -4.078522653      -0.1190925099     0.1687586546      
3145005670        0.03656992191     -0.04444593405    -1.63547174       5.242237447       
                  -1.63547174       5.242237447       0.2319873587      -0.07162581216    
3230005580        -0.1019270798     -0.0332120386     5.272400798       -0.9821619904     
                  5.272400798       -0.9821619904     -0.2273267355     -0.2073724291     
3315005490        0.01160876299     0.03240632532     -3.431384571      -4.306251704      
                  -3.431384571      -4.306251704      -0.04581784435    0.2026261596      
3400005400        0.06155893912     -0.02884518682    -1.995044208      5.077221697       
                  -1.995044208      5.077221697       0.201255613       -0.1452971135     
3485005310        -0.09808020652    -0.06416783374    5.371855669       -0.6155704648     
                  5.371855669       -0.6155704648     -0.2821325546     -0.1295469363     
3570005220        -0.02020964528    0.04935541548     -3.252270506      -4.497441303      
                  -3.252270506      -4.497441303      0.03344096188     0.2106949978      
3655005130        0.0690456339      0.004139519071    -2.190609726      4.94393896        
                  -2.190609726      4.94393896        0.1347925468      -0.2088557334     
3740005040        -0.07680676182    -0.09331360084    5.364216264       -0.258545004      
                  5.364216264       -0.258545004      -0.3118853238     -0.03942164964    
3825004950        -0.05899451626    0.03729971755     -2.978854082      -4.632384933      
                  -2.978854082      -4.632384933      0.1136351656      0.1761804458      
3910004860        0.06394663717     0.03753131143     -2.611076744      4.722347535       
                  -2.611076744      4.722347535       0.05015830609     -0.2588983801     
3995004770        -0.03092510637    -0.1114075646     5.399447385       0.06357438088     
                  5.399447385       0.06357438088     -0.3053631087     0.0657447675      
4080004680        -0.084784065      0.007787225195    -2.706261805      -4.803083866      
                  -2.706261805      -4.803083866      0.1905347621      0.1281125479      
4165004590        0.03965345544     0.07041886084     -2.872430278      4.585173336       
                  -2.872430278      4.585173336       -0.04645085025    -0.2712986962     
4250004500        0.01156796542     -0.08812669684    5.486907105       0.3091379009      
                  5.486907105       0.3091379009      -0.265208837      0.1755733348      
4335004410        -0.1014414676     -0.01989031501    -2.449117965      -4.913642096      
                  -2.449117965      -4.913642096      0.2297734191      0.04456687255     
4420004320        -0.007527459536   0.08374885131     -3.076848387      4.469577321       
                  -3.076848387      4.469577321       -0.1639924111     -0.2507985923     
4505004230        0.03808974135     -0.05671547264    5.437156637       0.4895037061      
                  5.437156637       0.4895037061      -0.1965219894     0.2591573927      
4590004140        -0.1001909728     -0.0522736062     -2.182296814      -4.950728585      
                  -2.182296814      -4.950728585      0.2295963969      -0.0576494364     
4675004050        -0.04486137372    0.07042913515     -3.174803994      4.354597338       
                  -3.174803994      4.354597338       -0.2554175856     -0.1913103116     
4760003960        0.05715506318     -0.01604701747    5.288133681       0.7254423529      
                  5.288133681       0.7254423529      -0.0863899849     0.3113383938      
4845003870        -0.07665740443    -0.06844532397    -1.934382523      -5.001292139      
                  -1.934382523      -5.001292139      0.2003074266      -0.1549978959     
4930003780        -0.07625391562    0.04068622055     -3.354873786      4.17456186        
                  -3.354873786      4.17456186        -0.3194868091     -0.09945499197    
5015003690        0.04992948224     0.03736456203     5.158339894       0.9650084065      
                  5.158339894       0.9650084065      0.03581604854     0.3344221034      
5100003600        -0.05176389089    -0.05617574877    -1.7621496        -5.072495235      
                  -1.7621496        -5.072495235      0.1194551786      -0.2293390331     
5185003510        -0.09092780707    0.004138272768    -3.413771148      3.94837721        
                  -3.413771148      3.94837721        -0.3493669086     0.01121407109     
5270003420        0.01462664539     0.0716849956      5.025307591       1.198523502       
                  5.025307591       1.198523502       0.1501058736      0.2994880584      
5355003330        -0.04212952602    -0.02228482363    -1.647298094      -5.135336594      
                  -1.647298094      -5.135336594      -0.00234118275    -0.2788107494     
5440003240        -0.07160903288    -0.03915077965    -3.36132929       3.779839474       
                  -3.36132929       3.779839474       -0.3195019528     0.1318914649      
5525003150        -0.01855836299    0.06106649879     5.009061691       1.3139795         
                  5.009061691       1.3139795         0.2689522625      0.201311718       
5610003060        -0.03869213694    0.02792236035     -1.59250918       -4.97678117       
                  -1.59250918       -4.97678117       -0.1370852402     -0.2678158241     
5695002970        -0.01378751849    -0.04314078895    -3.358716041      3.564708603       
                  -3.358716041      3.564708603       -0.2207261275     0.253083228       
5780002880        -0.02618063382    0.02364304568     4.959651469       1.407657702       
                  4.959651469       1.407657702       0.3291916524      0.05799652505     
5865002790        -0.07666164113    0.07591315643     -1.490874768      -4.714346269      
                  -1.490874768      -4.714346269      -0.2722140846     -0.1852864886     
5950002700        0.03590783713     0.004859910573    -3.394416596      3.357246665       
                  -3.394416596      3.357246665       -0.08286055481    0.3331062722      
6035002610        -0.01877428772    -0.03900413058    4.749056101       1.304144513       
                  4.749056101       1.304144513       0.2979524068      -0.09884706102    
6120002520        -0.1443813168     0.0735688344      -1.374934668      -4.457331163      
                  -1.374934668      -4.457331163      -0.3585683741     -0.04541327457    
6205002430        0.07133454834     0.0879178963      -3.280804849      3.15158659        
                  -3.280804849      3.15158659        0.1020145294      0.3369993778      
6290002340        0.06027029353     -0.09041180589    4.52202263        1.165117132       
                  4.52202263        1.165117132       0.1945051632      -0.2479392085     
6375002250        -0.214872872      0.008458116051    -1.274922939      -4.163205971      
                  -1.274922939      -4.163205971      -0.3760405608     0.1300259473      
6460002160        0.02966723138     0.2058584411      -3.035557178      2.951603967       
                  -3.035557178      2.951603967       0.2707404225      0.2721523779      
6545002070        0.1760424326      -0.05995509602    4.118273149       1.068267974       
                  4.118273149       1.068267974       0.02858057957     -0.3198916914     
6630001980        -0.2070614253     -0.1106732758     -1.130816101      -3.855492142      
                  -1.130816101      -3.855492142      -0.2984597613     0.3022265182      
6715001890        -0.0716295373     0.274823965       -2.732616345      2.635518311       
                  -2.732616345      2.635518311       0.3837105938      0.1559499122      
6800001800        0.2654551177      0.05539318757     3.630488124       1.126384716       
                  3.630488124       1.126384716       -0.1315395003     -0.3089197559     
6885001710        -0.1030086454     -0.2404059745     -0.8200321647     -3.505388374      
                  -0.8200321647     -3.505388374      -0.1881211593     0.3878078843      
6970001620        -0.2092449889     0.2330707728      -2.641966593      2.226659957       
                  -2.641966593      2.226659957       0.4235638724      0.02346073404     
7055001530        0.2630432599      0.2072990217      3.225750139       1.244053717       
                  3.225750139       1.244053717       -0.2570277146     -0.2715594211     
7140001440        0.08175003565     -0.2995974411     -0.5404728111     -3.231792179      
                  -0.5404728111     -3.231792179      -0.0633054109     0.4536959662      
7225001350        -0.2965850875     0.09629776876     -2.581700362      1.899169757       
                  -2.581700362      1.899169757       0.4528569087      -0.1034661367     
7310001260        0.1700235264      0.3470549544      2.866695171       1.162388331       
                  2.866695171       1.162388331       -0.3586899973     -0.1849308642     
7395001170        0.2853381129      -0.2273945194     -0.2458981976     -2.968247031      
                  -0.2458981976     -2.968247031      0.07740895583     0.4816975604      
7480001080        -0.2987555357     -0.111039317      -2.418057889      1.612524324       
                  -2.418057889      1.612524324       0.3946707848      -0.2375523582     
7565000990        -0.03094888545    0.3996269655      2.617100918       1.165463306       
                  2.617100918       1.165463306       -0.4250675164     -0.08425545844    
7650000900        0.4009454741      -0.05663000789    -0.0533320284     -2.611282406      
                  -0.0533320284     -2.611282406      0.2127245057      0.4386136773      
7735000810        -0.1612943381     -0.3063795725     -2.29852522       1.347646397       
                  -2.29852522       1.347646397       0.3175292582      -0.3462691011     
7820000720        -0.2070838403     0.3173122276      2.278023084       1.242746745       
                  2.278023084       1.242746745       -0.4057298752     0.0246440718      
7905000630        0.4144885362      0.1386182201      0.09758557813     -2.301265665      
                  0.09758557813     -2.301265665      0.3242768627      0.3621760983      
7990000540        0.06635600407     -0.3905731234     -2.21644057       0.9257864593      
                  -2.21644057       0.9257864593      0.2213712174      -0.4069597419     
8075000450        -0.3502266184     0.1202059797      1.907454145       1.434504604       
                  1.907454145       1.434504604       -0.3876267435     0.1187698319      
8160000360        0.2971688783      0.3135737408      0.2519602822      -2.191144815      
                  0.2519602822      -2.191144815      0.3997141889      0.2800004583      
8245000270        0.2581765216      -0.3371700043     -2.040247536      0.6156973482      
                  -2.040247536      0.6156973482      0.1142633357      -0.4439262242     
8330000180        -0.3666631558     -0.1324654708     1.63770059        1.500247665       
                  1.63770059        1.500247665       -0.3434341549     0.1938064106      
8415000090        0.07862345094     0.3934440609      0.3846184505      -1.99812659       
                  0.3846184505      -1.99812659       0.4362023273      0.1673290247      
8500000000        0.3828929287      -0.1859466018     -1.832415912      0.4462204961      
                  -1.832415912      0.4462204961      -0.004789018169   -0.4599233656     
