! RsaToolbox (C) 2013 Rohde & Schwarz America
! 
! Number of points: 101
! Number of ports: 2
! Balanced ports?: 0
! 
! 
# Hz S RI R 50
9000              0.9920268497      -0.01168900059    7.641103497e-05   -2.641657957e-05  
                  7.641103497e-05   -2.641657957e-05  1.003261254       -0.01917487498    
85008910          -0.02127294192    0.1063307906      2.872437401       4.815434016       
                  2.872437401       4.815434016       -0.09222158245    -0.1164493289     
170008820         0.1070049113      -0.008883596825   2.89913615        -4.830202449      
                  2.89913615        -4.830202449      -0.02103972012    0.1718374262      
255008730         -0.1447489759     -0.0674315958     -5.656654015      -0.05435139811    
                  -5.656654015      -0.05435139811    0.07780420539     -0.02665320606    
340008640         -0.06644909451    0.1327180967      2.561447945       4.940052651       
                  2.561447945       4.940052651       -0.127016694      -0.05431349198    
425008550         0.1267086412      -0.03276783856    3.085202539       -4.622429672      
                  3.085202539       -4.622429672      0.01628484028     0.1029643189      
510008460         -0.0776333608     -0.1415122667     -5.537340423      -0.4558361355     
                  -5.537340423      -0.4558361355     0.07092743391     -0.07989290803    
595008370         -0.09027965102    0.1042925868      2.180058766       5.056540887       
                  2.180058766       5.056540887       -0.08414899724    -0.01241318768    
680008280         0.175254311       0.03653295859     3.303127946       -4.410731822      
                  3.303127946       -4.410731822      0.09211214182     0.07572882424     
765008190         0.01999249857     -0.1253406372     -5.40474941       -0.9398456301     
                  -5.40474941       -0.9398456301     0.06039393562     -0.060822992      
850008100         -0.1633723913     0.08998619696     1.952418653       5.121583216       
                  1.952418653       5.121583216       -0.07208109367    0.0649273188      
935008010         0.1172435788      0.1078818188      3.623462146       -4.098835568      
                  3.623462146       -4.098835568      0.1021989255      0.03897014985     
1020007920        0.06793511436     -0.1190280752     -5.308395673      -1.257087818      
                  -5.308395673      -1.257087818      -0.004915379413   -0.07613547067    
1105007830        -0.2018886719     -0.020017515      1.657691421       5.146030062       
                  1.657691421       5.146030062       -0.06361108958    0.07524502822     
1190007740        0.0541891175      0.106650538       3.905461658       -3.711577718      
                  3.905461658       -3.711577718      0.1243588087      -0.04231778666    
1275007650        0.1459929435      -0.08353097114    -5.222359914      -1.533517256      
                  -5.222359914      -1.533517256      -0.03026245786    -0.08930987211    
1360007560        -0.1339934622     -0.09105641602    1.206785118       5.273700872       
                  1.206785118       5.273700872       -0.005936280052   0.102119077       
1445007470        0.00190426038     0.1015001661      4.09000141        -3.428496954      
                  4.09000141        -3.428496954      0.1474315427      -0.08823723511    
1530007380        0.1472970168      0.001610015893    -5.042167655      -1.768933104      
                  -5.042167655      -1.768933104      -0.06963557121    -0.06488058245    
1615007290        -0.06256170702    -0.07879369715    0.8070535387      5.151095559       
                  0.8070535387      5.151095559       0.02269890295     0.1425561694      
1700007200        -0.05900081531    0.05573584848     4.197483421       -3.212662548      
                  4.197483421       -3.212662548      0.1110633984      -0.1335951904     
1785007110        0.07284685022     0.01514443715     -4.796827382      -2.103009304      
                  -4.796827382      -2.103009304      -0.1324789644     -0.06426634695    
1870007020        -0.02032862058    -0.07271962614    0.501900614       5.16024337        
                  0.501900614       5.16024337        0.06551699074     0.1326655181      
1955006930        -0.04867699989    -0.0006358538428  4.338020381       -2.940937611      
                  4.338020381       -2.940937611      0.08952787318     -0.1941941913     
2040006840        0.03630569467     -0.01170251042    -4.595789611      -2.32469555       
                  -4.595789611      -2.32469555       -0.1554091892     -0.04197568477    
2125006750        0.001114641857    -0.03291313362    0.1819352629      5.196317272       
                  0.1819352629      5.196317272       0.130809079       0.1372952187      
2210006660        -0.01804870381    0.01018886356     4.372799088       -2.662653835      
                  4.372799088       -2.662653835      0.04824898166     -0.2186576265     
2295006570        0.01137335162     -0.04007400073    -4.389488454      -2.552481091      
                  -4.389488454      -2.552481091      -0.1867919114     0.01490474257     
2380006480        -0.04155722717    -0.009530873926   -0.08321265126    5.092126253       
                  -0.08321265126    5.092126253       0.1668992438      0.1142168006      
2465006390        -0.0157847189     0.03671295727     4.354903372       -2.429710308      
                  4.354903372       -2.429710308      -0.01942539711    -0.2604255041     
2550006300        0.02975809292     -0.08306970226    -4.099902875      -2.823471316      
                  -4.099902875      -2.823471316      -0.1915473586     0.06040814729     
2635006210        -0.07558650712    -0.03925392718    -0.2355820113     4.955729944       
                  -0.2355820113     4.955729944       0.2137792067      0.06417022075     
2720006120        -0.03595121655    0.07843079509     4.37025227        -2.12669973       
                  4.37025227        -2.12669973       -0.09055459096    -0.265545062      
2805006030        0.08174208975     -0.07519262806    -3.872313929      -2.913514881      
                  -3.872313929      -2.913514881      -0.1636338527     0.1229809074      
2890005940        -0.08568960814    -0.08563893139    -0.4221247537     4.768017292       
                  -0.4221247537     4.768017292       0.2327236571      0.008865553952    
2975005850        -0.09157763951    0.1033841421      4.339360471       -1.719731393      
                  4.339360471       -1.719731393      -0.1622585343     -0.2488335233     
3060005760        0.1240886773      -0.02854137575    -3.64102806       -3.098362142      
                  -3.64102806       -3.098362142      -0.1193247012     0.1684707716      
3145005670        -0.04240293227    -0.1371852755     -0.7667682909     4.642354819       
                  -0.7667682909     4.642354819       0.2326683818      -0.07172158222    
3230005580        -0.1503417913     0.07227845736     4.409820371       -1.388370681      
                  4.409820371       -1.388370681      -0.2267256249     -0.2089956094     
3315005490        0.1418633531      0.04951348742     -3.423939016      -3.118584051      
                  -3.423939016      -3.118584051      -0.04606069642    0.2027296676      
3400005400        0.02610590433     -0.1640879486     -0.9653514236     4.427476938       
                  -0.9653514236     4.427476938       0.202782887       -0.1451085121     
3485005310        -0.2045013587     0.01921608288     4.349434208       -1.161731823      
                  4.349434208       -1.161731823      -0.2819207659     -0.1305513452     
3570005220        0.106354607       0.1338621357      -3.252997044      -3.106107983      
                  -3.252997044      -3.106107983      0.03371942109     0.211410797       
3655005130        0.09692650652     -0.1495071941     -1.036553933      4.220773005       
                  -1.036553933      4.220773005       0.1360250755      -0.2085986778     
3740005040        -0.2230162511     -0.06419716477    4.21029221        -0.9454782228     
                  4.21029221        -0.9454782228     -0.3117960534     -0.04012979254    
3825004950        0.02770747542     0.1868132488      -2.976192139      -3.035389935      
                  -2.976192139      -3.035389935      0.1140839583      0.1774785466      
3910004860        0.1693051484      -0.1014841058     -1.260711557      3.972069215       
                  -1.260711557      3.972069215       0.05213362732     -0.2588714168     
3995004770        -0.1953529978     -0.1554266826     4.037169221       -0.7620979347     
                  4.037169221       -0.7620979347     -0.3055160082     0.06537730045     
4080004680        -0.07090135514    0.194256661       -2.685915465      -3.080064588      
                  -2.685915465      -3.080064588      0.1921811087      0.1289338582      
4165004590        0.1993293613      -0.01542695263    -1.46842096       3.805659016       
                  -1.46842096       3.805659016       -0.0457242599     -0.2731146686     
4250004500        -0.1270951829     -0.2057335924     3.991891588       -0.5488153189     
                  3.991891588       -0.5488153189     -0.265630943      0.1760608702      
4335004410        -0.1685686963     0.1597626197      -2.436755654      -3.127104018      
                  -2.436755654      -3.127104018      0.2311658099      0.04501385861     
4420004320        0.1810193972      0.07366223884     -1.578430886      3.635221361       
                  -1.578430886      3.635221361       -0.1634850461     -0.2516589025     
4505004230        -0.0417991224     -0.2282368562     3.857281916       -0.4064831941     
                  3.857281916       -0.4064831941     -0.1971794253     0.2594647563      
4590004140        -0.2367012628     0.08586056275     -2.183866246      -3.105169545      
                  -2.183866246      -3.105169545      0.2302918459      -0.057251228      
4675004050        0.1315687716      0.1443762111      -1.623699599      3.438089732       
                  -1.623699599      3.438089732       -0.2557231243     -0.192004974      
4760003960        0.05847879786     -0.2093946944     3.699947981       -0.2103335316     
                  3.699947981       -0.2103335316     -0.08731836699    0.311726008       
4845003870        -0.2563994414     -0.001410939838   -1.935010309      -3.093990809      
                  -1.935010309      -3.093990809      0.2008529963      -0.1547121655     
4930003780        0.0488596949      0.1881721175      -1.753567686      3.205663058       
                  -1.753567686      3.205663058       -0.3203620284     -0.1003131395     
5015003690        0.1340826979      -0.1421575999     3.5643503         0.008355425378    
                  3.5643503         0.008355425378    0.03496771236     0.3356300724      
5100003600        -0.2423525018     -0.07744747939    -1.747994777      -3.055650998      
                  -1.747994777      -3.055650998      0.1199430377      -0.2294985639     
5185003510        -0.04149746136    0.1922948556      -1.820013932      2.956330589       
                  -1.820013932      2.956330589       -0.3507972819     0.01080000159     
5270003420        0.1651419665      -0.05454703071    3.437153453       0.2435942633      
                  3.437153453       0.2435942633      0.1491100926      0.3008535533      
5355003330        -0.2024342006     -0.129082695      -1.605082879      -3.011528616      
                  -1.605082879      -3.011528616      -0.001817400219   -0.2799350011     
5440003240        -0.1048888123     0.1507394736      -1.853466534      2.79663554        
                  -1.853466534      2.79663554        -0.3207547412     0.1313476667      
5525003150        0.1645539957      0.01576005953     3.36404839        0.3593768083      
                  3.36404839        0.3593768083      0.2690085847      0.2025357719      
5610003060        -0.1335041489     -0.1367300601     -1.493392086      -2.941901961      
                  -1.493392086      -2.941901961      -0.1361928616     -0.2687475258     
5695002970        -0.1227440036     0.1120709341      -1.881925604      2.597575396       
                  -1.881925604      2.597575396       -0.222315544      0.2528096458      
5780002880        0.1508053907      0.0679700692      3.254481277       0.4595305885      
                  3.254481277       0.4595305885      0.3301552582      0.05913842673     
5865002790        -0.09001760935    -0.1114073309     -1.327165407      -2.8513687        
                  -1.327165407      -2.8513687        -0.2717879544     -0.1864418717     
5950002700        -0.1218896181     0.09492482816     -1.923517916      2.418981755       
                  -1.923517916      2.418981755       -0.08354377228    0.3337543234      
6035002610        0.1149515751      0.07909169465     3.068363284       0.4786552503      
                  3.068363284       0.4786552503      0.3000218351      -0.09635850004    
6120002520        -0.07467686621    -0.09711079829    -1.166186147      -2.745965169      
                  -1.166186147      -2.745965169      -0.3581768362     -0.04650006106    
6205002430        -0.1042198891     0.09657603795     -1.899283189      2.27315542        
                  -1.899283189      2.27315542        0.1024542076      0.3383600407      
6290002340        0.1236706574      0.07131367338     2.917955688       0.4836189425      
                  2.917955688       0.4836189425      0.1971820342      -0.2477537794     
6375002250        -0.08631942945    -0.1133275069     -1.04413854       -2.652031046      
                  -1.04413854       -2.652031046      -0.3763393922     0.1287874567      
6460002160        -0.1216264324     0.142236677       -1.83317437       2.141996366       
                  -1.83317437       2.141996366       0.2713930127      0.2732177         
6545002070        0.1632317562      0.1045788592      2.714123961       0.4997575488      
                  2.714123961       0.4997575488      0.03001030045     -0.320784989      
6630001980        -0.04878341356    -0.1634123804     -0.9109813305     -2.520330465      
                  -0.9109813305     -2.520330465      -0.2995681011     0.3023656817      
6715001890        -0.1750773447     0.1615184275      -1.730143516      1.921277611       
                  -1.730143516      1.921277611       0.384448805       0.157262653       
6800001800        0.1914125466      0.1855346438      2.47243392        0.5909096766      
                  2.47243392        0.5909096766      -0.1309994827     -0.3092950319     
6885001710        0.04810088173     -0.2204340149     -0.6806049053     -2.364113473      
                  -0.6806049053     -2.364113473      -0.188924208      0.3888203291      
6970001620        -0.2517164142     0.09941406457     -1.761937532      1.665428342       
                  -1.761937532      1.665428342       0.4240254865      0.02462932815     
7055001530        0.1575250716      0.2842353025      2.306702424       0.727655509       
                  2.306702424       0.727655509       -0.2573814386     -0.2718248029     
7140001440        0.1840378423      -0.2309393415     -0.4982523213     -2.327897738      
                  -0.4982523213     -2.327897738      -0.06418789117    0.4550041022      
7225001350        -0.2830652144     -0.02527942779    -1.817540889      1.477416572       
                  -1.817540889      1.477416572       0.4533495492      -0.102607744      
7310001260        0.0681847947      0.3668313575      2.169778889       0.7552995895      
                  2.169778889       0.7552995895      -0.3594212755     -0.1855004394     
7395001170        0.3367644213      -0.1351665707     -0.2753630539     -2.208655454      
                  -0.2753630539     -2.208655454      0.07642482654     0.4830576722      
7480001080        -0.23665057       -0.2057378758     -1.745596127      1.256187048       
                  -1.745596127      1.256187048       0.3952610951      -0.2367333747     
7565000990        -0.128646209      0.3754824213      1.981282219       0.7991231686      
                  1.981282219       0.7991231686      -0.4261148261     -0.08504579081    
7650000900        0.4083109232      0.02777624066     -0.1124619032     -2.04566751       
                  -0.1124619032     -2.04566751       0.2121225005      0.4398572119      
7735000810        -0.09118135539    -0.346680686      -1.801959812      1.107357669       
                  -1.801959812      1.107357669       0.3179841761      -0.3466218896     
7820000720        -0.270244516      0.2702787009      1.827302932       0.9467698614      
                  1.827302932       0.9467698614      -0.407481197      0.0242638425      
7905000630        0.3935536095      0.1991440916      0.03758621339     -1.893752427      
                  0.03758621339     -1.893752427      0.3240951594      0.3636700532      
7990000540        0.1334298235      -0.395432915      -1.786857448      0.7705000497      
                  -1.786857448      0.7705000497      0.222110814       -0.4082871627     
8075000450        -0.3818556601     0.05852974572     1.564174687       1.157862968       
                  1.564174687       1.157862968       -0.3893894328     0.1184294748      
8160000360        0.2568801416      0.357533997       0.1834053458      -1.820365595      
                  0.1834053458      -1.820365595      0.3997766632      0.2805975183      
8245000270        0.3047894295      -0.3176006        -1.722179958      0.5490504689      
                  -1.722179958      0.5490504689      0.1147335808      -0.4452153149     
8330000180        -0.3645554688     -0.1870651334     1.394865011       1.248624024       
                  1.394865011       1.248624024       -0.3439243853     0.1930585803      
8415000090        0.03259302832     0.410507466       0.3077732302      -1.711793092      
                  0.3077732302      -1.711793092      0.4367906961      0.1675454871      
8500000000        0.4095143384      -0.1573968423     -1.60469688       0.4153525248      
                  -1.60469688       0.4153525248      -0.003725742532   -0.4619337904     
