! RsaToolbox (C) 2013 Rohde & Schwarz America
! 
! Number of points: 101
! Number of ports: 2
! Balanced ports?: 0
! 
! 
# Hz S RI R 50
9000              1.012080941       -0.02105940395    5.527154822e-05   -2.015130483e-05  
                  5.527154822e-05   -2.015130483e-05  1.019650191       -0.02382533912    
85008910          0.002628928244    0.1591531917      3.194493139       5.519333085       
                  3.194493139       5.519333085       -0.09201078096    -0.1156218704     
170008820         0.142428921       -0.04439510672    3.194889352       -5.226185751      
                  3.194889352       -5.226185751      -0.02030391954    0.1712758006      
255008730         -0.1762445812     -0.07585196937    -6.062483964      -0.1710174644     
                  -6.062483964      -0.1710174644     0.07782054808     -0.02639225723    
340008640         -0.06339370897    0.1701428646      2.652547149       5.358722029       
                  2.652547149       5.358722029       -0.1265393101     -0.05342853973    
425008550         0.1598018949      -0.0463750699     3.392967055       -4.869650944      
                  3.392967055       -4.869650944      0.01664659769     0.1030010562      
510008460         -0.1017600571     -0.1636008616     -5.910931738      -0.6491498213     
                  -5.910931738      -0.6491498213     0.07068036443     -0.07933139708    
595008370         -0.107394009      0.1400635966      2.227524535       5.430731504       
                  2.227524535       5.430731504       -0.08371135687    -0.01210298631    
680008280         0.2047055438      0.03375663334     3.667675215       -4.576813013      
                  3.667675215       -4.576813013      0.0922444632      0.07519672884     
765008190         0.00941328519     -0.163891043      -5.735671054      -1.105638453      
                  -5.735671054      -1.105638453      0.0601832555      -0.06073828374    
850008100         -0.1820478325     0.1118142355      1.869216877       5.528965447       
                  1.869216877       5.528965447       -0.07176191019    0.06505177039     
935008010         0.1460526426      0.1238838608      3.950190183       -4.231312749      
                  3.950190183       -4.231312749      0.102203943       0.03907568749     
1020007920        0.07575128596     -0.1543282252     -5.592301926      -1.452257204      
                  -5.592301926      -1.452257204      -0.004955737817   -0.07552725929    
1105007830        -0.2255845791     -0.008431264425   1.475488896       5.620459454       
                  1.475488896       5.620459454       -0.06281150943    0.07518760015     
1190007740        0.07133439822     0.1405653632      4.199874198       -3.861050805      
                  4.199874198       -3.861050805      0.124147722       -0.04265507135    
1275007650        0.1644558203      -0.1090424722     -5.470355826      -1.834464325      
                  -5.470355826      -1.834464325      -0.02998119434    -0.08888614889    
1360007560        -0.1639126754     -0.1006431698     1.043066293       5.648262279       
                  1.043066293       5.648262279       -0.005122802486   0.1015052882      
1445007470        0.0004054516646   0.1423558977      4.41751092        -3.54238067       
                  4.41751092        -3.54238067       0.1470763012      -0.08840114711    
1530007380        0.1847874237      -0.01131943666    -5.307518156      -2.190728797      
                  -5.307518156      -2.190728797      -0.06926282256    -0.06438809252    
1615007290        -0.09444542323    -0.1244713994     0.6164809903      5.607107282       
                  0.6164809903      5.607107282       0.02324104788     0.1419072288      
1700007200        -0.08877104057    0.09770291076     4.672851291       -3.243796024      
                  4.672851291       -3.243796024      0.1106050776      -0.1332620258     
1785007110        0.1288889979      0.03183419539     -5.066866666      -2.531645814      
                  -5.066866666      -2.531645814      -0.1320381878     -0.06396688369    
1870007020        -0.02175377657    -0.1362733856     0.2226736657      5.609440471       
                  0.2226736657      5.609440471       0.06587583681     0.132103056       
1955006930        -0.1072432576     0.02174639557     4.880500736       -2.8876966        
                  4.880500736       -2.8876966        0.08897711464     -0.1939442541     
2040006840        0.08313086696     0.03922663931     -4.828773985      -2.817018976      
                  -4.828773985      -2.817018976      -0.1546802583     -0.04131767924    
2125006750        0.03646072467     -0.09371853805    -0.193077386      5.639733582       
                  -0.193077386      5.639733582       0.1310180023      0.1368894894      
2210006660        -0.09276617367    -0.0008128676453  4.97556702        -2.533189699      
                  4.97556702        -2.533189699      0.04802835444     -0.2180496712     
2295006570        0.02970459543     0.03703766856     -4.59672411       -3.147779217      
                  -4.59672411       -3.147779217      -0.1860926149     0.01556048257     
2380006480        0.0291628367      -0.05308532701    -0.5573105868     5.57713103        
                  -0.5573105868     5.57713103        0.1668928247      0.1140397089      
2465006390        -0.08830748077    -0.01691693287    5.056454441       -2.213313195      
                  5.056454441       -2.213313195      -0.01989188945    -0.2594974222     
2550006300        0.01179687573     0.001831574711    -4.290151521      -3.486797324      
                  -4.290151521      -3.486797324      -0.1908373667     0.06079514748     
2635006210        0.02613407929     -0.04520490896    -0.8989471083     5.519746315       
                  -0.8989471083     5.519746315       0.2131176791      0.06405109583     
2720006120        -0.0827793956     -0.01087982631    5.130519258       -1.842545528      
                  5.130519258       -1.842545528      -0.09071728765    -0.2642099248     
2805006030        0.01754462049     0.0004536232608   -4.004617732      -3.734165797      
                  -4.004617732      -3.734165797      -0.1630913268     0.1237685264      
2890005940        0.02211786772     -0.03692314272    -1.243221958      5.396079205       
                  -1.243221958      5.396079205       0.2320783992      0.009110324923    
2975005850        -0.09524397038    -0.008057976939   5.163019931       -1.38567914       
                  5.163019931       -1.38567914       -0.1623887382     -0.2473399441     
3060005760        0.01817411869     0.01017395509     -3.707532112      -4.077510662      
                  -3.707532112      -4.077510662      -0.1188289999     0.1687308259      
3145005670        0.03646822981     -0.04443963584    -1.636325536      5.243438684       
                  -1.636325536      5.243438684       0.2314443321      -0.07177379594    
3230005580        -0.1019324381     -0.03353273921    5.273181683       -0.9825727624     
                  5.273181683       -0.9825727624     -0.2270293531     -0.2077921008     
3315005490        0.01138066866     0.03162179974     -3.432327081      -4.305917812      
                  -3.432327081      -4.305917812      -0.04577869208    0.2030606909      
3400005400        0.06130810899     -0.02889540702    -1.993602529      5.075600204       
                  -1.993602529      5.075600204       0.2011028019      -0.1447704487     
3485005310        -0.09793478393    -0.06425430759    5.373601015       -0.6152726155     
                  5.373601015       -0.6152726155     -0.2825470301     -0.1295346621     
3570005220        -0.02001183083    0.04940392683     -3.251355245      -4.496027247      
                  -3.251355245      -4.496027247      0.03352623947     0.2108687076      
3655005130        0.06898299917     0.004174598888    -2.189694111      4.94416516        
                  -2.189694111      4.94416516        0.1343681718      -0.2088347841     
3740005040        -0.07731024677    -0.09316752584    5.364407714       -0.2570352747     
                  5.364407714       -0.2570352747     -0.3125778629     -0.03944495507    
3825004950        -0.05869574553    0.03702861968     -2.979269497      -4.631664866      
                  -2.979269497      -4.631664866      0.1135446295      0.1765563992      
3910004860        0.06423907291     0.03771946238     -2.611221301      4.722623588       
                  -2.611221301      4.722623588       0.05035897385     -0.259129094      
3995004770        -0.03083106949    -0.1116187898     5.397458387       0.06440140937     
                  5.397458387       0.06440140937     -0.3051582099     0.06516366587     
4080004680        -0.08502404664    0.007851946275    -2.70411873       -4.803310189      
                  -2.70411873       -4.803310189      0.1905808284      0.1280445533      
4165004590        0.03948566232     0.07049230615     -2.87213943       4.583834623       
                  -2.87213943       4.583834623       -0.04670740963    -0.2714392273     
4250004500        0.01164267428     -0.08814597311    5.486267894       0.3098918405      
                  5.486267894       0.3098918405      -0.2658392456     0.1755111974      
4335004410        -0.1013557524     -0.0195987294     -2.447186994      -4.913647979      
                  -2.447186994      -4.913647979      0.2295690248      0.04446641738     
4420004320        -0.007373954387   0.08379208944     -3.076682066      4.470710722       
                  -3.076682066      4.470710722       -0.163946983      -0.2505169598     
4505004230        0.03820750144     -0.05727225599    5.436496063       0.4897277902      
                  5.436496063       0.4897277902      -0.1966339482     0.2592690037      
4590004140        -0.09997850814    -0.05189294484    -2.179600749      -4.950604938      
                  -2.179600749      -4.950604938      0.2295087988      -0.05765271287    
4675004050        -0.04497612033    0.07071838119     -3.174528373      4.353255414       
                  -3.174528373      4.353255414       -0.2553896047     -0.1908148142     
4760003960        0.05700548073     -0.01609194428    5.28769882        0.7249021484      
                  5.28769882        0.7249021484      -0.08615663732    0.3112117492      
4845003870        -0.07661715698    -0.06881912343    -1.934840022      -5.000073181      
                  -1.934840022      -5.000073181      0.1998904653      -0.1550827705     
4930003780        -0.07652639068    0.04107999139     -3.359177023      4.170507359       
                  -3.359177023      4.170507359       -0.3194891454     -0.09926931694    
5015003690        0.05019029194     0.03767581109     5.159594553       0.9661987683      
                  5.159594553       0.9661987683      0.03605086458     0.3342058959      
5100003600        -0.05210755856    -0.05653977171    -1.761507321      -5.073434265      
                  -1.761507321      -5.073434265      0.119556074       -0.2293069415     
5185003510        -0.09086036094    0.004065625322    -3.413078838      3.947753094       
                  -3.413078838      3.947753094       -0.349405924      0.01169334005     
5270003420        0.01472143764     0.07190988437     5.02409126        1.199193892       
                  5.02409126        1.199193892       0.1499753001      0.2996876069      
5355003330        -0.04219885744    -0.02261154178    -1.646083586      -5.133807895      
                  -1.646083586      -5.133807895      -0.002262723579   -0.2786098856     
5440003240        -0.07164819011    -0.03949277552    -3.358552635      3.782794642       
                  -3.358552635      3.782794642       -0.319347594      0.1326333683      
5525003150        -0.01827834361    0.06092519249     5.008864049       1.312432327       
                  5.008864049       1.312432327       0.2692843384      0.2012215807      
5610003060        -0.03838077005    0.02748858433     -1.591074092      -4.975352358      
                  -1.591074092      -4.975352358      -0.1366291633     -0.2675566142     
5695002970        -0.01406911711    -0.04346508711    -3.358742222      3.563882883       
                  -3.358742222      3.563882883       -0.2211138486     0.2527548651      
5780002880        -0.02608047428    0.02371490586     4.960105989       1.407739741       
                  4.960105989       1.407739741       0.3294525602      0.05783283606     
5865002790        -0.07651550999    0.07593117683     -1.492504388      -4.714215131      
                  -1.492504388      -4.714215131      -0.272452425      -0.1853014114     
5950002700        0.03607409347     0.004990494859    -3.393599015      3.357043471       
                  -3.393599015      3.357043471       -0.08270939345    0.3329348883      
6035002610        -0.01876399816    -0.03887683215    4.745564437       1.302610217       
                  4.745564437       1.302610217       0.2984506807      -0.09771528314    
6120002520        -0.1447611017     0.07366591895     -1.374574687      -4.45573953       
                  -1.374574687      -4.45573953       -0.3585888065     -0.04548116653    
6205002430        0.07116083861     0.08804087094     -3.279969536      3.151780278       
                  -3.279969536      3.151780278       0.1016857796      0.3374059167      
6290002340        0.05993643025     -0.09038110494    4.52041538        1.165550847       
                  4.52041538        1.165550847       0.1946598836      -0.2480512479     
6375002250        -0.2150770957     0.008694351111    -1.275092235      -4.161363652      
                  -1.275092235      -4.161363652      -0.3763231204     0.1299424885      
6460002160        0.02966543158     0.2060520194      -3.035310067      2.951571377       
                  -3.035310067      2.951571377       0.2708421348      0.2721978088      
6545002070        0.1760833855      -0.05953214186    4.115618307       1.067782439       
                  4.115618307       1.067782439       0.02843838369     -0.31985433       
6630001980        -0.2066948337     -0.1104482447     -1.129729154      -3.855952898      
                  -1.129729154      -3.855952898      -0.2984656345     0.3022875596      
6715001890        -0.07161932518    0.2747772158      -2.732026164      2.633654407       
                  -2.732026164      2.633654407       0.3840789868      0.1558712378      
6800001800        0.2656181291      0.05546662325     3.630009326       1.126597626       
                  3.630009326       1.126597626       -0.1314009613     -0.3087454243     
6885001710        -0.1028961329     -0.2406343115     -0.8179550657     -3.505822431      
                  -0.8179550657     -3.505822431      -0.1880638566     0.3878249323      
6970001620        -0.209235983      0.233107863       -2.641779242      2.225472534       
                  -2.641779242      2.225472534       0.4232199887      0.02324089401     
7055001530        0.2627982355      0.2074251991      3.224914471       1.244170277       
                  3.224914471       1.244170277       -0.2571137145     -0.2714308673     
7140001440        0.08169497398     -0.2995121645     -0.5400709202     -3.230916924      
                  -0.5400709202     -3.230916924      -0.06306268814    0.4538729532      
7225001350        -0.2965081632     0.09628198753     -2.581711577      1.898313264       
                  -2.581711577      1.898313264       0.4526454166      -0.103642868      
7310001260        0.1698122776      0.3471365288      2.865720729       1.161968186       
                  2.865720729       1.161968186       -0.3585903953     -0.1847335199     
7395001170        0.2852650981      -0.2275345848     -0.2456744985     -2.968283318      
                  -0.2456744985     -2.968283318      0.07730949805     0.4820597081      
7480001080        -0.2986794499     -0.1107394894     -2.417328291      1.611794477       
                  -2.417328291      1.611794477       0.3949319646      -0.237067311      
7565000990        -0.03115897836    0.3998781088      2.616800139       1.16527199        
                  2.616800139       1.16527199        -0.4245446376     -0.08391846145    
7650000900        0.4008293076      -0.05661183731    -0.05333165399    -2.611189403      
                  -0.05333165399    -2.611189403      0.2133335405      0.4387519388      
7735000810        -0.1610510769     -0.3064799089     -2.29872793       1.346463877       
                  -2.29872793       1.346463877       0.3175798434      -0.3465100704     
7820000720        -0.2072483805     0.3171367736      2.278134625       1.242424135       
                  2.278134625       1.242424135       -0.4058354484     0.0253405181      
7905000630        0.4143566346      0.1388217439      0.09730909635     -2.301239         
                  0.09730909635     -2.301239         0.3246046404      0.3622619156      
7990000540        0.06667727948     -0.3904462998     -2.216587702      0.9251174425      
                  -2.216587702      0.9251174425      0.2216554675      -0.4072224154     
8075000450        -0.3508973535     0.1199571609      1.907493462       1.434299195       
                  1.907493462       1.434299195       -0.3880089786     0.119972505       
8160000360        0.2975061486      0.3132782294      0.2519546916      -2.190940145      
                  0.2519546916      -2.190940145      0.3995155138      0.2800725365      
8245000270        0.2586067381      -0.3369991443     -2.040426931      0.6154484764      
                  -2.040426931      0.6154484764      0.114194369       -0.4441916002     
8330000180        -0.3666049973     -0.1324001204     1.637475366       1.500495587       
                  1.637475366       1.500495587       -0.3434578597     0.1942421477      
8415000090        0.07839111727     0.3925057566      0.3847373056      -1.997159999      
                  0.3847373056      -1.997159999      0.4362706694      0.1674379028      
8500000000        0.3827975348      -0.1859422063     -1.831800676      0.4457570137      
                  -1.831800676      0.4457570137      -0.004811011327   -0.4602286616     
