! RsaToolbox (C) 2013 Rohde & Schwarz America
! 
! Number of points: 101
! Number of ports: 2
! Balanced ports?: 0
! 
! 
# Hz S RI R 50
9000              1.015669907       -0.02185050963    7.344497727e-05   -4.667481286e-05  
                  7.344497727e-05   -4.667481286e-05  1.018846605       -0.02400608378    
85008910          0.002505389003    0.1592156088      3.195408987       5.51498978        
                  3.195408987       5.51498978        -0.09248985568    -0.1155205825     
170008820         0.1423952099      -0.04426920043    3.192560952       -5.227503134      
                  3.192560952       -5.227503134      -0.02055954305    0.1715334593      
255008730         -0.176058681      -0.07590181346    -6.061020771      -0.1677071062     
                  -6.061020771      -0.1677071062     0.07767017314     -0.02637157226    
340008640         -0.0635010824     0.1698402165      2.652226892       5.357993272       
                  2.652226892       5.357993272       -0.1266697613     -0.05364754138    
425008550         0.1595005861      -0.0465086468     3.39104186        -4.869562789      
                  3.39104186        -4.869562789      0.01661825709     0.1025863716      
510008460         -0.1019255026     -0.1635884529     -5.908902193      -0.6451732138     
                  -5.908902193      -0.6451732138     0.07065958641     -0.07966077725    
595008370         -0.107542777      0.1397854935      2.229942665       5.429126374       
                  2.229942665       5.429126374       -0.08380074865    -0.01198619734    
680008280         0.2043849288      0.03380837249     3.665128604       -4.577715906      
                  3.665128604       -4.577715906      0.09191946147     0.07503721566     
765008190         0.009377095124    -0.163637312      -5.73430178       -1.104500485      
                  -5.73430178       -1.104500485      0.06009373134     -0.0606222641     
850008100         -0.1818533503     0.1117282984      1.871347597       5.52696653        
                  1.871347597       5.52696653        -0.07163051447    0.06502809433     
935008010         0.1457508951      0.1235926084      3.948744861       -4.233677809      
                  3.948744861       -4.233677809      0.1019719767      0.03898433915     
1020007920        0.07551984709     -0.1539792238     -5.592197793      -1.448197786      
                  -5.592197793      -1.448197786      -0.004748666906   -0.07558256531    
1105007830        -0.2254184615     -0.008565994085   1.48127851        5.619668668       
                  1.48127851        5.619668668       -0.06269196749    0.07506472325     
1190007740        0.07127741388     0.1405913675      4.195919633       -3.861928323      
                  4.195919633       -3.861928323      0.1243679255      -0.04276893027    
1275007650        0.1642999368      -0.1088198649     -5.470147073      -1.829008149      
                  -5.470147073      -1.829008149      -0.03006211474    -0.08890674891    
1360007560        -0.1634388346     -0.1007937581     1.044973491       5.643432537       
                  1.044973491       5.643432537       -0.005271642604   0.1017858076      
1445007470        0.0004616174882   0.1421678856      4.412064446       -3.544852284      
                  4.412064446       -3.544852284      0.1470145153      -0.08834940225    
1530007380        0.184742955       -0.01135836914    -5.309062539      -2.187806453      
                  -5.309062539      -2.187806453      -0.0690088902     -0.06460453622    
1615007290        -0.09435186032    -0.1241507427     0.6196423531      5.605013713       
                  0.6196423531      5.605013713       0.02315217758     0.1421647131      
1700007200        -0.08850165297    0.09742397955     4.669860534       -3.243996095      
                  4.669860534       -3.243996095      0.1108019502      -0.1334965957     
1785007110        0.1281912547      0.03184634754     -5.06387088       -2.529198108      
                  -5.06387088       -2.529198108      -0.1316094334     -0.06412836722    
1870007020        -0.02169567606    -0.1359968445     0.226100635       5.608555119       
                  0.226100635       5.608555119       0.06588604706     0.1321846341      
1955006930        -0.1070338829     0.02171575928     4.876569303       -2.88902628       
                  4.876569303       -2.88902628       0.08906029109     -0.193806352      
2040006840        0.08321092319     0.03911004413     -4.827981787      -2.813502017      
                  -4.827981787      -2.813502017      -0.1547111204     -0.04156409311    
2125006750        0.03616239453     -0.09317877072    -0.1921427727     5.637042068       
                  -0.1921427727     5.637042068       0.131180939       0.1369634296      
2210006660        -0.09236604255    -0.0007352951062  4.972434291       -2.534771236      
                  4.972434291       -2.534771236      0.04800508403     -0.2180144006     
2295006570        0.02959118428     0.03669672201     -4.595006308      -3.143780286      
                  -4.595006308      -3.143780286      -0.1861130228     0.01565180851     
2380006480        0.02887531155     -0.05276616582    -0.555327559      5.574668788       
                  -0.555327559      5.574668788       0.166848579       0.1139133986      
2465006390        -0.08804930383    -0.01655351892    5.051253318       -2.215503094      
                  5.051253318       -2.215503094      -0.01935712608    -0.2594869102     
2550006300        0.01168566692     0.00137364259     -4.28883485       -3.483000305      
                  -4.28883485       -3.483000305      -0.1909965439     0.06085601303     
2635006210        0.02576053352     -0.04496231604    -0.8954837019     5.516395488       
                  -0.8954837019     5.516395488       0.2133337658      0.06420855469     
2720006120        -0.08253669599    -0.01099541345    5.127818171       -1.843326499      
                  5.127818171       -1.843326499      -0.09089724351    -0.2643633439     
2805006030        0.01757284971     0.0003266856939   -4.003547865      -3.729962608      
                  -4.003547865      -3.729962608      -0.1633123153     0.1232309297      
2890005940        0.02157280711     -0.03657129562    -1.23557808       5.393014703       
                  -1.23557808       5.393014703       0.2320907101      0.008926875021    
2975005850        -0.09507124858    -0.008126061581   5.159898663       -1.386986925      
                  5.159898663       -1.386986925      -0.1620804209     -0.24717602       
3060005760        0.01865431418     0.01000115389     -3.706021599      -4.073655552      
                  -3.706021599      -4.073655552      -0.118976401      0.168816923       
3145005670        0.03653553965     -0.04456671638    -1.631607375      5.242191901       
                  -1.631607375      5.242191901       0.2317085334      -0.07144489061    
3230005580        -0.1021534037     -0.03276135968    5.268534528       -0.9844532018     
                  5.268534528       -0.9844532018     -0.2269204964     -0.2080414011     
3315005490        0.01157372395     0.03210614261     -3.433029302      -4.300085062      
                  -3.433029302      -4.300085062      -0.04599035602    0.2027678799      
3400005400        0.06133215913     -0.02922660612    -1.987324424      5.074200761       
                  -1.987324424      5.074200761       0.2013994352      -0.14503522       
3485005310        -0.098070626      -0.06369113807    5.369297437       -0.6178771756     
                  5.369297437       -0.6178771756     -0.2821334555     -0.1295978947     
3570005220        -0.02019950473    0.04950863351     -3.252051579      -4.488949206      
                  -3.252051579      -4.488949206      0.03393078925     0.2107308164      
3655005130        0.06900299942     0.003714175549    -2.182970514      4.94059729        
                  -2.182970514      4.94059729        0.1342045437      -0.2089132338     
3740005040        -0.0776527171     -0.09342977575    5.359052156       -0.2622355793     
                  5.359052156       -0.2622355793     -0.3123755891     -0.03961687368    
3825004950        -0.05900085213    0.03733733344     -2.980529191      -4.624006775      
                  -2.980529191      -4.624006775      0.1133577366      0.1762725815      
3910004860        0.06442090031     0.03745968377     -2.604449684      4.71911522        
                  -2.604449684      4.71911522        0.05043072335     -0.2592358441     
3995004770        -0.03124478445    -0.1115328267     5.391396855       0.06003498151     
                  5.391396855       0.06003498151     -0.3055610555     0.06530825538     
4080004680        -0.08488477884    0.008202918452    -2.703736338      -4.795632342      
                  -2.703736338      -4.795632342      0.1907336149      0.1281775664      
4165004590        0.03961172664     0.07020452638     -2.868435789      4.578625064       
                  -2.868435789      4.578625064       -0.04663048499    -0.2716577509     
4250004500        0.01120829015     -0.08806857226    5.47821139        0.3075216298      
                  5.47821139        0.3075216298      -0.2656524092     0.1755437529      
4335004410        -0.1016803125     -0.01973029416    -2.446039747      -4.904337637      
                  -2.446039747      -4.904337637      0.2298196747      0.04437510514     
4420004320        -0.006997009192   0.08378886806     -3.069474831      4.464372077       
                  -3.069474831      4.464372077       -0.1638206532     -0.2507654575     
4505004230        0.03809369032     -0.05735807094    5.427629169       0.4869034117      
                  5.427629169       0.4869034117      -0.1967245663     0.2588678046      
4590004140        -0.1004242775     -0.05160590677    -2.18102431       -4.940320169      
                  -2.18102431       -4.940320169      0.2293831391      -0.05760590014    
4675004050        -0.04473303185    0.07071972865     -3.166513554      4.346360942       
                  -3.166513554      4.346360942       -0.2553398021     -0.1913262368     
4760003960        0.05720720419     -0.01664464663    5.277969597       0.7223727119      
                  5.277969597       0.7223727119      -0.08647293985    0.3110435326      
4845003870        -0.07705748865    -0.06868085753    -1.932665826      -4.990180795      
                  -1.932665826      -4.990180795      0.2002060095      -0.1548773809     
4930003780        -0.0763572149     0.04149974246     -3.350190109      4.16292953        
                  -3.350190109      4.16292953        -0.3194808382     -0.09957498158    
5015003690        0.05054527407     0.03739736354     5.149636255       0.9621161941      
                  5.149636255       0.9621161941      0.03558080712     0.3344836589      
5100003600        -0.05223543165    -0.05682833044    -1.759626381      -5.059880815      
                  -1.759626381      -5.059880815      0.119308117       -0.2291017923     
5185003510        -0.09114998662    0.004829704591    -3.403803855      3.93969475        
                  -3.403803855      3.93969475        -0.3494484852     0.01138361252     
5270003420        0.01536386964     0.07143187249     5.012793858       1.194278169       
                  5.012793858       1.194278169       0.1497262208      0.2995863469      
5355003330        -0.04237619899    -0.02315246369    -1.644843779      -5.121522104      
                  -1.644843779      -5.121522104      -0.002270113114   -0.2788613427     
5440003240        -0.07214874613    -0.03879585663    -3.350376078      3.773971495       
                  -3.350376078      3.773971495       -0.3193874451     0.1321469125      
5525003150        -0.01777561196    0.06115456478     4.996360711       1.30966018        
                  4.996360711       1.30966018        0.2690888222      0.2014321994      
5610003060        -0.03834496117    0.02670159975     -1.587222968      -4.962533853      
                  -1.587222968      -4.962533853      -0.1368554979     -0.2677237386     
5695002970        -0.01478426873    -0.04307729489    -3.35011986       3.555655883       
                  -3.35011986       3.555655883       -0.2211508018     0.252935981       
5780002880        -0.02570165156    0.02422066114     4.946801366       1.403859135       
                  4.946801366       1.403859135       0.329368366       0.05827819406     
5865002790        -0.07610759966    0.07510441676     -1.487922621      -4.701243269      
                  -1.487922621      -4.701243269      -0.2724547907     -0.1852335241     
5950002700        0.03523702402     0.004670825186    -3.384229617      3.347754712       
                  -3.384229617      3.347754712       -0.08282074875    0.3330066852      
6035002610        -0.01867830499    -0.03790281354    4.732574235       1.299479583       
                  4.732574235       1.299479583       0.2984760755      -0.09747574868    
6120002520        -0.1436476539     0.07317441454     -1.369085665      -4.445499556      
                  -1.369085665      -4.445499556      -0.3585822546     -0.04560084447    
6205002430        0.07039209108     0.08758440984     -3.27276324       3.142054406       
                  -3.27276324       3.142054406       0.1017177328      0.337416152       
6290002340        0.0599240652      -0.08968136099    4.508630409       1.164312648       
                  4.508630409       1.164312648       0.1947868648      -0.2478425919     
6375002250        -0.2138068684     0.008495198552    -1.270036065      -4.152217962      
                  -1.270036065      -4.152217962      -0.3760149732     0.1298893458      
6460002160        0.02909820335     0.2051468703      -3.030264664      2.943313401       
                  -3.030264664      2.943313401       0.2708818036      0.2722322607      
6545002070        0.1754030726      -0.05901666203    4.106193725       1.066302241       
                  4.106193725       1.066302241       0.02861332892     -0.3201069906     
6630001980        -0.2061229745     -0.1103590614     -1.126168699      -3.847027847      
                  -1.126168699      -3.847027847      -0.2987851375     0.302066379       
6715001890        -0.0717468597     0.2737869768      -2.728333311      2.627798835       
                  -2.728333311      2.627798835       0.3836984351      0.1560770298      
6800001800        0.2649026963      0.05573042013     3.622153457       1.126223059       
                  3.622153457       1.126223059       -0.1314931864     -0.3087120033     
6885001710        -0.1024083506     -0.2399674943     -0.8143544559     -3.499956658      
                  -0.8143544559     -3.499956658      -0.1883127842     0.3880428967      
6970001620        -0.2092953886     0.2326529874      -2.639183606      2.220648581       
                  -2.639183606      2.220648581       0.4229835367      0.02368986864     
7055001530        0.2622155398      0.2076874468      3.219227625       1.243501983       
                  3.219227625       1.243501983       -0.2571291406     -0.2714569667     
7140001440        0.08182282194     -0.2988901003     -0.5371362904     -3.227213307      
                  -0.5371362904     -3.227213307      -0.06330639725    0.4537387206      
7225001350        -0.2961139161     0.09577320816     -2.57946166       1.895403568       
                  -2.57946166       1.895403568       0.4523487295      -0.1031924867     
7310001260        0.1694851162      0.3467920455      2.862416776       1.163713406       
                  2.862416776       1.163713406       -0.3585796386     -0.1849096936     
7395001170        0.2854264174      -0.2269291582     -0.2441330625     -2.965227211      
                  -0.2441330625     -2.965227211      0.07716607739     0.4820046871      
7480001080        -0.2983357735     -0.1108904489     -2.415679032      1.60887813        
                  -2.415679032      1.60887813        0.3947712009      -0.236844199      
7565000990        -0.03124890197    0.3996675309      2.613706483       1.166350041       
                  2.613706483       1.166350041       -0.4248249787     -0.08424014338    
7650000900        0.4007329103      -0.05631488504    -0.0518440152     -2.60976382       
                  -0.0518440152     -2.60976382       0.2129634962      0.4387472484      
7735000810        -0.1607584037     -0.3063294031     -2.297421598      1.344464915       
                  -2.297421598      1.344464915       0.3174884783      -0.3462673571     
7820000720        -0.2076187927     0.316908667       2.276223162       1.243194204       
                  2.276223162       1.243194204       -0.4057328886     0.02494011854     
7905000630        0.414220622       0.1391430126      0.09896781161     -2.300204348      
                  0.09896781161     -2.300204348      0.3242376968      0.3624033973      
7990000540        0.06669292952     -0.3905938849     -2.215857304      0.9232975135      
                  -2.215857304      0.9232975135      0.2211629767      -0.4071132751     
8075000450        -0.350312947      0.1196348238      1.905697007       1.434809525       
                  1.905697007       1.434809525       -0.3880601833     0.1191858735      
8160000360        0.2970301938      0.3134216835      0.2532853832      -2.190313364      
                  0.2532853832      -2.190313364      0.3992359487      0.2802187921      
8245000270        0.2577090757      -0.3370657298     -2.040294553      0.6137679642      
                  -2.040294553      0.6137679642      0.1145207258      -0.4439619361     
8330000180        -0.3663112376     -0.1325773541     1.634571864       1.502605801       
                  1.634571864       1.502605801       -0.3428939405     0.1935582631      
8415000090        0.07838588802     0.3929196324      0.3857138963      -1.99745679       
                  0.3857138963      -1.99745679       0.435767536       0.1674118937      
8500000000        0.3828288987      -0.1854977578     -1.832016788      0.4453046265      
                  -1.832016788      0.4453046265      -0.004623019493   -0.4599334003     
