! RsaToolbox (C) 2013 Rohde & Schwarz America
! 
! Number of points: 101
! Number of ports: 2
! Balanced ports?: 0
! 
! 
# Hz S RI R 50
9000              1.017522573       -0.02017409885    5.942751825e-05   -5.017332713e-05  
                  5.942751825e-05   -5.017332713e-05  1.023295559       -0.027204038      
85008910          0.002646486164    0.1593930766      3.194180893       5.521865055       
                  3.194180893       5.521865055       -0.09203761226    -0.1157868487     
170008820         0.1425329778      -0.04445528167    3.196081064       -5.22749378       
                  3.196081064       -5.22749378       -0.02011082035    0.1715372755      
255008730         -0.1764188037     -0.07580646455    -6.064942005      -0.171161103      
                  -6.064942005      -0.171161103      0.07771666028     -0.02674668964    
340008640         -0.06334746489    0.1701660963      2.654861825       5.358997801       
                  2.654861825       5.358997801       -0.1265538469     -0.05396907108    
425008550         0.159558062       -0.04664734272    3.394260086       -4.871162384      
                  3.394260086       -4.871162384      0.01678122589     0.1025203852      
510008460         -0.1019038502     -0.1638750971     -5.910813885      -0.6494226192     
                  -5.910813885      -0.6494226192     0.07075445211     -0.07969714137    
595008370         -0.1074217686     0.1402411959      2.226211043       5.432713547       
                  2.226211043       5.432713547       -0.08376387176    -0.01206229473    
680008280         0.2047251911      0.03377660205     3.668781032       -4.578242732      
                  3.668781032       -4.578242732      0.091979781       0.07499850432     
765008190         0.009366893608    -0.1642106926     -5.738757652      -1.108403698      
                  -5.738757652      -1.108403698      0.05978115476     -0.06049664948    
850008100         -0.181857541      0.1114419948      1.869041374       5.529809464       
                  1.869041374       5.529809464       -0.07179139036    0.06537159197     
935008010         0.1458512006      0.123754811       3.953303392       -4.23282361       
                  3.953303392       -4.23282361       0.1022251204      0.03920270341     
1020007920        0.07565906823     -0.1545722271     -5.596021403      -1.452833404      
                  -5.596021403      -1.452833404      -0.004660501088   -0.07560161345    
1105007830        -0.225704857      -0.008330165985   1.477026236       5.623606048       
                  1.477026236       5.623606048       -0.06316920769    0.07512820557     
1190007740        0.07165439106     0.1406990642      4.201069002       -3.86128031       
                  4.201069002       -3.86128031       0.1239382064      -0.04271940006    
1275007650        0.1647418583      -0.1089887975     -5.472964467      -1.83130056       
                  -5.472964467      -1.83130056       -0.03000417294    -0.08939452521    
1360007560        -0.1638880514     -0.1007217263     1.042686672       5.648076785       
                  1.042686672       5.648076785       -0.005464288703   0.1016165682      
1445007470        0.0003023864176   0.1424716308      4.419554255       -3.540692208      
                  4.419554255       -3.540692208      0.1470689445      -0.08838096202    
1530007380        0.1848928375      -0.01156009529    -5.309792517      -2.192685254      
                  -5.309792517      -2.192685254      -0.06910254141    -0.06458744942    
1615007290        -0.09424073243    -0.1242649072     0.6163621119      5.608249419       
                  0.6163621119      5.608249419       0.02307245121     0.1421766898      
1700007200        -0.08871557803    0.09757334699     4.676306683       -3.244366667      
                  4.676306683       -3.244366667      0.1111209201      -0.1333908054     
1785007110        0.1288673966      0.03173922612     -5.067410046      -2.531607844      
                  -5.067410046      -2.531607844      -0.1319233752     -0.06384186411    
1870007020        -0.02189410436    -0.1362835982     0.2221145584      5.612583344       
                  0.2221145584      5.612583344       0.0660802408      0.1320304055      
1955006930        -0.1073637213     0.02163701544     4.881402206       -2.888650613      
                  4.881402206       -2.888650613      0.08921879213     -0.1937253358     
2040006840        0.08355235768     0.03943916176     -4.830316786      -2.818802011      
                  -4.830316786      -2.818802011      -0.1549240119     -0.04137272784    
2125006750        0.03640025432     -0.09337169501    -0.1938697571     5.640809791       
                  -0.1938697571     5.640809791       0.1312096927      0.1367596421      
2210006660        -0.09294047747    -0.0007289548616  4.97745816        -2.533079024      
                  4.97745816        -2.533079024      0.04808923961     -0.2181130639     
2295006570        0.03005682383     0.0370092185      -4.596308017      -3.149444291      
                  -4.596308017      -3.149444291      -0.1857674827     0.01605252765     
2380006480        0.02922985828     -0.05299721341    -0.5583305748     5.577673914       
                  -0.5583305748     5.577673914       0.1668530654      0.1138076958      
2465006390        -0.08841057142    -0.01655425329    5.055820373       -2.213502647      
                  5.055820373       -2.213502647      -0.01989627193    -0.2592157077     
2550006300        0.01166412678     0.001865842262    -4.29043643       -3.488380946      
                  -4.29043643       -3.488380946      -0.1908382196     0.06080063358     
2635006210        0.02610230711     -0.04514843947    -0.9006564282     5.521922894       
                  -0.9006564282     5.521922894       0.2136739973      0.06436439686     
2720006120        -0.08264370237    -0.01103464728    5.131828076       -1.842921337      
                  5.131828076       -1.842921337      -0.09027813094    -0.2646387179     
2805006030        0.01750091109     0.0004051536798   -4.004750188      -3.737023284      
                  -4.004750188      -3.737023284      -0.1631573018     0.1232557672      
2890005940        0.02199622281     -0.03664812139    -1.239398109      5.397920461       
                  -1.239398109      5.397920461       0.232174968       0.008858777396    
2975005850        -0.09540493849    -0.008605296688   5.164222126       -1.385271124      
                  5.164222126       -1.385271124      -0.1625148238     -0.247716313      
3060005760        0.01793069556     0.01043193        -3.706131791      -4.080269359      
                  -3.706131791      -4.080269359      -0.1185383727     0.1687485402      
3145005670        0.03664775508     -0.04413121856    -1.635885223      5.243819786       
                  -1.635885223      5.243819786       0.2314074054      -0.07171667395    
3230005580        -0.1017010315     -0.0331294616     5.27342402        -0.9832365535     
                  5.27342402        -0.9832365535     -0.2273608817     -0.208089354      
3315005490        0.01106430562     0.03221938372     -3.431999127      -4.307324313      
                  -3.431999127      -4.307324313      -0.0458526246     0.2026413686      
3400005400        0.06115046087     -0.02893605697    -1.994472754      5.076603755       
                  -1.994472754      5.076603755       0.2016176095      -0.1453092157     
3485005310        -0.09765507036    -0.06438987767    5.374105593       -0.6162290676     
                  5.374105593       -0.6162290676     -0.2819153807     -0.1295931455     
3570005220        -0.02013018405    0.0492564072      -3.254208064      -4.499303996      
                  -3.254208064      -4.499303996      0.03361043475     0.2103142963      
3655005130        0.06927002481     0.004055635887    -2.190048627      4.947216888       
                  -2.190048627      4.947216888       0.1341481559      -0.2088960378     
3740005040        -0.07686987688    -0.09327474595    5.367516567       -0.2585419928     
                  5.367516567       -0.2585419928     -0.3121033959     -0.03961646804    
3825004950        -0.05882767811    0.03715162674     -2.981117062      -4.634018238      
                  -2.981117062      -4.634018238      0.1135711358      0.1763092411      
3910004860        0.06375065092     0.03733296892     -2.610694197      4.723730666       
                  -2.610694197      4.723730666       0.05019561511     -0.2592430013     
3995004770        -0.0310488333     -0.1112302592     5.401505266       0.06467630439     
                  5.401505266       0.06467630439     -0.3052762288     0.0648840066      
4080004680        -0.08478432286    0.007590665612    -2.707438839      -4.805087604      
                  -2.707438839      -4.805087604      0.1903813747      0.1282879335      
4165004590        0.0394291334      0.07015177773     -2.8744614        4.586651899       
                  -2.8744614        4.586651899       -0.04651368267    -0.2718468857     
4250004500        0.01145163935     -0.08802092696    5.488597363       0.3100814714      
                  5.488597363       0.3100814714      -0.2657454899     0.1752734553      
4335004410        -0.10146749       -0.02018282111    -2.44904287       -4.915865722      
                  -2.44904287       -4.915865722      0.229803393       0.04422178369     
4420004320        -0.007778794404   0.08382053245     -3.078017274      4.472604712       
                  -3.078017274      4.472604712       -0.1638590378     -0.2506673503     
4505004230        0.03775214781     -0.05692301147    5.440145071       0.489080475       
                  5.440145071       0.489080475       -0.1969529316     0.259088051       
4590004140        -0.09986630509    -0.05224724329    -2.184786502      -4.952417578      
                  -2.184786502      -4.952417578      0.2294993469      -0.05775587269    
4675004050        -0.0450891043     0.07029472214     -3.175703405      4.356944195       
                  -3.175703405      4.356944195       -0.2554586716     -0.1910611241     
4760003960        0.05701479826     -0.01600120278    5.289599389       0.7247929684      
                  5.289599389       0.7247929684      -0.086172787      0.3112306176      
4845003870        -0.0762216633     -0.06832420607    -1.935164422      -5.005198474      
                  -1.935164422      -5.005198474      0.2004098514      -0.1547663386     
4930003780        -0.07619176403    0.04064741499     -3.36185117       4.174037771       
                  -3.36185117       4.174037771       -0.3197243663     -0.0994381373     
5015003690        0.05008426084     0.03772700425     5.163853581       0.9656804457      
                  5.163853581       0.9656804457      0.03583917183     0.3343450713      
5100003600        -0.05151726948    -0.05656455419    -1.763216923      -5.077987503      
                  -1.763216923      -5.077987503      0.119477887       -0.2290621811     
5185003510        -0.09120317105    0.00377338781     -3.415640666      3.952319161       
                  -3.415640666      3.952319161       -0.349532088      0.0118241958      
5270003420        0.01430190959     0.07170153219     5.028437713       1.199850982       
                  5.028437713       1.199850982       0.1498751856      0.2995927407      
5355003330        -0.04199778447    -0.02203113664    -1.647921228      -5.138312444      
                  -1.647921228      -5.138312444      -0.002442259471   -0.2793200094     
5440003240        -0.07117367411    -0.03940917303    -3.361464176      3.785675557       
                  -3.361464176      3.785675557       -0.3191315419     0.1318393065      
5525003150        -0.01854860113    0.06051240572     5.013697322       1.313094819       
                  5.013697322       1.313094819       0.268673896       0.2014242253      
5610003060        -0.03896133053    0.02777053597     -1.593711481      -4.978674211      
                  -1.593711481      -4.978674211      -0.1369801357     -0.2674146066     
5695002970        -0.01381456329    -0.04295265443    -3.361000438      3.568480899       
                  -3.361000438      3.568480899       -0.2213794299     0.2527363471      
5780002880        -0.02628827161    0.02352265376     4.964183938       1.40819991        
                  4.964183938       1.40819991        0.3289909358      0.0577280669      
5865002790        -0.07676402454    0.0757637711      -1.494041634      -4.717941248      
                  -1.494041634      -4.717941248      -0.2724035948     -0.1854487036     
5950002700        0.03617874236     0.004932319993    -3.396753921      3.359971723       
                  -3.396753921      3.359971723       -0.08245893007    0.3330090059      
6035002610        -0.0188114126     -0.03886927707    4.750475067       1.304527701       
                  4.750475067       1.304527701       0.2984031021      -0.09737405296    
6120002520        -0.1446914447     0.07357905048     -1.376162337      -4.460719158      
                  -1.376162337      -4.460719158      -0.3587474947     -0.04527628983    
6205002430        0.07116695017     0.08831257958     -3.28533536       3.153762372       
                  -3.28533536       3.153762372       0.1019257915      0.3372521006      
6290002340        0.06035129664     -0.09078396092    4.525973909       1.165738305       
                  4.525973909       1.165738305       0.1944871796      -0.2479809974     
6375002250        -0.2149542501     0.008540382369    -1.27708378       -4.165115839      
                  -1.27708378       -4.165115839      -0.3759227709     0.1299613055      
6460002160        0.02986344817     0.2062056807      -3.037412494      2.954493938       
                  -3.037412494      2.954493938       0.2708879424      0.2719403025      
6545002070        0.1761259336      -0.05989136076    4.120324616       1.067403197       
                  4.120324616       1.067403197       0.02847183659     -0.3195637359     
6630001980        -0.2071037852     -0.1107273469     -1.132529683      -3.85888454       
                  -1.132529683      -3.85888454       -0.2984737979     0.3024338661      
6715001890        -0.07201429361    0.2750253826      -2.734191151      2.636244189       
                  -2.734191151      2.636244189       0.3836759161      0.1559858961      
6800001800        0.2659725053      0.05533703472     3.634306932       1.126199241       
                  3.634306932       1.126199241       -0.1318215992     -0.3087719578     
6885001710        -0.1033173435     -0.2408776256     -0.8194533236     -3.507723376      
                  -0.8194533236     -3.507723376      -0.1886077251     0.3877663536      
6970001620        -0.2096110945     0.2333237909      -2.642989239      2.228086253       
                  -2.642989239      2.228086253       0.4234650297      0.02275122471     
7055001530        0.2631036194      0.2074800734      3.227539379       1.243827676       
                  3.227539379       1.243827676       -0.2569637282     -0.2714879394     
7140001440        0.08158240923     -0.2995744083     -0.5408823263     -3.232819624      
                  -0.5408823263     -3.232819624      -0.0632550875     0.4539043673      
7225001350        -0.2966931313     0.09654758003     -2.58254836       1.899498129       
                  -2.58254836       1.899498129       0.4524506336      -0.1031171353     
7310001260        0.1699847276      0.3473396009      2.867835184       1.163764892       
                  2.867835184       1.163764892       -0.3584358227     -0.1848028417     
7395001170        0.2850767966      -0.2275131887     -0.2459905189     -2.968695623      
                  -0.2459905189     -2.968695623      0.07728454819     0.4817892874      
7480001080        -0.298651016      -0.1109763259     -2.418121913      1.612966117       
                  -2.418121913      1.612966117       0.3943931796      -0.2371756917     
7565000990        -0.03121524518    0.4001321893      2.617704382       1.165679654       
                  2.617704382       1.165679654       -0.4245998711     -0.08426863658    
7650000900        0.4005533336      -0.05663399784    -0.05419419917    -2.611780915      
                  -0.05419419917    -2.611780915      0.2130973637      0.4383986761      
7735000810        -0.161079017      -0.3065355106     -2.299736585      1.347852921       
                  -2.299736585      1.347852921       0.3172214135      -0.3460609575     
7820000720        -0.2074587189     0.3173080389      2.27853741        1.242060979       
                  2.27853741        1.242060979       -0.4057520877     0.02549104849     
7905000630        0.4148500196      0.1387626665      0.09636402843     -2.301418549      
                  0.09636402843     -2.301418549      0.3250256499      0.3625470732      
7990000540        0.06624603744     -0.3907650332     -2.216447037      0.9268259445      
                  -2.216447037      0.9268259445      0.2212729717      -0.4064131023     
8075000450        -0.3504942218     0.1205021384      1.908418671       1.43334438        
                  1.908418671       1.43334438        -0.3881009521     0.1190590395      
8160000360        0.2973612873      0.3139150018      0.2512117414      -2.190811913      
                  0.2512117414      -2.190811913      0.3998577516      0.2799590147      
8245000270        0.25699426        -0.3372166268     -2.040461486      0.6156208294      
                  -2.040461486      0.6156208294      0.1143388311      -0.4439474468     
8330000180        -0.3663544427     -0.13273589       1.638288614       1.500212106       
                  1.638288614       1.500212106       -0.3429963331     0.1939372494      
8415000090        0.07863327501     0.3931563147      0.3866942484      -1.997535361      
                  0.3866942484      -1.997535361      0.4359093022      0.1672267394      
8500000000        0.3826613518      -0.1861112068     -1.831792075      0.4469846761      
                  -1.831792075      0.4469846761      -0.005230810457   -0.4597204052     
