! RsaToolbox (C) 2013 Rohde & Schwarz America
! 
! Number of points: 101
! Number of ports: 2
! Balanced ports?: 0
! 
! 
# Hz S RI R 50
9000              0.9778587793      -0.007049457758   7.086396609e-05   -1.677597634e-05  
                  7.086396609e-05   -1.677597634e-05  0.9924560677      -0.01618882642    
85008910          -0.08790703922    -0.07844817954    1.948451703       3.096680409       
                  1.948451703       3.096680409       -0.09221537378    -0.1170628927     
170008820         -0.008239858461   0.1047137259      1.879026911       -3.43347645       
                  1.879026911       -3.43347645       -0.02136750719    0.1719627371      
255008730         0.008162170593    -0.01119887706    -3.934278608      0.188578553       
                  -3.934278608      0.188578553       0.07799869612     -0.02673627292    
340008640         -0.06843093931    -0.01451346002    2.040526036       3.396782543       
                  2.040526036       3.396782543       -0.1271925774     -0.05465950219    
425008550         -0.006755915575   0.02509111927     1.948345333       -3.448094415      
                  1.948345333       -3.448094415      0.01614910618     0.1030639475      
510008460         0.02557648009     -0.03940662298    -3.951126095      -0.03221964099    
                  -3.951126095      -0.03221964099    0.07111392816     -0.08016271915    
595008370         -0.03267470853    -0.02593267622    1.861552348       3.573798249       
                  1.861552348       3.573798249       -0.08441695157    -0.01253523347    
680008280         0.02959620706     0.04406808196     2.066534023       -3.297936281      
                  2.066534023       -3.297936281      0.09216090004     0.07596371207     
765008190         0.05767372627     0.01774564585     -3.992875296      -0.3296497991     
                  -3.992875296      -0.3296497991     0.06054029071     -0.06105648379    
850008100         -0.05835341189    -0.0106711094     1.69993538        3.530849659       
                  1.69993538        3.530849659       -0.07238630882    0.06488648187     
935008010         -0.008530043164   0.03443718714     2.313826701       -3.251629521      
                  2.313826701       -3.251629521      0.1023743989      0.03901639108     
1020007920        0.01911427502     0.0359960419      -3.984880515      -0.4166687646     
                  -3.984880515      -0.4166687646     -0.005017135803   -0.07652397797    
1105007830        -0.05991466357    -0.05543465058    1.573856976       3.517144711       
                  1.573856976       3.517144711       -0.06385224296    0.07526888218     
1190007740        -0.007162394234   -0.068583647      2.447657815       -3.148433303      
                  2.447657815       -3.148433303      0.1244622168      -0.04229318181    
1275007650        0.04199162186     0.03783501912     -3.905407743      -0.5855241252     
                  -3.905407743      -0.5855241252     -0.03052101494    -0.08959506057    
1360007560        0.02022298206     -0.03243713531    1.403884095       3.64858592        
                  1.403884095       3.64858592        -0.006145524609   0.1023527112      
1445007470        0.03783801806     -0.09462887712    2.536493808       -3.051646272      
                  2.536493808       -3.051646272      0.1476509873      -0.08828031305    
1530007380        -0.02117756623    0.05721918084     -3.73810405       -0.6493498895     
                  -3.73810405       -0.6493498895     -0.06999303028    -0.06514020508    
1615007290        0.04992487855     0.0842525793      1.296773016       3.557390967       
                  1.296773016       3.557390967       0.02268110749     0.1429038789      
1700007200        0.05989454523     -0.1081129989     2.442379114       -2.885453453      
                  2.442379114       -2.885453453      0.1112821035      -0.1337942561     
1785007110        -0.1221137445     -0.04003562787    -3.708357972      -0.7788585227     
                  -3.708357972      -0.7788585227     -0.1329605965     -0.06470410499    
1870007020        -0.002431767397   0.1342595609      1.178252896       3.578559945       
                  1.178252896       3.578559945       0.06525161743     0.1328733947      
1955006930        0.137883221       -0.08630216859    2.533509883       -2.820798204      
                  2.533509883       -2.820798204      0.08964801095     -0.1946247249     
2040006840        -0.1106493038     -0.1653398725     -3.709200135      -0.9001222163     
                  -3.709200135      -0.9001222163     -0.1559256443     -0.04213852884    
2125006750        -0.09127584585    0.1618518681      1.102674768       3.605391101       
                  1.102674768       3.605391101       0.1309426755      0.1375603618      
2210006660        0.2082025662      0.02075173228     2.502987721       -2.68440591       
                  2.502987721       -2.68440591       0.04832613581     -0.2192130632     
2295006570        -0.05186209587    -0.2571953211     -3.541412926      -0.9148104357     
                  -3.541412926      -0.9148104357     -0.1872948063     0.01479679543     
2380006480        -0.2131223012     0.120035491       0.9462305483      3.561315439       
                  0.9462305483      3.561315439       0.1671704956      0.1142309042      
2465006390        0.1888641397      0.1506992466      2.473459593       -2.518219652      
                  2.473459593       -2.518219652      -0.01948034545    -0.2610709448     
2550006300        0.0742454308      -0.299232865      -3.4130473        -1.117325098      
                  -3.4130473        -1.117325098      -0.1917709602     0.06051069034     
2635006210        -0.2728338517     0.001890960872    0.7447303965      3.500789219       
                  0.7447303965      3.500789219       0.2141885595      0.06401768088     
2720006120        0.08995959358     0.2655911694      2.579888701       -2.312850888      
                  2.579888701       -2.312850888      -0.09047049494    -0.2662434401     
2805006030        0.2108546494      -0.2474144227     -3.214273302      -1.190835037      
                  -3.214273302      -1.190835037      -0.1636816531     0.1229856225      
2890005940        -0.2721194308     -0.1367931563     0.5486750918      3.387682185       
                  0.5486750918      3.387682185       0.2333072027      0.008523104185    
2975005850        -0.06928921414    0.3122664174      2.705889738       -1.962030205      
                  2.705889738       -1.962030205      -0.1622889499     -0.2495183718     
3060005760        0.2966879053      -0.1121782552     -3.081413961      -1.504075979      
                  -3.081413961      -1.504075979      -0.1192488823     0.1684955563      
3145005670        -0.1861701818     -0.2644213575     0.224929172       3.343653437       
                  0.224929172       3.343653437       0.2331963911      -0.07207837635    
3230005580        -0.2172802135     0.2509599429      2.891828131       -1.656321605      
                  2.891828131       -1.656321605      -0.2270163241     -0.2089788601     
3315005490        0.3206448433      0.04229945228     -2.851767584      -1.613628889      
                  -2.851767584      -1.613628889      -0.04581579171    0.2030039146      
3400005400        -0.0471984772     -0.3258680438     -0.06169193119    3.236900087       
                  -0.06169193119    3.236900087       0.203359571       -0.1453742403     
3485005310        -0.327428121      0.1402466894      2.903581514       -1.402075574      
                  2.903581514       -1.402075574      -0.2818690965     -0.130845716      
3570005220        0.2621222849      0.1937062021      -2.650906376      -1.717953237      
                  -2.650906376      -1.717953237      0.03409290079     0.2118054548      
3655005130        0.09428201803     -0.3146321248     -0.2347653937     3.084855473       
                  -0.2347653937     3.084855473       0.1368007699      -0.2084448745     
3740005040        -0.3672050858     -0.009729866465   2.852943831       -1.161165609      
                  2.852943831       -1.161165609      -0.3116341013     -0.04023902449    
3825004950        0.1332839622      0.2916491071      -2.39180408       -1.816258971      
                  -2.39180408       -1.816258971      0.1146501589      0.178672921       
3910004860        0.2318787519      -0.2379416358     -0.4869937063     2.934366957       
                  -0.4869937063     2.934366957       0.05340020445     -0.2585440291     
3995004770        -0.3348760071     -0.1642588074     2.768494297       -0.9276316465     
                  2.768494297       -0.9276316465     -0.3057256787     0.06584055271     
4080004680        -0.02455675189    0.3276796187      -2.138757023      -1.911714274      
                  -2.138757023      -1.911714274      0.1937623137      0.1287922452      
4165004590        0.3091250073      -0.1087595282     -0.6924150888     2.821461435       
                  -0.6924150888     2.821461435       -0.04610598966    -0.2751632618     
4250004500        -0.2439126016     -0.2701682714     2.754524426       -0.7032876171     
                  2.754524426       -0.7032876171     -0.2649396528     0.1767605673      
4335004410        -0.1866694347     0.2860727281      -1.961154961      -2.048105016      
                  -1.961154961      -2.048105016      0.2323599117      0.04471324776     
4420004320        0.3054610344      0.04377503393     -0.8856987418     2.734797909       
                  -0.8856987418     2.734797909       -0.1637057978     -0.2521096331     
4505004230        -0.1105781556     -0.3268882906     2.734075451       -0.5359689392     
                  2.734075451       -0.5359689392     -0.1972700928     0.2599762145      
4590004140        -0.3016566825     0.1841143391      -1.739446356      -2.08534505       
                  -1.739446356      -2.08534505       0.2307105659      -0.05776574587    
4675004050        0.2465716088      0.1704082214      -0.987982474      2.565780205       
                  -0.987982474      2.565780205       -0.2561328397     -0.1922853126     
4760003960        0.04038973328     -0.3234466289     2.637095165       -0.3439741319     
                  2.637095165       -0.3439741319     -0.08762836648    0.3121565993      
4845003870        -0.35052259       0.05230416212     -1.518449462      -2.117732097      
                  -1.518449462      -2.117732097      0.2012029798      -0.1548755525     
4930003780        0.1288071681      0.2591330792      -1.157136959      2.403832211       
                  -1.157136959      2.403832211       -0.3211085703     -0.100611983      
5015003690        0.1661195546      -0.2479533897     2.560540752       -0.1317197347     
                  2.560540752       -0.1317197347     0.03521288991     0.3364787141      
5100003600        -0.3387036002     -0.07529346553    -1.361402447      -2.148587007      
                  -1.361402447      -2.148587007      0.1200297336      -0.2298930946     
5185003510        -0.006031909573   0.2879243542      -1.264648111      2.20352867        
                  -1.264648111      2.20352867        -0.3515250412     0.01062755915     
5270003420        0.2364741049      -0.1257593345     2.528808213       0.09947569063     
                  2.528808213       0.09947569063     0.1489122776      0.301631574       
5355003330        -0.2826975589     -0.1697387642     -1.221400629      -2.153410797      
                  -1.221400629      -2.153410797      -0.00161859164    -0.2805990349     
5440003240        -0.1146665614     0.2510247142      -1.333171152      2.086450902       
                  -1.333171152      2.086450902       -0.3215700963     0.1314158079      
5525003150        0.25363951        -0.01112006087    2.480702891       0.2194371527      
                  2.480702891       0.2194371527      0.2691278388      0.2031847911      
5610003060        -0.1853768639     -0.2098712596     -1.125503793      -2.139070249      
                  -1.125503793      -2.139070249      -0.1359017182     -0.2694377796     
5695002970        -0.1736380377     0.1929258311      -1.384162341      1.938474061       
                  -1.384162341      1.938474061       -0.223035698      0.2526883517      
5780002880        0.2340338355      0.08696618229     2.412261098       0.3257315495      
                  2.412261098       0.3257315495      0.3305256361      0.06002041191     
5865002790        -0.1028477993     -0.2066255989     -0.9696329253     -2.082496255      
                  -0.9696329253     -2.082496255      -0.2718589012     -0.1870160676     
5950002700        -0.199835054      0.1415593636      -1.430978763      1.800887128       
                  -1.430978763      1.800887128       -0.08422612831    0.3342613185      
6035002610        0.1787178798      0.1354480137      2.276487809       0.3739770858      
                  2.276487809       0.3739770858      0.3009077419      -0.09525306357    
6120002520        -0.04080829301    -0.185976214      -0.841615219      -2.049151435      
                  -0.841615219      -2.049151435      -0.3578608363     -0.04722323993    
6205002430        -0.1943425858     0.1026160866      -1.429118842      1.691431932       
                  -1.429118842      1.691431932       0.1023413386      0.3397876314      
6290002340        0.1545239822      0.1536075641      2.167389005       0.4020127603      
                  2.167389005       0.4020127603      0.1985045477      -0.2475306442     
6375002250        -0.01457964714    -0.1808745845     -0.7368777249     -1.999092315      
                  -0.7368777249     -1.999092315      -0.3764789306     0.1279332261      
6460002160        -0.2067926117     0.1063755932      -1.400167915      1.593648231       
                  -1.400167915      1.593648231       0.2715193521      0.2739637294      
6545002070        0.1545751858      0.1931122401      2.03303836        0.4232474727      
                  2.03303836        0.4232474727      0.03079306511     -0.3210537008     
6630001980        0.04408338741     -0.1928111494     -0.6338374836     -1.917819591      
                  -0.6338374836     -1.917819591      -0.3001222539     0.3022812287      
6715001890        -0.2378222425     0.09124972619     -1.331168722      1.424177124       
                  -1.331168722      1.424177124       0.3845893757      0.1580326118      
6800001800        0.1455691899      0.2629388274      1.845721239       0.4876923265      
                  1.845721239       0.4876923265      -0.1306437558     -0.3095901774     
6885001710        0.1453431083      -0.2055386378     -0.4551081872     -1.793890903      
                  -0.4551081872     -1.793890903      -0.1896432304     0.3889495282      
6970001620        -0.2773041499     0.009702625611    -1.377999916      1.242788508       
                  -1.377999916      1.242788508       0.4242312227      0.02543050794     
7055001530        0.08577973412     0.3343338426      1.739466827       0.5874306671      
                  1.739466827       0.5874306671      -0.2573460718     -0.2722081122     
7140001440        0.2623778364      -0.1750139423     -0.3352462303     -1.779713977      
                  -0.3352462303     -1.779713977      -0.06483968047    0.4551830911      
7225001350        -0.2680719326     -0.1195025073     -1.409583002      1.09271193        
                  -1.409583002      1.09271193        0.4535989547      -0.1020503337     
7310001260        -0.01506393251    0.3798433593      1.662385785       0.6070216779      
                  1.662385785       0.6070216779      -0.359636512      -0.185933066      
7395001170        0.377400959       -0.05635410128    -0.1795889076     -1.70115904       
                  -0.1795889076     -1.70115904       0.07585885605     0.4832859253      
7480001080        -0.1837941531     -0.2766546311     -1.374511235      0.9398270008      
                  -1.374511235      0.9398270008      0.3956178306      -0.2366931969     
7565000990        -0.2090666538     0.3505320822      1.511415445       0.6506753711      
                  1.511415445       0.6506753711      -0.4266701386     -0.08564088924    
7650000900        0.4122619417      0.1103609168      -0.07028498255    -1.597169558      
                  -0.07028498255    -1.597169558      0.2117209403      0.440395125       
7735000810        -0.01344050218    -0.3829528756     -1.417938254      0.8348400648      
                  -1.417938254      0.8348400648      0.3181925487      -0.3469562386     
7820000720        -0.3303537826     0.2163795254      1.421205431       0.7693062803      
                  1.421205431       0.7693062803      -0.4082089427     0.02382773171     
7905000630        0.36445905        0.2710450105      0.04314189132     -1.492012279      
                  0.04314189132     -1.492012279      0.3233737827      0.364159343       
7990000540        0.2110649568      -0.3940023777     -1.414533563      0.5763827192      
                  -1.414533563      0.5763827192      0.2222642856      -0.4089493326     
8075000450        -0.411447073      -0.01587221234    1.215796913       0.9452707278      
                  1.215796913       0.9452707278      -0.390147619      0.1182264546      
8160000360        0.2023234996      0.4112439031      0.1692671236      -1.437486783      
                  0.1692671236      -1.437486783      0.399989311       0.2808121577      
8245000270        0.3714667441      -0.286956595      -1.360997971      0.4174713744      
                  -1.360997971      0.4174713744      0.1146686893      -0.4457550339     
8330000180        -0.3577553635     -0.2618146563     1.083470451       1.00475715        
                  1.083470451       1.00475715        -0.3441307106     0.1931019145      
8415000090        -0.03592503449    0.4335169509      0.2638972544      -1.35774105       
                  0.2638972544      -1.35774105       0.4373022682      0.1676198152      
8500000000        0.4540700359      -0.1077255376     -1.284230374      0.329105127       
                  -1.284230374      0.329105127       -0.003452443284   -0.4628753365     
