! RsaToolbox (C) 2013 Rohde & Schwarz America
! 
! Number of points: 101
! Number of ports: 2
! Balanced ports?: 0
! 
! 
# Hz S RI R 50
9000              1.010460114       -0.01897950284    5.721975767e-05   -2.19008544e-05   
                  5.721975767e-05   -2.19008544e-05   1.018017474       -0.02600032731    
85008910          0.002226024798    0.1587109799      3.195188477       5.504911275       
                  3.195188477       5.504911275       -0.09223773741    -0.1155525783     
170008820         0.1420530207      -0.04406128547    3.186025485       -5.225656547      
                  3.186025485       -5.225656547      -0.02027431539    0.1715988781      
255008730         -0.1758277056     -0.07572287648    -6.057884328      -0.1627689279     
                  -6.057884328      -0.1627689279     0.07752332724     -0.02665872106    
340008640         -0.06345979902    0.1694484292      2.654634495       5.352707218       
                  2.654634495       5.352707218       -0.1264899038     -0.05377338936    
425008550         0.1591132984      -0.04638219803    3.386935679       -4.870910906      
                  3.386935679       -4.870910906      0.01664911979     0.1027519049      
510008460         -0.1014639426     -0.1633049603     -5.905317158      -0.6408386274     
                  -5.905317158      -0.6408386274     0.07079198962     -0.07972611012    
595008370         -0.1073450078     0.1395326246      2.231975408       5.423596188       
                  2.231975408       5.423596188       -0.08368546729    -0.01212620838    
680008280         0.2042144785      0.03373408577     3.659588741       -4.577291502      
                  3.659588741       -4.577291502      0.09205975441     0.07539292853     
765008190         0.009493481399    -0.1635358292     -5.731596028      -1.097772383      
                  -5.731596028      -1.097772383      0.06000078367     -0.06053962083    
850008100         -0.1816441728     0.111437113       1.874550228       5.52102781        
                  1.874550228       5.52102781        -0.07174278111    0.0650489103      
935008010         0.1454193491      0.1233741572      3.943031201       -4.233789526      
                  3.943031201       -4.233789526      0.1021376021      0.03891934196     
1020007920        0.07537288035     -0.1536529181     -5.588642434      -1.444070854      
                  -5.588642434      -1.444070854      -0.004758669852   -0.07566442689    
1105007830        -0.2249944408     -0.008387017953   1.484456194       5.61461124        
                  1.484456194       5.61461124        -0.06295702621    0.07521895433     
1190007740        0.07114409721     0.1400207971      4.190808101       -3.862483276      
                  4.190808101       -3.862483276      0.1244102316      -0.04232215893    
1275007650        0.1642585363      -0.1083726154     -5.468163795      -1.824249133      
                  -5.468163795      -1.824249133      -0.03014516851    -0.08917695066    
1360007560        -0.1632719271     -0.1006165016     1.048376344       5.639658475       
                  1.048376344       5.639658475       -0.005383891226   0.1016587087      
1445007470        0.0005595303967   0.1416308273      4.406679286       -3.545518467      
                  4.406679286       -3.545518467      0.1472324244      -0.08852629999    
1530007380        0.184248615       -0.01120781207    -5.305989477      -2.18167406       
                  -5.305989477      -2.18167406       -0.06927146669    -0.06464611113    
1615007290        -0.09395052034    -0.1237661254     0.6245388988      5.598203747       
                  0.6245388988      5.598203747       0.02318631376     0.1421887892      
1700007200        -0.08831924004    0.09694066219     4.662597367       -3.245299893      
                  4.662597367       -3.245299893      0.1108870487      -0.1335873435     
1785007110        0.1277697877      0.03170608941     -5.063756108      -2.521583455      
                  -5.063756108      -2.521583455      -0.1318469579     -0.06398543963    
1870007020        -0.02179505356    -0.1355546857     0.2295478604      5.60383864        
                  0.2295478604      5.60383864        0.06572985208     0.1320320973      
1955006930        -0.1064058573     0.02128232116     4.870068647       -2.89133838       
                  4.870068647       -2.89133838       0.08926790255     -0.1938830933     
2040006840        0.0825862336      0.03872354568     -4.826732779      -2.8071891        
                  -4.826732779      -2.8071891        -0.1545840926     -0.04169847729    
2125006750        0.03612299448     -0.09254134203    -0.1849155723     5.632453776       
                  -0.1849155723     5.632453776       0.1310040574      0.1368009668      
2210006660        -0.09186591765    -0.001010830697   4.964955257       -2.536415889      
                  4.964955257       -2.536415889      0.04779215141     -0.2180768012     
2295006570        0.0293099173      0.03614356375     -4.594162948      -3.136202111      
                  -4.594162948      -3.136202111      -0.186156938      0.01555444725     
2380006480        0.0285498002      -0.05218919132    -0.5499832769     5.569012372       
                  -0.5499832769     5.569012372       0.1668809949      0.1139616093      
2465006390        -0.08733805983    -0.01615910253    5.042704196       -2.217743227      
                  5.042704196       -2.217743227      -0.01965093448    -0.2595318002     
2550006300        0.01170407642     0.000757684144    -4.284941779      -3.473635264      
                  -4.284941779      -3.473635264      -0.1909066257     0.06077090831     
2635006210        0.02498611225     -0.04481299406    -0.8870274277     5.509051258       
                  -0.8870274277     5.509051258       0.2134317776      0.06411185886     
2720006120        -0.08208243111    -0.01015841374    5.117040573       -1.846771593      
                  5.117040573       -1.846771593      -0.09072353474    -0.2644071199     
2805006030        0.01809764696     -0.000573083792   -4.000579537      -3.71978216       
                  -4.000579537      -3.71978216       -0.1630678566     0.1236328782      
2890005940        0.02054945011     -0.03684363866    -1.225811687      5.385099812       
                  -1.225811687      5.385099812       0.2320691356      0.009001084589    
2975005850        -0.09482309165    -0.007537749215   5.148893697       -1.389943207      
                  5.148893697       -1.389943207      -0.1622157858     -0.2478206334     
3060005760        0.01916417291     0.00962067248     -3.701852169      -4.06142556       
                  -3.701852169      -4.06142556       -0.1188154581     0.168862429       
3145005670        0.03543605758     -0.04524669967    -1.622109569      5.231049042       
                  -1.622109569      5.231049042       0.231753068       -0.07150699121    
3230005580        -0.1018909549     -0.03228533847    5.255742132       -0.9878186632     
                  5.255742132       -0.9878186632     -0.2272398882     -0.207661291      
3315005490        0.0124891943      0.03198358449     -3.428934937      -4.286843695      
                  -3.428934937      -4.286843695      -0.04607208108    0.2027873856      
3400005400        0.06083909147     -0.03014105058    -1.975884935      5.063909723       
                  -1.975884935      5.063909723       0.2015396793      -0.1448866628     
3485005310        -0.0984984621     -0.06287267535    5.355422966       -0.6217323755     
                  5.355422966       -0.6217323755     -0.2823254318     -0.129609578      
3570005220        -0.01945454229    0.04977051668     -3.249595673      -4.474502968      
                  -3.249595673      -4.474502968      0.03349239908     0.2106042632      
3655005130        0.06909594686     0.002618350759    -2.170020858      4.930959307       
                  -2.170020858      4.930959307       0.1347551773      -0.2086019664     
3740005040        -0.07834542572    -0.09325720924    5.344030338       -0.2684004099     
                  5.344030338       -0.2684004099     -0.3121795537     -0.03944231062    
3825004950        -0.05834030997    0.0380762263      -2.977731131      -4.60276426       
                  -2.977731131      -4.60276426       0.1132810837      0.1761401292      
3910004860        0.06471396242     0.03639858583     -2.586787997      4.70687157        
                  -2.586787997      4.70687157        0.05041858112     -0.2589574396     
3995004770        -0.03225592828    -0.1118026575     5.372895729       0.05174139138     
                  5.372895729       0.05174139138     -0.3051866442     0.06535698579     
4080004680        -0.08497711354    0.009468479322    -2.703716628      -4.774607167      
                  -2.703716628      -4.774607167      0.1906993125      0.1283376063      
4165004590        0.04097001942     0.06979034136     -2.856364927      4.564382066       
                  -2.856364927      4.564382066       -0.04639746787    -0.271754431      
4250004500        0.01040440647     -0.08940919951    5.458521182       0.2980757832      
                  5.458521182       0.2980757832      -0.2657533735     0.1755727936      
4335004410        -0.1023794821     -0.01825343886    -2.445982875      -4.882801382      
                  -2.445982875      -4.882801382      0.2299089087      0.044606151       
4420004320        -0.005662619915   0.08377115751     -3.050310932      4.453274878       
                  -3.050310932      4.453274878       -0.1640374912     -0.2506713846     
4505004230        0.03777827028     -0.05899460479    5.40583056        0.474980736       
                  5.40583056        0.474980736       -0.1966113887     0.2590104407      
4590004140        -0.1017528595     -0.05072248661    -2.181552708      -4.914802589      
                  -2.181552708      -4.914802589      0.2295259082      -0.05728128645    
4675004050        -0.04350615127    0.07167412013     -3.143936029      4.333888383       
                  -3.143936029      4.333888383       -0.255326535      -0.1912740474     
4760003960        0.05791330222     -0.01823431509    5.255089638       0.7083778704      
                  5.255089638       0.7083778704      -0.08643311741    0.3110793881      
4845003870        -0.07883033698    -0.06856629317    -1.933325902      -4.961783236      
                  -1.933325902      -4.961783236      0.2001365158      -0.1550610881     
4930003780        -0.07569728053    0.04275569053     -3.323820818      4.149404178       
                  -3.323820818      4.149404178       -0.3195863878     -0.09982723497    
5015003690        0.0514860104      0.03571807074     5.125737638       0.9476205702      
                  5.125737638       0.9476205702      0.03559409127     0.3344656229      
5100003600        -0.05422889731    -0.05738387051    -1.762935393      -5.027595683      
                  -1.762935393      -5.027595683      0.1197468476      -0.2293934445     
5185003510        -0.0911015673     0.006737266528    -3.375643278      3.924338664       
                  -3.375643278      3.924338664       -0.3495082267     0.01136681575     
5270003420        0.01711394471     0.07061632782     4.987599413       1.176710551       
                  4.987599413       1.176710551       0.1496879447      0.2996644593      
5355003330        -0.04402953231    -0.02488521116    -1.648221783      -5.081412516      
                  -1.648221783      -5.081412516      -0.00222861813    -0.279004078      
5440003240        -0.07318389504    -0.03677210538    -3.321986698      3.75865937        
                  -3.321986698      3.75865937        -0.3193320385     0.1321150312      
5525003150        -0.01573458441    0.06133231285     4.967477437       1.29118276        
                  4.967477437       1.29118276        0.2689140745      0.2014965549      
5610003060        -0.03894558142    0.0245276839      -1.58960148       -4.923135634      
                  -1.58960148       -4.923135634      -0.1366927317     -0.2677141023     
5695002970        -0.01644760146    -0.04155240944    -3.319804539      3.539380184       
                  -3.319804539      3.539380184       -0.2211320424     0.2528687144      
5780002880        -0.02371718034    0.02538557298     4.914785604       1.382790825       
                  4.914785604       1.382790825       0.3293501157      0.05803303785     
5865002790        -0.07549991375    0.07291176852     -1.487814938      -4.663116178      
                  -1.487814938      -4.663116178      -0.272189213      -0.1852652754     
5950002700        0.0329845323      0.005337871118    -3.354083932      3.331754904       
                  -3.354083932      3.331754904       -0.08291332789    0.3329572554      
6035002610        -0.01750193326    -0.0357983076     4.698040227       1.281032233       
                  4.698040227       1.281032233       0.2985158764      -0.09766228779    
6120002520        -0.1421712135     0.07128347331     -1.367501588      -4.410953278      
                  -1.367501588      -4.410953278      -0.358532992      -0.04552964286    
6205002430        0.06821902803     0.08695574728     -3.245502067      3.126605637       
                  -3.245502067      3.126605637       0.1019428098      0.3374529101      
6290002340        0.06014375642     -0.08720875201    4.475007312       1.149176959       
                  4.475007312       1.149176959       0.19456081        -0.248212905      
6375002250        -0.2118142432     0.007431923119    -1.264812845      -4.123741693      
                  -1.264812845      -4.123741693      -0.3764640712     0.1300524869      
6460002160        0.02743098437     0.2037187676      -3.007761771      2.928629713       
                  -3.007761771      2.928629713       0.2709273718      0.2721707033      
6545002070        0.174740507       -0.05692727741    4.078157335       1.056208068       
                  4.078157335       1.056208068       0.02875434588     -0.3200692128     
6630001980        -0.2039531899     -0.1102224044     -1.120782384      -3.823300392      
                  -1.120782384      -3.823300392      -0.2986726285     0.3021789474      
6715001890        -0.07260786867    0.272231526       -2.712469874      2.614023149       
                  -2.712469874      2.614023149       0.3839142408      0.1561217354      
6800001800        0.2633540948      0.05690640192     3.601313812       1.117737987       
                  3.601313812       1.117737987       -0.1314026311     -0.3088674895     
6885001710        -0.1007454606     -0.2389625091     -0.8099095381     -3.481410324      
                  -0.8099095381     -3.481410324      -0.1875394284     0.3882605754      
6970001620        -0.209333391      0.2309557591      -2.627140244      2.209689428       
                  -2.627140244      2.209689428       0.423569828       0.02304943962     
7055001530        0.2607188554      0.2080731993      3.204491903       1.237413732       
                  3.204491903       1.237413732       -0.2570213253     -0.271262404      
7140001440        0.08253978905     -0.2976099774     -0.5339197618     -3.215391392      
                  -0.5339197618     -3.215391392      -0.06332608568    0.4540727541      
7225001350        -0.2956134553     0.09461105157     -2.570030379      1.885978955       
                  -2.570030379      1.885978955       0.4527803361      -0.1032719486     
7310001260        0.1683049572      0.3468501764      2.852792212       1.160419917       
                  2.852792212       1.160419917       -0.3584724341     -0.1850417862     
7395001170        0.2851899505      -0.2255991559     -0.2409513464     -2.954736229      
                  -0.2409513464     -2.954736229      0.07729562062     0.4821333238      
7480001080        -0.2974568251     -0.1120960091     -2.407496983      1.601508396       
                  -2.407496983      1.601508396       0.3949797761      -0.2371232833     
7565000990        -0.032442741      0.3988529794      2.604098206       1.163797033       
                  2.604098206       1.163797033       -0.4250247216     -0.08439037217    
7650000900        0.4001531977      -0.05518889167    -0.05032613232    -2.60292301       
                  -0.05032613232    -2.60292301       0.2129374084      0.4388435648      
7735000810        -0.1599236923     -0.3067186378     -2.293078059      1.339155725       
                  -2.293078059      1.339155725       0.317475986       -0.3461917757     
7820000720        -0.207846743      0.3162132438      2.268891271       1.241974681       
                  2.268891271       1.241974681       -0.4060567722     0.02501290848     
7905000630        0.4138423483      0.1397108591      0.1001295663      -2.295538591      
                  0.1001295663      -2.295538591      0.3244113892      0.3623780454      
7990000540        0.06712073929     -0.3901433777     -2.212390684      0.9187192106      
                  -2.212390684      0.9187192106      0.2216700206      -0.4069664562     
8075000450        -0.3505338535     0.1188549169      1.900395343       1.434182223       
                  1.900395343       1.434182223       -0.387890133      0.1189635915      
8160000360        0.2964209079      0.3136916223      0.2554340841      -2.186159358      
                  0.2554340841      -2.186159358      0.399233011       0.2803941811      
8245000270        0.2579060681      -0.3363138225     -2.037703675      0.6112421421      
                  -2.037703675      0.6112421421      0.1145557238      -0.4441439398     
8330000180        -0.3658523933     -0.133170818      1.632734462       1.500347378       
                  1.632734462       1.500347378       -0.3430841739     0.1935799764      
8415000090        0.0778185176      0.39270401        0.3875649402      -1.994092605      
                  0.3875649402      -1.994092605      0.4360291056      0.1673964737      
8500000000        0.3828754863      -0.1852332811     -1.830500013      0.4432066507      
                  -1.830500013      0.4432066507      -0.004384564252   -0.4604755042     
