! RsaToolbox (C) 2013 Rohde & Schwarz America
! 
! Number of points: 101
! Number of ports: 2
! Balanced ports?: 0
! 
! 
# Hz S RI R 50
9000              1.012508616       -0.021612195      0.0001067432549   -1.629830401e-05  
                  0.0001067432549   -1.629830401e-05  1.019299449       -0.02380407979    
85008910          0.002347050759    0.158990848       3.195139981       5.512950716       
                  3.195139981       5.512950716       -0.09223367509    -0.1156694615     
170008820         0.1422837723      -0.04419005816    3.190190413       -5.227700396      
                  3.190190413       -5.227700396      -0.02038297715    0.1717008603      
255008730         -0.1760457031     -0.07586638649    -6.059829718      -0.1670375163     
                  -6.059829718      -0.1670375163     0.07739485359     -0.0264424154     
340008640         -0.06339689518    0.1699521364      2.654120932       5.355983632       
                  2.654120932       5.355983632       -0.1263564183     -0.05386152139    
425008550         0.1593937737      -0.04658155485    3.389805364       -4.870586284      
                  3.389805364       -4.870586284      0.01673051261     0.1028070798      
510008460         -0.1016664509     -0.163552471      -5.906174665      -0.6515146474     
                  -5.906174665      -0.6515146474     0.07062913114     -0.0795903895     
595008370         -0.1073875392     0.1397593138      2.229944992       5.42730792        
                  2.229944992       5.42730792        -0.08385002689    -0.01244048943    
680008280         0.2043588004      0.0339119136      3.663844229       -4.57802035       
                  3.663844229       -4.57802035       0.0921075653      0.07531384014     
765008190         0.00932855363     -0.1636872167     -5.732722615      -1.102348385      
                  -5.732722615      -1.102348385      0.06016452289     -0.0606711082     
850008100         -0.1818855128     0.1116211661      1.870382336       5.524978286       
                  1.870382336       5.524978286       -0.07180724317    0.06506539647     
935008010         0.1456739803      0.1235336756      3.946626462       -4.233204531      
                  3.946626462       -4.233204531      0.1022592146      0.03890221626     
1020007920        0.07556908029     -0.1539279863     -5.590672451      -1.447305661      
                  -5.590672451      -1.447305661      -0.004812774188   -0.07550534962    
1105007830        -0.2253438427     -0.008279296643   1.476310167       5.619522209       
                  1.476310167       5.619522209       -0.0628763277     0.07524695824     
1190007740        0.07126659274     0.1403584089      4.195088998       -3.861984281      
                  4.195088998       -3.861984281      0.1243097202      -0.04274056489    
1275007650        0.164340598       -0.1088769323     -5.470542575      -1.829333574      
                  -5.470542575      -1.829333574      -0.03012726583    -0.08904120921    
1360007560        -0.1634538005     -0.1007975967     1.044321687       5.643600276       
                  1.044321687       5.643600276       -0.005575154514   0.1016840796      
1445007470        0.0004363809378   0.1419746438      4.411649404       -3.545001206      
                  4.411649404       -3.545001206      0.1470830698      -0.08843268815    
1530007380        0.1847401852      -0.01133122246    -5.308387497      -2.185665612      
                  -5.308387497      -2.185665612      -0.06927676977    -0.06456459434    
1615007290        -0.09442890418    -0.1239638983     0.620115942       5.605603166       
                  0.620115942       5.605603166       0.02327408245     0.1421464568      
1700007200        -0.08859886665    0.09721902596     4.668541471       -3.244229032      
                  4.668541471       -3.244229032      0.1107856757      -0.1335183645     
1785007110        0.1281994359      0.03175383241     -5.064837646      -2.528980334      
                  -5.064837646      -2.528980334      -0.1319234629     -0.06391592099    
1870007020        -0.0218033371     -0.136033233      0.2250201746      5.608412952       
                  0.2250201746      5.608412952       0.06584739621     0.1322269814      
1955006930        -0.1069412686     0.02160125939     4.875638748       -2.888841507      
                  4.875638748       -2.888841507      0.0892716143      -0.1938591879     
2040006840        0.08295398227     0.03908304865     -4.828210687      -2.813749953      
                  -4.828210687      -2.813749953      -0.1546539477     -0.04153335983    
2125006750        0.03637555773     -0.0930109399     -0.1913076182     5.636828193       
                  -0.1913076182     5.636828193       0.1310788182      0.1367415609      
2210006660        -0.09241954458    -0.000860038887   4.971508919       -2.53441547       
                  4.971508919       -2.53441547       0.04795663252     -0.2180665429     
2295006570        0.02963208614     0.03676832286     -4.597014567      -3.141133292      
                  -4.597014567      -3.141133292      -0.1858808453     0.01543923806     
2380006480        0.02902380329     -0.05282217672    -0.5544151111     5.574430192       
                  -0.5544151111     5.574430192       0.16683468        0.1139317518      
2465006390        -0.08782969885    -0.01661243353    5.050546414       -2.217441829      
                  5.050546414       -2.217441829      -0.01972393126    -0.2594407823     
2550006300        0.0116423762      0.00114155319     -4.287227175      -3.480905034      
                  -4.287227175      -3.480905034      -0.1909842922     0.06073824014     
2635006210        0.02562720355     -0.04501378411    -0.8944002142     5.516007813       
                  -0.8944002142     5.516007813       0.2135388849      0.06398291695     
2720006120        -0.08235147542    -0.01089301827    5.125806378       -1.84431746       
                  5.125806378       -1.84431746       -0.09075600851    -0.2643477439     
2805006030        0.0177562097      -1.633923247e-05  -4.001902789      -3.728932337      
                  -4.001902789      -3.728932337      -0.1630038343     0.1234323189      
2890005940        0.02123925147     -0.0365660117     -1.235015145      5.391361183       
                  -1.235015145      5.391361183       0.2319034887      0.008890434366    
2975005850        -0.09500992572    -0.007984860974   5.157761487       -1.386600354      
                  5.157761487       -1.386600354      -0.1621794998     -0.2477044452     
3060005760        0.01861275142     0.01000712284     -3.70339395       -4.071427509      
                  -3.70339395       -4.071427509      -0.1189918045     0.1688369024      
3145005670        0.03615171417     -0.04493892154    -1.6303041        5.237975264       
                  -1.6303041        5.237975264       0.2316368273      -0.07145118312    
3230005580        -0.1019278758     -0.03282461137    5.265619802       -0.9844379458     
                  5.265619802       -0.9844379458     -0.2270707568     -0.2073591902     
3315005490        0.01196621495     0.03188371314     -3.431293926      -4.297704882      
                  -3.431293926      -4.297704882      -0.04608883362    0.2025537839      
3400005400        0.06127550292     -0.02948281764    -1.985613191      5.070282282       
                  -1.985613191      5.070282282       0.2014673142      -0.144926851      
3485005310        -0.09825116668    -0.06349057855    5.368105453       -0.6176924398     
                  5.368105453       -0.6176924398     -0.2820458217     -0.1296595518     
3570005220        -0.01994536431    0.04946186514     -3.251454941      -4.487847918      
                  -3.251454941      -4.487847918      0.03382008942     0.2105404034      
3655005130        0.06916361955     0.003427884677    -2.182474994      4.938676774       
                  -2.182474994      4.938676774       0.1344715708      -0.2088960101     
3740005040        -0.07745199097    -0.09365865593    5.357799144       -0.2623558542     
                  5.357799144       -0.2623558542     -0.3119464383     -0.03963736547    
3825004950        -0.05864532905    0.03751393545     -2.979204205      -4.621163936      
                  -2.979204205      -4.621163936      0.1135134321      0.1760169073      
3910004860        0.06429214718     0.03736627567     -2.602587985      4.716976889       
                  -2.602587985      4.716976889       0.0505295775      -0.2592541808     
3995004770        -0.03142302122    -0.1115581043     5.389223231       0.05992431539     
                  5.389223231       0.05992431539     -0.3053063138     0.06525436291     
4080004680        -0.08482282417    0.008483749982    -2.703436311      -4.791382674      
                  -2.703436311      -4.791382674      0.1904567832      0.1281634376      
4165004590        0.0399616624      0.07030527        -2.86648499       4.576098752       
                  -2.86648499       4.576098752       -0.04649002141    -0.271516657      
4250004500        0.01128396171     -0.08862022702    5.475029684       0.3063878716      
                  5.475029684       0.3063878716      -0.2656413371     0.1757420123      
4335004410        -0.101818062      -0.0193904002     -2.446243604      -4.900463374      
                  -2.446243604      -4.900463374      0.2297942552      0.04447091017     
4420004320        -0.00693976533    0.08391114745     -3.066343167      4.461664474       
                  -3.066343167      4.461664474       -0.1637235567     -0.2507344566     
4505004230        0.0380862838      -0.05760194126    5.422786461       0.4869271487      
                  5.422786461       0.4869271487      -0.1968739942     0.2588395658      
4590004140        -0.1005624262     -0.05170283202    -2.180162426      -4.934996142      
                  -2.180162426      -4.934996142      0.2295824269      -0.05745871683    
4675004050        -0.04447374347    0.07097311408     -3.162491803      4.343123843       
                  -3.162491803      4.343123843       -0.2552953332     -0.1909991428     
4760003960        0.05762620032     -0.01690862709    5.27378238        0.72031342        
                  5.27378238        0.72031342        -0.08643026225    0.3109488085      
4845003870        -0.07749239501    -0.06869599068    -1.931895683      -4.984492768      
                  -1.931895683      -4.984492768      0.2003742693      -0.1548152031     
4930003780        -0.07631552413    0.04170692481     -3.345939402      4.159048545       
                  -3.345939402      4.159048545       -0.3194096172     -0.09963349561    
5015003690        0.05064123089     0.03723458438     5.144746023       0.9609435921      
                  5.144746023       0.9609435921      0.03582066897     0.3344231984      
5100003600        -0.05255923859    -0.05689503411    -1.758726251      -5.055775414      
                  -1.758726251      -5.055775414      0.119708703       -0.2293152347     
5185003510        -0.09137346192    0.005074498028    -3.398912727      3.93607612        
                  -3.398912727      3.93607612        -0.3492999599     0.01214742837     
5270003420        0.01558541501     0.07159443395     5.008257168       1.193326951       
                  5.008257168       1.193326951       0.1497651846      0.2995129324      
5355003330        -0.04235106199    -0.0234972728     -1.644517684      -5.113090738      
                  -1.644517684      -5.113090738      -0.002145287554   -0.2790172799     
5440003240        -0.07241593834    -0.03845637435    -3.345307943      3.770562074       
                  -3.345307943      3.770562074       -0.3193887948     0.1321328225      
5525003150        -0.01754843857    0.06126624569     4.990928207       1.306982099       
                  4.990928207       1.306982099       0.268885088       0.2014331004      
5610003060        -0.03851254844    0.02629655281     -1.586045495      -4.955238394      
                  -1.586045495      -4.955238394      -0.1367223921     -0.2676757345     
5695002970        -0.01504419918    -0.04271833625    -3.345678797      3.552139014       
                  -3.345678797      3.552139014       -0.2210178705     0.2529825128      
5780002880        -0.02533416553    0.02464766198     4.940692786       1.400340355       
                  4.940692786       1.400340355       0.3293538266      0.05790561926     
5865002790        -0.07590202687    0.07477836117     -1.486669595      -4.694788553      
                  -1.486669595      -4.694788553      -0.2721690403     -0.1852787672     
5950002700        0.03495981672     0.004798770179    -3.380096368      3.344418847       
                  -3.380096368      3.344418847       -0.08298431635    0.3330084548      
6035002610        -0.01853309352    -0.03762450056    4.726341621       1.298012843       
                  4.726341621       1.298012843       0.298499866       -0.09738190214    
6120002520        -0.1434940983     0.07284698408     -1.367903338      -4.438946167      
                  -1.367903338      -4.438946167      -0.3585049505     -0.04552242646    
6205002430        0.07002662387     0.08761734376     -3.268460202      3.138066814       
                  -3.268460202      3.138066814       0.1017874363      0.3373544959      
6290002340        0.05978555662     -0.08914419933    4.501488013       1.162432917       
                  4.501488013       1.162432917       0.1950010933      -0.2480246105     
6375002250        -0.213602399      0.008235479053    -1.268290896      -4.146992217      
                  -1.268290896      -4.146992217      -0.3763882352     0.130038891       
6460002160        0.02888495843     0.2049079191      -3.025854235      2.940376242       
                  -3.025854235      2.940376242       0.2707097447      0.2726769125      
6545002070        0.1753341217      -0.05868981616    4.100229736       1.066220896       
                  4.100229736       1.066220896       0.02871937212     -0.3199009431     
6630001980        -0.2053780356     -0.1106101325     -1.124554171      -3.843114393      
                  -1.124554171      -3.843114393      -0.2986028038     0.3022405128      
6715001890        -0.07184744998    0.2735600188      -2.725997606      2.625391592       
                  -2.725997606      2.625391592       0.3838827669      0.1560400812      
6800001800        0.2643816357      0.05574582037     3.618164981       1.125035086       
                  3.618164981       1.125035086       -0.1314920964     -0.3086529382     
6885001710        -0.1020408877     -0.2396865397     -0.8129407745     -3.497470482      
                  -0.8129407745     -3.497470482      -0.1881810128     0.3880140227      
6970001620        -0.2092379311     0.2323950845      -2.6381882        2.219023467       
                  -2.6381882        2.219023467       0.4232308557      0.02316816976     
7055001530        0.261896888       0.2075228094      3.216225008       1.242731574       
                  3.216225008       1.242731574       -0.2570383183     -0.2717623933     
7140001440        0.08205294774     -0.2987606118     -0.5368498938     -3.225969078      
                  -0.5368498938     -3.225969078      -0.06305486601    0.4538197889      
7225001350        -0.2961600264     0.09576285404     -2.577852214      1.892678427       
                  -2.577852214      1.892678427       0.4525373096      -0.1035751246     
7310001260        0.1695539393      0.346878212       2.8610468         1.162327548       
                  2.8610468         1.162327548       -0.3584642054     -0.1854460492     
7395001170        0.2852442088      -0.2266845971     -0.2424856109     -2.963190741      
                  -0.2424856109     -2.963190741      0.07716538704     0.4820418591      
7480001080        -0.2982364359     -0.1114089839     -2.414491176      1.607154948       
                  -2.414491176      1.607154948       0.3949308127      -0.2372737554     
7565000990        -0.03148461285    0.3992949028      2.611732819       1.165875172       
                  2.611732819       1.165875172       -0.4249999831     -0.08442889331    
7650000900        0.4004128733      -0.05594944203    -0.05209313815    -2.60836723       
                  -0.05209313815    -2.60836723       0.2131115847      0.4384572134      
7735000810        -0.1609723034     -0.3068228888     -2.296331284      1.343220005       
                  -2.296331284      1.343220005       0.3174315768      -0.3463972408     
7820000720        -0.2075681625     0.3165553546      2.274027736       1.24331769        
                  2.274027736       1.24331769        -0.4060765178     0.02505126201     
7905000630        0.4139173436      0.1391307941      0.09905044434     -2.299269206      
                  0.09905044434     -2.299269206      0.3244457728      0.3624304035      
7990000540        0.06693821124     -0.3906273282     -2.215167888      0.922221402       
                  -2.215167888      0.922221402       0.2213794489      -0.407228723      
8075000450        -0.3504541922     0.1194026882      1.904825435       1.435024916       
                  1.904825435       1.435024916       -0.387692035      0.1190180853      
8160000360        0.2972560139      0.3132535009      0.2539243263      -2.189164166      
                  0.2539243263      -2.189164166      0.3995740182      0.2798007661      
8245000270        0.2577975873      -0.3367423835     -2.040127992      0.613458106       
                  -2.040127992      0.613458106       0.1139374455      -0.4440191154     
8330000180        -0.366223831      -0.1328933461     1.635383462       1.500625532       
                  1.635383462       1.500625532       -0.343376815      0.1938552346      
8415000090        0.0784640092      0.3931977806      0.3864248254      -1.996764319      
                  0.3864248254      -1.996764319      0.4357569568      0.1670748489      
8500000000        0.3831611054      -0.1855490036     -1.831936146      0.4448240194      
                  -1.831936146      0.4448240194      -0.004704219648   -0.459858883      
