! RsaToolbox (C) 2013 Rohde & Schwarz America
! 
! Number of points: 101
! Number of ports: 2
! Balanced ports?: 0
! 
! 
# Hz S RI R 50
9000              0.9892311778      -0.01056998203    7.753973872e-05   -1.974292113e-05  
                  7.753973872e-05   -1.974292113e-05  1.001804794       -0.01947904197    
85008910          -0.03310882847    0.07787578767     2.710607227       4.509592542       
                  2.710607227       4.509592542       -0.09226294508    -0.1165145039     
170008820         0.08936232916     0.009760535583    2.729623154       -4.614293637      
                  2.729623154       -4.614293637      -0.02113013527    0.1718839054      
255008730         -0.123246785      -0.06130464732    -5.382778779      -0.0002610840855  
                  -5.382778779      -0.0002610840855  0.07781512349     -0.02667694592    
340008640         -0.06823480682    0.1105608968      2.490853067       4.688428333       
                  2.490853067       4.688428333       -0.127067169      -0.05434217132    
425008550         0.1068893415      -0.02338374127    2.899064385       -4.449192991      
                  2.899064385       -4.449192991      0.01627606561     0.1030175678      
510008460         -0.06192502868    -0.1275318915     -5.292249988      -0.3715112009     
                  -5.292249988      -0.3715112009     0.07097322015     -0.07993099031    
595008370         -0.08166465168    0.08335490499     2.142139438       4.831634474       
                  2.142139438       4.831634474       -0.08418837034    -0.0123769623     
680008280         0.1569394834      0.03901870971     3.10327001        -4.265740288      
                  3.10327001        -4.265740288      0.09212013757     0.07576683181     
765008190         0.02774568643     -0.104951192      -5.207393994      -0.8534142869     
                  -5.207393994      -0.8534142869     0.06046466069     -0.06080405169    
850008100         -0.151988869      0.07632244803     1.943197406       4.875159157       
                  1.943197406       4.875159157       -0.07211046326    0.06497561656     
935008010         0.1001673952      0.1005068947      3.431519942       -3.99065099       
                  3.431519942       -3.99065099       0.1021810137      0.0389472223      
1020007920        0.06543477609     -0.09900211231    -5.132241639      -1.155868107      
                  -5.132241639      -1.155868107      -0.004937981668   -0.07612204826    
1105007830        -0.1868676615     -0.02635668402    1.668385115       4.889132676       
                  1.668385115       4.889132676       -0.06356591347    0.07525734027     
1190007740        0.04325520083     0.08803029702     3.739856286       -3.620785271      
                  3.739856286       -3.620785271      0.1243589123      -0.04233423419    
1275007650        0.1360766491      -0.06740553843    -5.036878334      -1.392564715      
                  -5.036878334      -1.392564715      -0.03026723678    -0.08935571149    
1360007560        -0.114782792      -0.08564714496    1.243550525       5.036035655       
                  1.243550525       5.036035655       -0.005978470613   0.1021970327      
1445007470        0.00212687693     0.07773012296     3.90955996        -3.352054789      
                  3.90955996        -3.352054789      0.147432354       -0.08824089739    
1530007380        0.1210252561      0.009389155205    -4.838431133      -1.57238219       
                  -4.838431133      -1.57238219       -0.06968334055    -0.06492291166    
1615007290        -0.04412169012    -0.05103830122    0.8898020149      4.89784141        
                  0.8898020149      4.89784141        0.02263151181     0.1425591342      
1700007200        -0.03811708986    0.02882154307     3.918315336       -3.167852339      
                  3.918315336       -3.167852339      0.1110649148      -0.1335909801     
1785007110        0.03924912116     0.00433108148     -4.626669645      -1.881401526      
                  -4.626669645      -1.881401526      -0.1325273164     -0.06450977913    
1870007020        -0.01936662571    -0.03671469961    0.6258748333      4.910157546       
                  0.6258748333      4.910157546       0.0653075219      0.1326265721      
1955006930        -0.01428333192    -0.01312316065    4.044720209       -2.940656833      
                  4.044720209       -2.940656833      0.08954084029     -0.1942561157     
2040006840        0.01247110633     -0.03839081218    -4.463470755      -2.096858898      
                  -4.463470755      -2.096858898      -0.1554403056     -0.04206360932    
2125006750        -0.01709193772    -0.001955510257   0.3399263954      4.966741925       
                  0.3399263954      4.966741925       0.1307823307      0.1373736365      
2210006660        0.01749356412     0.01504255047     4.097544967       -2.690959739      
                  4.097544967       -2.690959739      0.04829479852     -0.2187046679     
2295006570        0.003825787743    -0.07385085609    -4.284722578      -2.313361718      
                  -4.284722578      -2.313361718      -0.1868378241     0.01477420979     
2380006480        -0.07098975162    0.008198523655    0.09095710262     4.884421782       
                  0.09095710262     4.884421782       0.1668678567      0.1142222677      
2465006390        0.01363354991     0.05802071924     4.079250414       -2.483560182      
                  4.079250414       -2.483560182      -0.01931585503    -0.2604925274     
2550006300        0.03758638444     -0.1144708339     -4.020410229      -2.588175686      
                  -4.020410229      -2.588175686      -0.1915603167     0.06031982204     
2635006210        -0.1114180698     -0.03659326961    -0.03424659214    4.735556123       
                  -0.03424659214    4.735556123       0.2138652499      0.06419247621     
2720006120        -0.01888896238    0.1119644961      4.090710761       -2.201298649      
                  4.090710761       -2.201298649      -0.09036848191    -0.2656239581     
2805006030        0.1052739611      -0.1004602786     -3.810368784      -2.638549433      
                  -3.810368784      -2.638549433      -0.163546904      0.1228784754      
2890005940        -0.1178622674     -0.09982785878    -0.2137020381     4.556923179       
                  -0.2137020381     4.556923179       0.232822429       0.008899775405    
2975005850        -0.09139501441    0.1387996088      4.079676678       -1.796469895      
                  4.079676678       -1.796469895      -0.1619849643     -0.248923693      
3060005760        0.1580094938      -0.03960204685    -3.587037708      -2.800399115      
                  -3.587037708      -2.800399115      -0.1192717974     0.16845297        
3145005670        -0.06546661562    -0.164758988      -0.5512311681     4.439840528       
                  -0.5512311681     4.439840528       0.2327198344      -0.07175776097    
3230005580        -0.1653004069     0.1032137747      4.151272647       -1.4704263        
                  4.151272647       -1.4704263        -0.2266535201     -0.2089667305     
3315005490        0.1774631955      0.0540545021      -3.3647179        -2.812410012      
                  -3.3647179        -2.812410012      -0.04601078308    0.2028556297      
3400005400        0.01628399769     -0.1970286224     -0.762299568      4.230091313       
                  -0.762299568      4.230091313       0.203053709       -0.1448476419     
3485005310        -0.2303154307     0.03991866148     4.085409576       -1.241010793      
                  4.085409576       -1.241010793      -0.2818735538     -0.1305871681     
3570005220        0.1355182806      0.1511888182      -3.179912682      -2.817748381      
                  -3.179912682      -2.817748381      0.03373845781     0.2115032524      
3655005130        0.1009076879      -0.1821792824     -0.8494972579     4.02350099        
                  -0.8494972579     4.02350099        0.1361643056      -0.2084911156     
3740005040        -0.2532075686     -0.05675180257    3.950684457       -1.024311343      
                  3.950684457       -1.024311343      -0.3117786265     -0.04013869873    
3825004950        0.04584293617     0.2123877019      -2.893669055      -2.771799416      
                  -2.893669055      -2.771799416      0.1140998013      0.1776123772      
3910004860        0.1856536665      -0.1274957597     -1.077668867      3.784831723       
                  -1.077668867      3.784831723       0.0523685115      -0.2586598635     
3995004770        -0.2236888684     -0.1605140321     3.784555053       -0.8269665811     
                  3.784555053       -0.8269665811     -0.3055767028     0.06546548839     
4080004680        -0.06578384748    0.2225590182      -2.606310177      -2.834932908      
                  -2.606310177      -2.834932908      0.1924984475      0.1287570577      
4165004590        0.2230091496      -0.03112586413    -1.294177594      3.631744767       
                  -1.294177594      3.631744767       -0.04572372706    -0.2734820479     
4250004500        -0.1488155684     -0.2212856404     3.751609815       -0.6058802376     
                  3.751609815       -0.6058802376     -0.265516748      0.1761787513      
4335004410        -0.1754817613     0.1852285156      -2.36318513       -2.897530407      
                  -2.36318513       -2.897530407      0.2313964768      0.04497275605     
4420004320        0.207438906       0.07003463736     -1.416736016      3.464210901       
                  -1.416736016      3.464210901       -0.16352743       -0.2517584873     
4505004230        -0.05424165602    -0.2503257832     3.625989866       -0.4556418903     
                  3.625989866       -0.4556418903     -0.197240984      0.2595156959      
4590004140        -0.2526142306     0.1049569275      -2.112105394      -2.883962952      
                  -2.112105394      -2.883962952      0.2304042022      -0.05737779232    
4675004050        0.1548362036      0.1521102438      -1.476860264      3.270938848       
                  -1.476860264      3.270938848       -0.255770564      -0.1920408012     
4760003960        0.05694475318     -0.2331131411     3.485825269       -0.2575700081     
                  3.485825269       -0.2575700081     -0.08741250141    0.3117433263      
4845003870        -0.2769611583     0.007840960446    -1.866914914      -2.885744256      
                  -1.866914914      -2.885744256      0.2009093765      -0.1547259323     
4930003780        0.06450842187     0.2044436024      -1.615806673      3.047828463       
                  -1.615806673      3.047828463       -0.3205175999     -0.1003897884     
5015003690        0.1426678502      -0.163620383      3.357193762       -0.03857836525    
                  3.357193762       -0.03857836525    0.03499075532     0.3357265882      
5100003600        -0.2624932504     -0.07866523164    -1.681463638      -2.862573274      
                  -1.681463638      -2.862573274      0.119804343       -0.2296195862     
5185003510        -0.03539248914    0.2127184424      -1.693324636      2.807462381       
                  -1.693324636      2.807462381       -0.3509416392     0.01075015848     
5270003420        0.1808979768      -0.06850422753    3.249162081       0.1999110437      
                  3.249162081       0.1999110437      0.1490287673      0.3010069653      
5355003330        -0.2185290907     -0.1389165756     -1.537684753      -2.824513447      
                  -1.537684753      -2.824513447      -0.001812715322   -0.2799988105     
5440003240        -0.108017369      0.1714279933      -1.732700448      2.65685072        
                  -1.732700448      2.65685072        -0.3208441134     0.1315756537      
5525003150        0.1835142249      0.01113577334     3.179403973       0.3176969391      
                  3.179403973       0.3176969391      0.2690682552      0.2025828926      
5610003060        -0.1433261821     -0.1529419081     -1.42648615       -2.766781162      
                  -1.42648615       -2.766781162      -0.1361570012     -0.2688558269     
5695002970        -0.1341215388     0.1284888054      -1.769286529      2.465210315       
                  -1.769286529      2.465210315       -0.2223837633     0.2528457893      
5780002880        0.1680524906      0.07291022554     3.077662571       0.4212684211      
                  3.077662571       0.4212684211      0.3302460014      0.05924315777     
5865002790        -0.0913754124     -0.1308435739     -1.26290157       -2.690659463      
                  -1.26290157       -2.690659463      -0.2717441489     -0.1865905326     
5950002700        -0.1385000869     0.1039573197      -1.813399894      2.294569923       
                  -1.813399894      2.294569923       -0.08359632884    0.3338298094      
6035002610        0.1277746414      0.09150910015     2.900894628       0.4489913178      
                  2.900894628       0.4489913178      0.3002281781      -0.09630801226    
6120002520        -0.06665811709    -0.115418118      -1.103894721      -2.595908188      
                  -1.103894721      -2.595908188      -0.3581346223     -0.04661749345    
6205002430        -0.1226768201     0.09703240634     -1.795821858      2.15730561        
                  -1.795821858      2.15730561        0.1024746712      0.3389415692      
6290002340        0.1294680494      0.08852723726     2.76251728        0.4615437168      
                  2.76251728        0.4615437168      0.1974590409      -0.247778505      
6375002250        -0.07094950853    -0.1267538203     -0.9851004721     -2.513575834      
                  -0.9851004721     -2.513575834      -0.3763614191     0.128644606       
6460002160        -0.1388193404     0.1343592299      -1.73738538       2.032484165       
                  -1.73738538       2.032484165       0.2714890995      0.2734045128      
6545002070        0.1608434545      0.1226851582      2.572742448       0.4781683791      
                  2.572742448       0.4781683791      0.03017500007     -0.3209117168     
6630001980        -0.03010964463    -0.1687679305     -0.859630225      -2.396235555      
                  -0.859630225      -2.396235555      -0.2996885905     0.3024328217      
6715001890        -0.1865041653     0.1475925381      -1.643935824      1.828679808       
                  -1.643935824      1.828679808       0.3845521874      0.1575219141      
6800001800        0.1820645756      0.2002700059      2.349327428       0.5648552956      
                  2.349327428       0.5648552956      -0.1309987302     -0.3093517365     
6885001710        0.06709223546     -0.2171391295     -0.6401930034     -2.2476696        
                  -0.6401930034     -2.2476696        -0.1890667657     0.3888103109      
6970001620        -0.2564594402     0.08148547034     -1.679334475      1.583323949       
                  -1.679334475      1.583323949       0.4240786285      0.02474484302     
7055001530        0.1431989652      0.2937623033      2.194459311       0.6935989389      
                  2.194459311       0.6935989389      -0.2574253058     -0.2718954086     
7140001440        0.1991851458      -0.2201255829     -0.4713702112     -2.215482085      
                  -0.4713702112     -2.215482085      -0.06432679601    0.4550756557      
7225001350        -0.28013543       -0.04315766488    -1.732881254      1.406458132       
                  -1.732881254      1.406458132       0.4533970638      -0.1024803257     
7310001260        0.0521281311      0.3692834074      2.069809119       0.7192010348      
                  2.069809119       0.7192010348      -0.3594932903     -0.1854992302     
7395001170        0.3447726728      -0.1197681959     -0.2620322917     -2.10322981       
                  -0.2620322917     -2.10322981       0.07627367164     0.4831810937      
7480001080        -0.226328161      -0.2197066242     -1.66641405       1.195672371       
                  -1.66641405       1.195672371       0.39537901        -0.2368736627     
7565000990        -0.1440532645     0.3706836621      1.888823399       0.7640531015      
                  1.888823399       0.7640531015      -0.4263921038     -0.08570671623    
7650000900        0.4092894523      0.04348504475     -0.1098531733     -1.954824566      
                  -0.1098531733     -1.954824566      0.2120340993      0.4400864283      
7735000810        -0.07714796756    -0.353804088      -1.724168113      1.058269479       
                  -1.724168113      1.058269479       0.3180242902      -0.346662933      
7820000720        -0.2816536435     0.2607036066      1.749466336       0.9076439234      
                  1.749466336       0.9076439234      -0.4077037323     0.02414262564     
7905000630        0.3887858418      0.2121130334      0.03389660544     -1.816850417      
                  0.03389660544     -1.816850417      0.3240397141      0.3637216148      
7990000540        0.1475048892      -0.3958404733     -1.712609239      0.7359863136      
                  -1.712609239      0.7359863136      0.2220907225      -0.408445334      
8075000450        -0.3878939474     0.04527758485     1.498155808       1.113260039       
                  1.498155808       1.113260039       -0.3895350909     0.1183776042      
8160000360        0.2477158725      0.367290823       0.1766614504      -1.748045088      
                  0.1766614504      -1.748045088      0.3998566613      0.2806586765      
8245000270        0.3161027189      -0.3129857475     -1.655395109      0.5295283867      
                  -1.655395109      0.5295283867      0.1146614333      -0.4453220838     
8330000180        -0.3639928225     -0.199805661      1.340641376       1.200699404       
                  1.340641376       1.200699404       -0.3440006353     0.1930394192      
8415000090        0.02120896278     0.4148462269      0.2965738211      -1.647561348      
                  0.2965738211      -1.647561348      0.4368918848      0.167614875       
8500000000        0.4170925162      -0.1495629863     -1.547215136      0.4044120075      
                  -1.547215136      0.4044120075      -0.003729341589   -0.4621179516     
