! RsaToolbox (C) 2013 Rohde & Schwarz America
! 
! Number of points: 101
! Number of ports: 2
! Balanced ports?: 0
! 
! 
# Hz S RI R 50
9000              1.018629103       -0.01763283605    0.000134847116    7.732063822e-05   
                  0.000134847116    7.732063822e-05   1.017746208       -0.02558348639    
85008910          0.002730519262    0.1593074647      3.190202564       5.52710747        
                  3.190202564       5.52710747        -0.09256998093    -0.1162523177     
170008820         0.142858296       -0.04451543819    3.201555439       -5.227795476      
                  3.201555439       -5.227795476      -0.0201061496     0.1712544753      
255008730         -0.176388951      -0.07595383565    -6.065835523      -0.1766834379     
                  -6.065835523      -0.1766834379     0.07740334811     -0.02674827722    
340008640         -0.06347205425    0.1700406411      2.648770162       5.363981671       
                  2.648770162       5.363981671       -0.1258957888     -0.05323334969    
425008550         0.1598251272      -0.04669459263    3.39724204        -4.868266554      
                  3.39724204        -4.868266554      0.0167077099      0.1026073786      
510008460         -0.1017897153     -0.1633565888     -5.913100704      -0.6535360854     
                  -5.913100704      -0.6535360854     0.07126973285     -0.07962585856    
595008370         -0.107575147      0.1402729805      2.22680521        5.43732991        
                  2.22680521        5.43732991        -0.08362302583    -0.01170138508    
680008280         0.2047922363      0.0339564072      3.673384475       -4.575471011      
                  3.673384475       -4.575471011      0.09176933783     0.07509554731     
765008190         0.009223199982    -0.1638327829     -5.737026917      -1.111860256      
                  -5.737026917      -1.111860256      0.0602240757      -0.06053958967    
850008100         -0.1819728886     0.1117947086      1.866880564       5.53255615        
                  1.866880564       5.53255615        -0.07204951263    0.06527085905     
935008010         0.1456013813      0.1235313732      3.954572482       -4.230763806      
                  3.954572482       -4.230763806      0.1023805557      0.03931951381     
1020007920        0.07569998301     -0.1545352013     -5.592675999      -1.453896623      
                  -5.592675999      -1.453896623      -0.004511203535   -0.0756250505     
1105007830        -0.2255410245     -0.008047065247   1.477629719       5.625074067       
                  1.477629719       5.625074067       -0.06335160304    0.0752993932      
1190007740        0.07153974872     0.1411411529      4.201542686       -3.859342227      
                  4.201542686       -3.859342227      0.1242691949      -0.04305146942    
1275007650        0.1648810152      -0.1090466261     -5.473714842      -1.838386588      
                  -5.473714842      -1.838386588      -0.03029024307    -0.08917207128    
1360007560        -0.1635686925     -0.1009648771     1.037604014       5.647102405       
                  1.037604014       5.647102405       -0.00565651146    0.101916022       
1445007470        0.001020143889    0.1429849661      4.417301878       -3.545592302      
                  4.417301878       -3.545592302      0.146907129       -0.08812235094    
1530007380        0.1854354776      -0.01169399009    -5.3099283        -2.194857842      
                  -5.3099283        -2.194857842      -0.06924268915    -0.06448843045    
1615007290        -0.09446466038    -0.1245296213     0.6106589582      5.60895748        
                  0.6106589582      5.60895748        0.02299356698     0.1419025821      
1700007200        -0.08925867447    0.09763363366     4.676066706       -3.239951291      
                  4.676066706       -3.239951291      0.1105571459      -0.1332248437     
1785007110        0.1286008473      0.03166664186     -5.068228102      -2.536425647      
                  -5.068228102      -2.536425647      -0.1319611764     -0.06330688619    
1870007020        -0.02190849464    -0.1365481384     0.2217805236      5.613527621       
                  0.2217805236      5.613527621       0.06608849445     0.1321055965      
1955006930        -0.1070815547     0.02210577072     4.883477293       -2.884560687      
                  4.883477293       -2.884560687      0.08939341252     -0.1938187787     
2040006840        0.08352553713     0.03947578357     -4.831644767      -2.823874588      
                  -4.831644767      -2.823874588      -0.1547422236     -0.04159959547    
2125006750        0.03616299819     -0.09425280623    -0.2000310843     5.644679535       
                  -0.2000310843     5.644679535       0.1309713831      0.1365604291      
2210006660        -0.09306882049    -0.0006364233565  4.982162698       -2.53016345       
                  4.982162698       -2.53016345       0.04830923559     -0.2182613557     
2295006570        0.03001433047     0.03727475153     -4.595825117      -3.148462967      
                  -4.595825117      -3.148462967      -0.1859823404     0.01545032865     
2380006480        0.02965178072     -0.05348208433    -0.5635375844     5.577695845       
                  -0.5635375844     5.577695845       0.1668750378      0.1139677727      
2465006390        -0.0888126327     -0.01619884261    5.0612863         -2.21433547       
                  5.0612863         -2.21433547       -0.01945298141    -0.2594288054     
2550006300        0.01162332493     0.002365773833    -4.291229849      -3.489342786      
                  -4.291229849      -3.489342786      -0.1910541266     0.06036706739     
2635006210        0.02667488602     -0.04461430367    -0.9033765792     5.520791671       
                  -0.9033765792     5.520791671       0.2138368278      0.06452159448     
2720006120        -0.08297553926    -0.01073504385    5.135173758       -1.839770314      
                  5.135173758       -1.839770314      -0.09053110462    -0.2647587703     
2805006030        0.01708014625     0.0004708887039   -4.00491347       -3.736300273      
                  -4.00491347       -3.736300273      -0.1633078715     0.1236240653      
2890005940        0.02222397386     -0.03613545867    -1.245775792      5.397169091       
                  -1.245775792      5.397169091       0.2314161739      0.008064392961    
2975005850        -0.09505954799    -0.009230811445   5.168926158       -1.382695925      
                  5.168926158       -1.382695925      -0.1622663477     -0.2476862922     
3060005760        0.01799047047     0.0107200037      -3.707101575      -4.08405951       
                  -3.707101575      -4.08405951       -0.1185882233     0.1689663844      
3145005670        0.03689095675     -0.04457289148    -1.6393735        5.249206336       
                  -1.6393735        5.249206336       0.2313347462      -0.07208322285    
3230005580        -0.1015745066     -0.03376826901    5.27655892        -0.9820787139     
                  5.27655892        -0.9820787139     -0.2265703544     -0.2078985748     
3315005490        0.01084857694     0.03189238705     -3.435084891      -4.309301284      
                  -3.435084891      -4.309301284      -0.04571511632    0.2024679111      
3400005400        0.06079154473     -0.02907522641    -1.998242868      5.081449779       
                  -1.998242868      5.081449779       0.2015815497      -0.1450788378     
3485005310        -0.09762582848    -0.06406284847    5.379482466       -0.6137576583     
                  5.379482466       -0.6137576583     -0.2823656154     -0.1296915339     
3570005220        -0.0201873144     0.04919152718     -3.255292181      -4.503767375      
                  -3.255292181      -4.503767375      0.03301187245     0.210435356       
3655005130        0.06950931036     0.003922679722    -2.194256059      4.949290688       
                  -2.194256059      4.949290688       0.1349335659      -0.2083475105     
3740005040        -0.07699471352    -0.09386945836    5.370991507       -0.2589601085     
                  5.370991507       -0.2589601085     -0.3121700705     -0.03906741869    
3825004950        -0.059086154      0.03719009992     -2.981550803      -4.639662145      
                  -2.981550803      -4.639662145      0.1133623953      0.1766478075      
3910004860        0.06360569824     0.03829293769     -2.61659262       4.726383069       
                  -2.61659262       4.726383069       0.05010014232     -0.2593665693     
3995004770        -0.03090047232    -0.1110712807     5.404777748       0.06517338371     
                  5.404777748       0.06517338371     -0.3049554816     0.06524435179     
4080004680        -0.08461994811    0.007804097763    -2.706945883      -4.809392727      
                  -2.706945883      -4.809392727      0.1905469725      0.1278041493      
4165004590        0.03867731614     0.07025792226     -2.876228295      4.590406094       
                  -2.876228295      4.590406094       -0.04664042937    -0.2715643567     
4250004500        0.01103884843     -0.08802050328    5.493628233       0.3093685554      
                  5.493628233       0.3093685554      -0.2657520497     0.1755234457      
4335004410        -0.1011723256     -0.02018343495    -2.451115396      -4.920879756      
                  -2.451115396      -4.920879756      0.2295233106      0.04453963838     
4420004320        -0.007617766313   0.08377927922     -3.080534301      4.476855207       
                  -3.080534301      4.476855207       -0.1643424037     -0.2505456778     
4505004230        0.03872891816     -0.05692295988    5.446595133       0.4920769495      
                  5.446595133       0.4920769495      -0.1970501699     0.2588123852      
4590004140        -0.09954120545    -0.05158913902    -2.185252159      -4.957549888      
                  -2.185252159      -4.957549888      0.2295461681      -0.05753619338    
4675004050        -0.04566331085    0.07005053168     -3.179899051      4.360085769       
                  -3.179899051      4.360085769       -0.2554583715     -0.1909964999     
4760003960        0.05709582206     -0.01615436489    5.295723895       0.7260616775      
                  5.295723895       0.7260616775      -0.08650583023    0.310855448       
4845003870        -0.07618241104    -0.06848901427    -1.938114018      -5.011352672      
                  -1.938114018      -5.011352672      0.2000863901      -0.1546220226     
4930003780        -0.07651217629    0.04011699662     -3.365505737      4.177387522       
                  -3.365505737      4.177387522       -0.3194272865     -0.09930661453    
5015003690        0.0492175415      0.03745762498     5.169171403       0.9687879222      
                  5.169171403       0.9687879222      0.03581795202     0.3338386633      
5100003600        -0.05207977161    -0.05543490227    -1.764594724      -5.082172052      
                  -1.764594724      -5.082172052      0.119644677       -0.229094295      
5185003510        -0.09101638568    0.003496985095    -3.417559834      3.956332976       
                  -3.417559834      3.956332976       -0.3499079636     0.01149615601     
5270003420        0.01386174598     0.07121140181     5.032781082       1.203358303       
                  5.032781082       1.203358303       0.1495283381      0.2998202741      
5355003330        -0.04184279364    -0.0216012656     -1.651259132      -5.145857642      
                  -1.651259132      -5.145857642      -0.00217885766    -0.2785847527     
5440003240        -0.07098255667    -0.0396187245     -3.365277278      3.790268184       
                  -3.365277278      3.790268184       -0.3191963909     0.1323797864      
5525003150        -0.01837524469    0.05997121338     5.019764281       1.315020339       
                  5.019764281       1.315020339       0.269007331       0.2011644751      
5610003060        -0.03901682729    0.02841926981     -1.596689387      -4.985983455      
                  -1.596689387      -4.985983455      -0.1370142491     -0.2675643338     
5695002970        -0.01316402152    -0.04289872136    -3.368153003      3.57114258        
                  -3.368153003      3.57114258        -0.2212092191     0.2528966897      
5780002880        -0.02636908886    0.02263088165     4.972821386       1.407382724       
                  4.972821386       1.407382724       0.3291526027      0.05772852437     
5865002790        -0.07738517223    0.07662928313     -1.497961221      -4.722670881      
                  -1.497961221      -4.722670881      -0.2728865966     -0.1849242552     
5950002700        0.03661077265     0.005460631427    -3.398537316      3.366334047       
                  -3.398537316      3.366334047       -0.08273408667    0.3326972017      
6035002610        -0.01870779697    -0.03955139387    4.759342968       1.303770702       
                  4.759342968       1.303770702       0.2981183678      -0.09768712509    
6120002520        -0.1454862891     0.07360673544     -1.381548713      -4.466168178      
                  -1.381548713      -4.466168178      -0.3582030222     -0.04554773493    
6205002430        0.07154399589     0.08854128919     -3.28557668       3.159566575       
                  -3.28557668       3.159566575       0.1019738491      0.3369475998      
6290002340        0.06081303481     -0.09114340442    4.53303685        1.164713336       
                  4.53303685        1.164713336       0.1948196771      -0.2478074738     
6375002250        -0.2158253412     0.008689246184    -1.280146821      -4.168006555      
                  -1.280146821      -4.168006555      -0.3761200528     0.1300048967      
6460002160        0.03029949754     0.2070273961      -3.039375066      2.959177039       
                  -3.039375066      2.959177039       0.2705472471      0.2720177164      
6545002070        0.1771227854      -0.06031062269    4.125012429       1.066292101       
                  4.125012429       1.066292101       0.02846682084     -0.3200056089     
6630001980        -0.2075340352     -0.1109482717     -1.13700116       -3.860766394      
                  -1.13700116       -3.860766394      -0.2986730593     0.3020948468      
6715001890        -0.07238213039    0.2756515155      -2.734944063      2.641713897       
                  -2.734944063      2.641713897       0.3840319681      0.1551944599      
6800001800        0.2664732747      0.05528553667     3.636810392       1.125887514       
                  3.636810392       1.125887514       -0.1318306066     -0.308815192      
6885001710        -0.1035485844     -0.2411857185     -0.82536957       -3.508948601      
                  -0.82536957       -3.508948601      -0.1875314978     0.3880484069      
6970001620        -0.2101716946     0.2336803777      -2.644251466      2.227939124       
                  -2.644251466      2.227939124       0.4232314534      0.02362498351     
7055001530        0.2634319458      0.2077031313      3.229153256       1.243200118       
                  3.229153256       1.243200118       -0.2573060275     -0.2711153973     
7140001440        0.08177262349     -0.2996624973     -0.5433317007     -3.233571584      
                  -0.5433317007     -3.233571584      -0.06336672087    0.4540211417      
7225001350        -0.2965457228     0.09657895646     -2.582122576      1.901805623       
                  -2.582122576      1.901805623       0.4528232483      -0.1039560262     
7310001260        0.1704268954      0.3473901144      2.868704356       1.162179231       
                  2.868704356       1.162179231       -0.3587095532     -0.1850258008     
7395001170        0.28538909        -0.2274398088     -0.2469916383     -2.970050296      
                  -0.2469916383     -2.970050296      0.07721520644     0.4814112952      
7480001080        -0.2996238338     -0.1106644425     -2.418649458      1.615137193       
                  -2.418649458      1.615137193       0.3948358264      -0.237591262      
7565000990        -0.03074594031    0.400010121       2.620025802       1.164788531       
                  2.620025802       1.164788531       -0.4248136913     -0.08367758836    
7650000900        0.4005283076      -0.05653674618    -0.05485026619    -2.613115014      
                  -0.05485026619    -2.613115014      0.213298996       0.4381787871      
7735000810        -0.161463976      -0.3068445167     -2.297774374      1.349887978       
                  -2.297774374      1.349887978       0.3172206823      -0.3467813525     
7820000720        -0.2072889965     0.317593916       2.280312212       1.24165027        
                  2.280312212       1.24165027        -0.4058009859     0.02489746319     
7905000630        0.4139941076      0.1393955209      0.09552536685     -2.302035327      
                  0.09552536685     -2.302035327      0.324931003       0.3621304316      
7990000540        0.06607964394     -0.390518289      -2.216860742      0.9287564244      
                  -2.216860742      0.9287564244      0.2206553535      -0.4072996634     
8075000450        -0.3502087427     0.1206857028      1.910835224       1.433086202       
                  1.910835224       1.433086202       -0.3879257484     0.1192969377      
8160000360        0.2975009229      0.3142872236      0.2506068154      -2.192590309      
                  0.2506068154      -2.192590309      0.4001642541      0.2799870086      
8245000270        0.2583371107      -0.3371256335     -2.039668722      0.6164815025      
                  -2.039668722      0.6164815025      0.1143136776      -0.4441342974     
8330000180        -0.3666483138     -0.1325084144     1.638745379       1.499516118       
                  1.638745379       1.499516118       -0.342869796      0.1943519012      
8415000090        0.07944788652     0.3934076269      0.3813151212      -1.999445013      
                  0.3813151212      -1.999445013      0.4359033005      0.1664697426      
8500000000        0.3824315934      -0.1860518886     -1.832343425      0.4484671273      
                  -1.832343425      0.4484671273      -0.005719985313   -0.4600406368     
