! RsaToolbox (C) 2013 Rohde & Schwarz America
! 
! Number of points: 101
! Number of ports: 2
! Balanced ports?: 0
! 
! 
# Hz S RI R 50
9000              1.01037749        -0.02213110769    6.377552932e-05   5.615898801e-06   
                  6.377552932e-05   5.615898801e-06   1.020085825       -0.02384298205    
85008910          0.0024650941      0.159026799       3.195859653       5.510552139       
                  3.195859653       5.510552139       -0.09223485672    -0.1155610247     
170008820         0.1422626563      -0.04412735651    3.187781652       -5.226906157      
                  3.187781652       -5.226906157      -0.02035022272    0.1719119609      
255008730         -0.175967588      -0.07580051451    -6.060162576      -0.1650767135     
                  -6.060162576      -0.1650767135     0.0777108271      -0.02649942913    
340008640         -0.06345829904    0.1697523683      2.65549709        5.355300298       
                  2.65549709        5.355300298       -0.1264359425     -0.05376347837    
425008550         0.1593505719      -0.04638750852    3.386948796       -4.871351494      
                  3.386948796       -4.871351494      0.01683619503     0.1030548027      
510008460         -0.1017000574     -0.1633413216     -5.905983507      -0.6426665588     
                  -5.905983507      -0.6426665588     0.07060551564     -0.07941577925    
595008370         -0.1072641876     0.1396712326      2.23133745        5.42664025        
                  2.23133745        5.42664025        -0.08368863301    -0.012148637      
680008280         0.2044247181      0.03392363655     3.662523795       -4.578429785      
                  3.662523795       -4.578429785      0.09204253374     0.07538692475     
765008190         0.00951002246     -0.1636203408     -5.733497545      -1.101213963      
                  -5.733497545      -1.101213963      0.06007068592     -0.06065472204    
850008100         -0.1818257825     0.1115204961      1.872644272       5.522939491       
                  1.872644272       5.522939491       -0.07157114384    0.06524943305     
935008010         0.1455963602      0.1233792705      3.944534301       -4.232410007      
                  3.944534301       -4.232410007      0.102240284       0.03897055915     
1020007920        0.07556972741     -0.1538722208     -5.589085502      -1.445496853      
                  -5.589085502      -1.445496853      -0.004657226218   -0.07552617527    
1105007830        -0.2251708042     -0.008248656256   1.48272031        5.61596969        
                  1.48272031        5.61596969        -0.0630234609     0.07508647962     
1190007740        0.07128427435     0.1403158072      4.193285232       -3.862210282      
                  4.193285232       -3.862210282      0.1242849225      -0.04259080442    
1275007650        0.1642930405      -0.1087088476     -5.468239852      -1.827678682      
                  -5.468239852      -1.827678682      -0.03000328726    -0.08905123632    
1360007560        -0.1635120914     -0.1006039389     1.046631042       5.642074675       
                  1.046631042       5.642074675       -0.005411408818   0.1016171852      
1445007470        0.0008580215449   0.1419175694      4.405009016       -3.550230972      
                  4.405009016       -3.550230972      0.1473239611      -0.08851228246    
1530007380        0.1846157439      -0.01130711026    -5.308078186      -2.185790444      
                  -5.308078186      -2.185790444      -0.06925737487    -0.06474489036    
1615007290        -0.09417654817    -0.1237938479     0.6228433581      5.599833497       
                  0.6228433581      5.599833497       0.02335927606     0.1420558286      
1700007200        -0.08858021291    0.09719556011     4.666863636       -3.24468172       
                  4.666863636       -3.24468172       0.1108248241      -0.1335737342     
1785007110        0.1279792819      0.03167404885     -5.063048096      -2.527242021      
                  -5.063048096      -2.527242021      -0.1317507896     -0.0637348775     
1870007020        -0.0217600348     -0.1357654537     0.2272383146      5.606469069       
                  0.2272383146      5.606469069       0.06577155816     0.1319775358      
1955006930        -0.1068188411     0.02147123443     4.874493838       -2.889338809      
                  4.874493838       -2.889338809      0.08925134144     -0.1937221713     
2040006840        0.08276148988     0.03878089643     -4.827784864      -2.811114093      
                  -4.827784864      -2.811114093      -0.1544877368     -0.04140365486    
2125006750        0.03623759171     -0.09282290284    -0.1898309186     5.635019952       
                  -0.1898309186     5.635019952       0.1310135377      0.1367202145      
2210006660        -0.09221196193    -0.0008870051399  4.970512411       -2.534629479      
                  4.970512411       -2.534629479      0.04809525482     -0.2182196374     
2295006570        0.029443571       0.03643659542     -4.595882805      -3.141685893      
                  -4.595882805      -3.141685893      -0.1859648968     0.01537698954     
2380006480        0.02877113112     -0.05251555055    -0.5529355812     5.572349494       
                  -0.5529355812     5.572349494       0.1670329555      0.1137420729      
2465006390        -0.08784964762    -0.01634753571    5.048248775       -2.217202055      
                  5.048248775       -2.217202055      -0.01956140706    -0.259443356      
2550006300        0.01179724741     0.0010532912      -4.287397951      -3.478211645      
                  -4.287397951      -3.478211645      -0.1908413533     0.06072651217     
2635006210        0.02538764704     -0.04487851216    -0.891648091      5.51462106        
                  -0.891648091      5.51462106        0.2132684941      0.06439695834     
2720006120        -0.08240844133    -0.01062694772    5.123636383       -1.846236131      
                  5.123636383       -1.846236131      -0.09061968971    -0.2643566195     
2805006030        0.01779373539     -0.0001121574718  -4.002738852      -3.725690751      
                  -4.002738852      -3.725690751      -0.1631030692     0.1236663362      
2890005940        0.0212602816      -0.0368819699     -1.232819581      5.388531308       
                  -1.232819581      5.388531308       0.2322064638      0.009149103144    
2975005850        -0.09510387615    -0.007374344684   5.153351583       -1.39007085       
                  5.153351583       -1.39007085       -0.1621652016     -0.2473971485     
3060005760        0.01862628353     0.009755815642    -3.703341526      -4.068672529      
                  -3.703341526      -4.068672529      -0.1190985565     0.1687423454      
3145005670        0.03583001733     -0.04490871199    -1.62844257       5.235479869       
                  -1.62844257       5.235479869       0.2318682157      -0.0715248466     
3230005580        -0.1020061879     -0.03273215395    5.261950296       -0.9844964421     
                  5.261950296       -0.9844964421     -0.2268859832     -0.2079944358     
3315005490        0.01204442028     0.03207580315     -3.42935004       -4.294229031      
                  -3.42935004       -4.294229031      -0.04595458802    0.2027606107      
3400005400        0.06121468989     -0.02937457417    -1.982967207      5.068843289       
                  -1.982967207      5.068843289       0.2013740767      -0.1446897718     
3485005310        -0.09826755457    -0.06343711247    5.362741015       -0.6191387209     
                  5.362741015       -0.6191387209     -0.2820708887     -0.1297239688     
3570005220        -0.0198319934     0.04966915723     -3.249385494      -4.483846033      
                  -3.249385494      -4.483846033      0.0334773896      0.2106122748      
3655005130        0.06881914095     0.003103262854    -2.178781088      4.934490488       
                  -2.178781088      4.934490488       0.1348254341      -0.2087129317     
3740005040        -0.07778639061    -0.09332362832    5.352913992       -0.2616627472     
                  5.352913992       -0.2616627472     -0.3119233232     -0.03963622049    
3825004950        -0.05861056243    0.03769739439     -2.976269773      -4.617585376      
                  -2.976269773      -4.617585376      0.1134286892      0.1760130104      
3910004860        0.0644427239      0.03706102084     -2.599389745      4.712670704       
                  -2.599389745      4.712670704       0.0504907714      -0.2587117844     
3995004770        -0.03155676544    -0.1115343811     5.383864629       0.05901703089     
                  5.383864629       0.05901703089     -0.3051798765     0.06507102048     
4080004680        -0.08502407441    0.008678264332    -2.702496192      -4.786827854      
                  -2.702496192      -4.786827854      0.1905970822      0.1280839068      
4165004590        0.04025956877     0.06999803678     -2.861887491      4.573212869       
                  -2.861887491      4.573212869       -0.04640104146    -0.2715809748     
4250004500        0.01092592646     -0.08879125963    5.469693026       0.304613214       
                  5.469693026       0.304613214       -0.2660503924     0.1755552327      
4335004410        -0.1018466367     -0.01895620138    -2.445775611      -4.895048337      
                  -2.445775611      -4.895048337      0.2297726563      0.04451044231     
4420004320        -0.006584932182   0.08366824312     -3.062888415      4.459002897       
                  -3.062888415      4.459002897       -0.1641056328     -0.2507947468     
4505004230        0.03797887882     -0.0578410234     5.418059667       0.4825687112      
                  5.418059667       0.4825687112      -0.1965708281     0.2590611668      
4590004140        -0.1009460022     -0.05169417516    -2.180580966      -4.929193157      
                  -2.180580966      -4.929193157      0.2295524339      -0.05777714457    
4675004050        -0.04427595532    0.07121048055     -3.157027894      4.34010036        
                  -3.157027894      4.34010036        -0.2555053976     -0.1911828428     
4760003960        0.0575220488      -0.01710283362    5.266843397       0.7165998519      
                  5.266843397       0.7165998519      -0.0863953796     0.3111173144      
4845003870        -0.07765414255    -0.06873661951    -1.932027231      -4.978894988      
                  -1.932027231      -4.978894988      0.2002652979      -0.1552568339     
4930003780        -0.07639649203    0.04194296736     -3.339712778      4.156468029       
                  -3.339712778      4.156468029       -0.3194889667     -0.09979020291    
5015003690        0.05089505772     0.03675473168     5.140512573       0.9580572514      
                  5.140512573       0.9580572514      0.03555432071     0.3344142862      
5100003600        -0.05313700983    -0.05720953687    -1.758949019      -5.047591465      
                  -1.758949019      -5.047591465      0.1195953841      -0.229233878      
5185003510        -0.09132891762    0.005661643165    -3.393222804      3.932325035       
                  -3.393222804      3.932325035       -0.3494932478     0.01175651341     
5270003420        0.0160127039      0.07129492726     5.003639163       1.188451815       
                  5.003639163       1.188451815       0.1498078617      0.2997275498      
5355003330        -0.04278733284    -0.02422253918    -1.638832335      -5.106507124      
                  -1.638832335      -5.106507124      -0.002218616027   -0.2790398577     
5440003240        -0.0726106828     -0.03808595621    -3.339517631      3.766828298       
                  -3.339517631      3.766828298       -0.3192120742     0.1322584687      
5525003150        -0.0169125887     0.06141435872     4.984166423       1.302470522       
                  4.984166423       1.302470522       0.269006728       0.2014090203      
5610003060        -0.03843951259    0.02578461167     -1.58722789       -4.94681936       
                  -1.58722789       -4.94681936       -0.1367918701     -0.2676837744     
5695002970        -0.01536798844    -0.04236601474    -3.338368528      3.548422055       
                  -3.338368528      3.548422055       -0.2210291241     0.2529870773      
5780002880        -0.02502669466    0.02469834652     4.933163117       1.395778626       
                  4.933163117       1.395778626       0.3294555173      0.05785224528     
5865002790        -0.07570270926    0.07420752908     -1.486329213      -4.686303898      
                  -1.486329213      -4.686303898      -0.2724496539     -0.1852596697     
5950002700        0.03427491605     0.004950439706    -3.373191255      3.340963382       
                  -3.373191255      3.340963382       -0.08290613057    0.3330732938      
6035002610        -0.01824811412    -0.03687799295    4.718828531       1.293968578       
                  4.718828531       1.293968578       0.298451978       -0.09752142265    
6120002520        -0.1428814661     0.0724652117      -1.367489004      -4.431461242      
                  -1.367489004      -4.431461242      -0.3587530307     -0.04546773902    
6205002430        0.06961104615     0.08727702153     -3.263034244      3.134797885       
                  -3.263034244      3.134797885       0.1018366943      0.3375332624      
6290002340        0.0599274827      -0.0887160447     4.494316111       1.158978608       
                  4.494316111       1.158978608       0.1947278549      -0.2480836099     
6375002250        -0.2130926812     0.008079203205    -1.268029609      -4.140701807      
                  -1.268029609      -4.140701807      -0.3761388533     0.1298902684      
6460002160        0.02859857943     0.20434575        -3.021134301      2.937015443       
                  -3.021134301      2.937015443       0.2707530203      0.2723372938      
6545002070        0.1749363228      -0.05830558596    4.094639817       1.062979872       
                  4.094639817       1.062979872       0.02840138583     -0.3199964483     
6630001980        -0.2052193935     -0.1102292875     -1.122959864      -3.837773426      
                  -1.122959864      -3.837773426      -0.2985370409     0.3023251804      
6715001890        -0.07194574386    0.273154239       -2.722601113      2.621856272       
                  -2.722601113      2.621856272       0.3839744802      0.1561956006      
6800001800        0.2644262937      0.05601569397     3.613442883       1.122873167       
                  3.613442883       1.122873167       -0.1314671007     -0.3088620336     
6885001710        -0.1018886302     -0.2394781605     -0.8118086832     -3.492799378      
                  -0.8118086832     -3.492799378      -0.188103218      0.3879949777      
6970001620        -0.2091561191     0.2320801997      -2.635096284      2.21588161        
                  -2.635096284      2.21588161        0.4233816257      0.02330654979     
7055001530        0.2616802534      0.2076415728      3.213206873       1.242660453       
                  3.213206873       1.242660453       -0.2571186173     -0.2712013499     
7140001440        0.08215673464     -0.2984140484     -0.5358806543     -3.222793917      
                  -0.5358806543     -3.222793917      -0.06311277377    0.4538689814      
7225001350        -0.2960469461     0.09519899099     -2.575502107      1.890411635       
                  -2.575502107      1.890411635       0.4527865076      -0.1037420988     
7310001260        0.1689597493      0.3468977619      2.859062218       1.162584008       
                  2.859062218       1.162584008       -0.3585180161     -0.185079017      
7395001170        0.284933984       -0.226553889      -0.2425603276     -2.960825325      
                  -0.2425603276     -2.960825325      0.07731647908     0.4820522131      
7480001080        -0.298007826      -0.1114123678     -2.412563314      1.605310298       
                  -2.412563314      1.605310298       0.3948146359      -0.2370446788     
7565000990        -0.0320134763     0.3991873223      2.609666942       1.165645285       
                  2.609666942       1.165645285       -0.4247948035     -0.08448089063    
7650000900        0.4002884179      -0.05591908076    -0.05137688642    -2.606836034      
                  -0.05137688642    -2.606836034      0.2131706514      0.4388036772      
7735000810        -0.1607129965     -0.3065707659     -2.29605214       1.342371244       
                  -2.29605214       1.342371244       0.3177212859      -0.3461348088     
7820000720        -0.2075886198     0.3165555354      2.272821313       1.242888686       
                  2.272821313       1.242888686       -0.4060032267     0.02530823989     
7905000630        0.4139089967      0.1392610464      0.09930412246     -2.298390518      
                  0.09930412246     -2.298390518      0.3245040239      0.3624211486      
7990000540        0.06703029669     -0.3902624268     -2.214396219      0.9211572767      
                  -2.214396219      0.9211572767      0.2217473346      -0.4070622256     
8075000450        -0.3504803995     0.1193525287      1.902950068       1.434815152       
                  1.902950068       1.434815152       -0.3878505814     0.119045451       
8160000360        0.2967312559      0.3135907441      0.25447582        -2.18859705       
                  0.25447582        -2.18859705       0.399447064       0.2801107362      
8245000270        0.2578891933      -0.3369146347     -2.03969875       0.613088358       
                  -2.03969875       0.613088358       0.1140996254      -0.4440124854     
8330000180        -0.3660539333     -0.1330393685     1.634488075       1.500512308       
                  1.634488075       1.500512308       -0.3431979278     0.1935112415      
8415000090        0.07813880401     0.3927688582      0.3867534438      -1.995955795      
                  0.3867534438      -1.995955795      0.4358830681      0.167646002       
8500000000        0.382960396       -0.1854972217     -1.831761984      0.4443831658      
                  -1.831761984      0.4443831658      -0.004571639248   -0.4602796584     
