! RsaToolbox (C) 2013 Rohde & Schwarz America
! 
! Number of points: 101
! Number of ports: 2
! Balanced ports?: 0
! 
! 
# Hz S RI R 50
9000              1.004277199       -0.01565603783    5.804956891e-05   -2.555207789e-05  
                  5.804956891e-05   -2.555207789e-05  1.014829629       -0.02302977971    
85008910          0.001155798099    0.1561982907      3.187719134       5.466786431       
                  3.187719134       5.466786431       -0.09243652266    -0.1157603677     
170008820         0.1403146384      -0.04219003874    3.168077914       -5.206483379      
                  3.168077914       -5.206483379      -0.02063226011    0.171679408       
255008730         -0.1739856395     -0.07505709047    -6.037806033      -0.1560959255     
                  -6.037806033      -0.1560959255     0.07768167499     -0.02662475154    
340008640         -0.06370786126    0.1673176016      2.651698465       5.331130985       
                  2.651698465       5.331130985       -0.1266752235     -0.05393304519    
425008550         0.1571647419      -0.04572064841    3.366437196       -4.859772289      
                  3.366437196       -4.859772289      0.01649265907     0.1028562726      
510008460         -0.1003271561     -0.1617053054     -5.889049083      -0.6284794564     
                  -5.889049083      -0.6284794564     0.07084476738     -0.07973536628    
595008370         -0.1062716396     0.1375056965      2.235410088       5.402305464       
                  2.235410088       5.402305464       -0.08383874401    -0.01211812242    
680008280         0.2022563921      0.03367375512     3.638352479       -4.57369437       
                  3.638352479       -4.57369437       0.09210061736     0.07544466612     
765008190         0.01005550336     -0.1613599482     -5.716238104      -1.082094098      
                  -5.716238104      -1.082094098      0.06021369489     -0.06067885366    
850008100         -0.1800803625     0.1101174827      1.884634103       5.50021164        
                  1.884634103       5.50021164        -0.07175534892    0.06510170796     
935008010         0.1436548316      0.1222531528      3.92047827        -4.231234444      
                  3.92047827        -4.231234444      0.1020771655      0.03895837932     
1020007920        0.07495216566     -0.1515239874     -5.574917586      -1.42480202       
                  -5.574917586      -1.42480202       -0.004750185331   -0.07563601595    
1105007830        -0.2230816573     -0.008628478203   1.499517405       5.591316936       
                  1.499517405       5.591316936       -0.06311580397    0.07526932636     
1190007740        0.07010193127     0.1379784568      4.166296233       -3.858811332      
                  4.166296233       -3.858811332      0.1242583491      -0.04245964598    
1275007650        0.1626508383      -0.1069356774     -5.456769897      -1.800199826      
                  -5.456769897      -1.800199826      -0.0300759175     -0.08926678825    
1360007560        -0.1611548463     -0.099684123      1.065625943       5.617086571       
                  1.065625943       5.617086571       -0.005596209758   0.1018910003      
1445007470        0.0006580069735   0.1390078945      4.379751254       -3.545525524      
                  4.379751254       -3.545525524      0.1471473645      -0.08829595474    
1530007380        0.1818572866      -0.01050112436    -5.297233282      -2.151957138      
                  -5.297233282      -2.151957138      -0.06939167263    -0.06461601356    
1615007290        -0.09225020484    -0.1210170707     0.6476856612      5.572624759       
                  0.6476856612      5.572624759       0.02321029913     0.1422250256      
1700007200        -0.08672436734    0.09434699738     4.630243197       -3.25409867       
                  4.630243197       -3.25409867       0.110847722       -0.1335250473     
1785007110        0.1244897778      0.03101419911     -5.054522464      -2.487892279      
                  -5.054522464      -2.487892279      -0.1320330306     -0.06413668366    
1870007020        -0.02135825308    -0.131962103      0.2577838016      5.578068573       
                  0.2577838016      5.578068573       0.06566362087     0.1322777075      
1955006930        -0.1034196208     0.0196555889      4.833469612       -2.905215952      
                  4.833469612       -2.905215952      0.08915169822     -0.193928114      
2040006840        0.07939136216     0.03603416131     -4.818075602      -2.76598177       
                  -4.818075602      -2.76598177       -0.15490852       -0.0416987605     
2125006750        0.03450085174     -0.08894924356    -0.151880265      5.604735197       
                  -0.151880265      5.604735197       0.1309604688      0.1369730518      
2210006660        -0.08755749151    -0.0008756081651  4.921931392       -2.55339824       
                  4.921931392       -2.55339824       0.04800815187     -0.2182047687     
2295006570        0.02757644326     0.03171733069     -4.585858595      -3.088205622      
                  -4.585858595      -3.088205622      -0.1862813481     0.01529750868     
2380006480        0.02482470093     -0.04920756756    -0.5113709951     5.53716129        
                  -0.5113709951     5.53716129        0.1669007161      0.1140883585      
2465006390        -0.08284906658    -0.01391610844    4.992311567       -2.238913241      
                  4.992311567       -2.238913241      -0.01962230746    -0.259693884      
2550006300        0.01210931797     -0.004779168957   -4.275308402      -3.423168938      
                  -4.275308402      -3.423168938      -0.1910454774     0.06044612621     
2635006210        0.01953888562     -0.04355350829    -0.837628875      5.475710087       
                  -0.837628875      5.475710087       0.213612825       0.06414460932     
2720006120        -0.07882907242    -0.005559674437   5.06470209        -1.870251613      
                  5.06470209        -1.870251613      -0.09052747045    -0.2646849289     
2805006030        0.0209767188      -0.005299385558   -3.993009142      -3.661287771      
                  -3.993009142      -3.661287771      -0.1631920276     0.1233150549      
2890005940        0.01452439891     -0.03860440463    -1.164271189      5.346089461       
                  -1.164271189      5.346089461       0.2322915867      0.009041099434    
2975005850        -0.09366754275    -0.001184377492   5.092058282       -1.413433655      
                  5.092058282       -1.413433655      -0.1623420652     -0.2479186495     
3060005760        0.02425253522     0.006426989949    -3.699386794      -3.995124477      
                  -3.699386794      -3.995124477      -0.1191299376     0.168722126       
3145005670        0.03051113571     -0.04942387635    -1.557955953      5.192906483       
                  -1.557955953      5.192906483       0.2319954748      -0.07158223641    
3230005580        -0.1038703436     -0.02606451864    5.196004484       -1.017419733      
                  5.196004484       -1.017419733      -0.227020973      -0.2081796091     
3315005490        0.01896480797     0.03155159666     -3.436021202      -4.208273907      
                  -3.436021202      -4.208273907      -0.0461644178     0.2027667064      
3400005400        0.05814005165     -0.03721229178    -1.894581419      5.026597933       
                  -1.894581419      5.026597933       0.2016781998      -0.1450634719     
3485005310        -0.103979665      -0.05794143043    5.288079885       -0.6681230864     
                  5.288079885       -0.6681230864     -0.2821087347     -0.1298758272     
3570005220        -0.01202839593    0.05350700574     -3.265446296      -4.377222232      
                  -3.265446296      -4.377222232      0.0334246582      0.2108006435      
3655005130        0.07016319201     -0.006132876733   -2.071851164      4.890525973       
                  -2.071851164      4.890525973       0.1349224818      -0.2087693565     
3740005040        -0.08640449931    -0.09092259599    5.268360614       -0.332191483      
                  5.268360614       -0.332191483      -0.3119694565     -0.03969015581    
3825004950        -0.05272108663    0.0467451459      -3.010566124      -4.478577083      
                  -3.010566124      -4.478577083      0.1137263427      0.1763851448      
3910004860        0.07142254358     0.02762604992     -2.461967116      4.673416994       
                  -2.461967116      4.673416994       0.05098614703     -0.259118677      
3995004770        -0.04275874342    -0.1145075111     5.27903191        -0.04355115492    
                  5.27903191        -0.04355115492    -0.3053198849     0.06528011774     
4080004680        -0.08392495863    0.02211400499     -2.738672574      -4.631386887      
                  -2.738672574      -4.631386887      0.1910012975      0.1284693014      
4165004590        0.0524819497      0.06395130397     -2.72458029       4.523510105       
                  -2.72458029       4.523510105       -0.04620425682    -0.2720184781     
4250004500        0.0004224311593   -0.09828316284    5.34615649        0.1946327955      
                  5.34615649        0.1946327955      -0.2657389752     0.1757618801      
4335004410        -0.1079261276     -0.004211090126   -2.487833171      -4.718436534      
                  -2.487833171      -4.718436534      0.2301936352      0.04460103164     
4420004320        0.009513695324    0.083548926       -2.887420667      4.411457942       
                  -2.887420667      4.411457942       -0.1637849246     -0.251018376      
4505004230        0.0311845709      -0.07382177301    5.271934841       0.3379986306      
                  5.271934841       0.3379986306      -0.196837808      0.2590438364      
4590004140        -0.1146039672     -0.03892915554    -2.238590364      -4.724525426      
                  -2.238590364      -4.724525426      0.2297042945      -0.05742684024    
4675004050        -0.02724469326    0.07933070913     -2.944212496      4.284719373       
                  -2.944212496      4.284719373       -0.2554052443     -0.1915420283     
4760003960        0.05845217209     -0.03692086106    5.108860375       0.5513130262      
                  5.108860375       0.5513130262      -0.08604753237    0.3115637469      
4845003870        -0.09776562908    -0.06206047413    -2.002247339      -4.739080465      
                  -2.002247339      -4.739080465      0.200467204       -0.1549232129     
4930003780        -0.06231760695    0.05957179309     -3.08297351       4.0902968         
                  -3.08297351       4.0902968         -0.3197696367     -0.09915384437    
5015003690        0.0616084742      0.01641794258     4.967285298       0.7730060115      
                  4.967285298       0.7730060115      0.03550141864     0.33482995        
5100003600        -0.07773218296    -0.06057033189    -1.846813708      -4.751137856      
                  -1.846813708      -4.751137856      0.1196223914      -0.2293313889     
5185003510        -0.08562719811    0.02970307895     -3.112076383      3.85505977        
                  -3.112076383      3.85505977        -0.3500185186     0.01120756655     
5270003420        0.03572343704     0.05558878846     4.813575304       0.9835693842      
                  4.813575304       0.9835693842      0.1496037069      0.3000477816      
5355003330        -0.06636262064    -0.03983379751    -1.746265073      -4.74597223       
                  -1.746265073      -4.74597223       -0.002107589583   -0.279347813      
5440003240        -0.07790715743    -0.01250797055    -3.058731379      3.677154384       
                  -3.058731379      3.677154384       -0.3197538003     0.1320915101      
5525003150        0.008649994827    0.05483289355     4.768358356       1.078342363       
                  4.768358356       1.078342363       0.2688498909      0.2018850001      
5610003060        -0.052785304      0.0009867608935   -1.6755393        -4.582755505      
                  -1.6755393        -4.582755505      -0.1366676353     -0.2680309203     
5695002970        -0.03144671979    -0.02025337874    -3.04759378       3.453047168       
                  -3.04759378       3.453047168       -0.2215758502     0.2529192431      
5780002880        0.003066405756    0.03078147668     4.678530664       1.143715353       
                  4.678530664       1.143715353       0.3296634818      0.05823314858     
5865002790        -0.0776599146     0.04675144112     -1.548401971      -4.34335059       
                  -1.548401971      -4.34335059       -0.2721832003     -0.1856037835     
5950002700        0.01064723299     0.01866230128     -3.070040669      3.242253892       
                  -3.070040669      3.242253892       -0.08298172224    0.3332507215      
6035002610        0.004093857909    -0.0189804426     4.444131056       1.054395709       
                  4.444131056       1.054395709       0.2988224471      -0.09725872348    
6120002520        -0.1331729956     0.04804227683     -1.408423598      -4.116392326      
                  -1.408423598      -4.116392326      -0.3585057392     -0.04570521337    
6205002430        0.04338115254     0.08888185668     -2.977840293      3.03801217        
                  -2.977840293      3.03801217        0.1020993197      0.3377957684      
6290002340        0.07093348304     -0.06415267523    4.222879076       0.9586834677      
                  4.222879076       0.9586834677      0.1954575734      -0.2479288496     
6375002250        -0.1958662176     -0.00860915652    -1.285145893      -3.874568642      
                  -1.285145893      -3.874568642      -0.3761457146     0.129667762       
6460002160        0.007916514781    0.1957989606      -2.789201128      2.843479509       
                  -2.789201128      2.843479509       0.2710094444      0.2725584982      
6545002070        0.1738745377      -0.03473300918    3.863751128       0.9104996616      
                  3.863751128       0.9104996616      0.02907013437     -0.3202700308     
6630001980        -0.1848912714     -0.117194137      -1.129118534      -3.612373224      
                  -1.129118534      -3.612373224      -0.2988235273     0.302290746       
6715001890        -0.084779984      0.2588202281      -2.541496264      2.537837957       
                  -2.541496264      2.537837957       0.3840707577      0.1564277338      
6800001800        0.2544799992      0.07341627813     3.436902493       0.9999843488      
                  3.436902493       0.9999843488      -0.131318354      -0.3089296497     
6885001710        -0.08350874431    -0.2367237453     -0.819471557      -3.313244574      
                  -0.819471557      -3.313244574      -0.1882148563     0.3882377027      
6970001620        -0.2138099469     0.2164792111      -2.492575132      2.153053274       
                  -2.492575132      2.153053274       0.4235451636      0.02370992362     
7055001530        0.2491501655      0.2163348126      3.090718846       1.148100239       
                  3.090718846       1.148100239       -0.2571017182     -0.271308627      
7140001440        0.09232464304     -0.29055745       -0.541417373      -3.103680436      
                  -0.541417373      -3.103680436      -0.06362329853    0.4541183908      
7225001350        -0.2940903298     0.0829616194      -2.472353988      1.847135408       
                  -2.472353988      1.847135408       0.4528190792      -0.1032770083     
7310001260        0.1586281584      0.3480863757      2.776457256       1.106317072       
                  2.776457256       1.106317072       -0.3588673937     -0.1851947415     
7395001170        0.289437378       -0.2167929702     -0.2513134339     -2.86945245       
                  -0.2513134339     -2.86945245       0.07705852463     0.4824415151      
7480001080        -0.2912694603     -0.1209313743     -2.324617027      1.567061518       
                  -2.324617027      1.567061518       0.3950873047      -0.2371654599     
7565000990        -0.04150139457    0.396312149       2.536177932       1.11716155        
                  2.536177932       1.11716155        -0.4252957143     -0.08458727816    
7650000900        0.4002862371      -0.0481134999     -0.05699141911    -2.546624384      
                  -0.05699141911    -2.546624384      0.2127704856      0.4390304125      
7735000810        -0.1541895168     -0.3093361141     -2.245178359      1.315547054       
                  -2.245178359      1.315547054       0.3176197104      -0.3463772722     
7820000720        -0.2126042208     0.3121275912      2.225307387       1.213316861       
                  2.225307387       1.213316861       -0.4063550637     0.024757188       
7905000630        0.4115090022      0.1437412965      0.09751388078     -2.259441167      
                  0.09751388078     -2.259441167      0.3243000416      0.3628488902      
7990000540        0.07241274831     -0.3901278969     -2.17272386       0.901581388       
                  -2.17272386       0.901581388       0.2217324905      -0.4074572769     
8075000450        -0.352515983      0.1140159884      1.86617188        1.410668549       
                  1.86617188        1.410668549       -0.3883522668     0.1187684466      
8160000360        0.2926535663      0.3165458238      0.2525129922      -2.153655294      
                  0.2525129922      -2.153655294      0.3995251215      0.2801181935      
8245000270        0.260757932       -0.3343964913     -2.011559915      0.602460509       
                  -2.011559915      0.602460509       0.1143311991      -0.4444995534     
8330000180        -0.3649633111     -0.1372096958     1.609464336       1.480306986       
                  1.609464336       1.480306986       -0.3434151939     0.1933350895      
8415000090        0.07415836312     0.3933352266      0.3843345209      -1.970115006      
                  0.3843345209      -1.970115006      0.4361709136      0.167431944       
8500000000        0.3844943924      -0.1828891701     -1.813928454      0.4374818585      
                  -1.813928454      0.4374818585      -0.004251549722   -0.4609129383     
