! RsaToolbox (C) 2013 Rohde & Schwarz America
! 
! Number of points: 101
! Number of ports: 2
! Balanced ports?: 0
! 
! 
# Hz S RI R 50
9000              1.007680429       -0.02758801843    7.81606958e-05    -4.934551966e-05  
                  7.81606958e-05    -4.934551966e-05  1.033199089       -0.04686533678    
85008910          0.003679174781    0.1597339913      3.189772235       5.526024985       
                  3.189772235       5.526024985       -0.09229150644    -0.114237184      
170008820         0.1425987211      -0.0442752062     3.197315004       -5.221888677      
                  3.197315004       -5.221888677      -0.0198024441     0.1720086113      
255008730         -0.1762186489     -0.07602526591    -6.065309592      -0.1761295649     
                  -6.065309592      -0.1761295649     0.07776277279     -0.02707930495    
340008640         -0.06375252904    0.1700745703      2.647590261       5.365489761       
                  2.647590261       5.365489761       -0.1266849601     -0.05241151778    
425008550         0.1598986793      -0.04610410126    3.401291439       -4.869977342      
                  3.401291439       -4.869977342      0.01692163749     0.1030803984      
510008460         -0.1016858903     -0.1637364392     -5.91015469       -0.6603505123     
                  -5.91015469       -0.6603505123     0.07108857356     -0.0794392476     
595008370         -0.1073327702     0.140073182       2.225522047       5.437404221       
                  2.225522047       5.437404221       -0.08431705065    -0.01086176382    
680008280         0.2046844826      0.03288600671     3.675060388       -4.576165108      
                  3.675060388       -4.576165108      0.09227696618     0.07486994883     
765008190         0.008933642479    -0.1642505384     -5.736882112      -1.118099196      
                  -5.736882112      -1.118099196      0.06052457955     -0.05990055108    
850008100         -0.1824034075     0.1125735735      1.864223937       5.534932542       
                  1.864223937       5.534932542       -0.07107701193    0.06673642698     
935008010         0.1465669439      0.1234185589      3.963945426       -4.218189861      
                  3.963945426       -4.218189861      0.1027006841      0.03876611242     
1020007920        0.07542428364     -0.1551849618     -5.59271274       -1.455563537      
                  -5.59271274       -1.455563537      -0.005275234791   -0.07472302711    
1105007830        -0.2258624842     -0.008990771786   1.465993312       5.623548723       
                  1.465993312       5.623548723       -0.0627206585     0.0746261014      
1190007740        0.07131689369     0.1414316474      4.208669361       -3.858218139      
                  4.208669361       -3.858218139      0.1237677108      -0.04217104498    
1275007650        0.1644236581      -0.1088584338     -5.472249404      -1.839893334      
                  -5.472249404      -1.839893334      -0.03014313898    -0.08857141215    
1360007560        -0.1633045658     -0.101421176      1.03910524        5.649995404       
                  1.03910524        5.649995404       -0.005647535697   0.1015008699      
1445007470        -0.0007231779433  0.1430736473      4.422925869       -3.535007537      
                  4.422925869       -3.535007537      0.1478107703      -0.08887918756    
1530007380        0.1843847383      -0.01171838769    -5.305973681      -2.197381159      
                  -5.305973681      -2.197381159      -0.06881091993    -0.06359127608    
1615007290        -0.09446024686    -0.1250326107     0.6175140033      5.607526699       
                  0.6175140033      5.607526699       0.02290665774     0.1416367345      
1700007200        -0.0890291989     0.0976023213      4.674492551       -3.241078069      
                  4.674492551       -3.241078069      0.1115415201      -0.1343510922     
1785007110        0.1290472756      0.0314265177      -5.060507777      -2.532616221      
                  -5.060507777      -2.532616221      -0.1324393726     -0.063678077      
1870007020        -0.02238594634    -0.136509999      0.2163062019      5.618630806       
                  0.2163062019      5.618630806       0.06622992291     0.1323880803      
1955006930        -0.1072401093     0.02233087056     4.88821239        -2.885669273      
                  4.88821239        -2.885669273      0.08911579718     -0.1950890674     
2040006840        0.08366899161     0.03965414935     -4.83129628       -2.825398442      
                  -4.83129628       -2.825398442      -0.1541301347     -0.04161678559    
2125006750        0.03599424489     -0.0941994738     -0.2009166894     5.642841924       
                  -0.2009166894     5.642841924       0.1305422194      0.1364660518      
2210006660        -0.09285453039    -7.975338571e-05  4.980551752       -2.531359707      
                  4.980551752       -2.531359707      0.04836519972     -0.2177426455     
2295006570        0.03009233176     0.03835237965     -4.595963133      -3.154801492      
                  -4.595963133      -3.154801492      -0.1857763637     0.01444948521     
2380006480        0.02979105599     -0.05325320748    -0.5657667673     5.579260525       
                  -0.5657667673     5.579260525       0.166661675       0.1142160973      
2465006390        -0.08936407487    -0.0174155442     5.059643809       -2.209389945      
                  5.059643809       -2.209389945      -0.02041179399    -0.2592308833     
2550006300        0.01093056311     0.001960111113    -4.290509751      -3.496039         
                  -4.290509751      -3.496039         -0.1921082175     0.06006360824     
2635006210        0.02621719216     -0.04526099933    -0.9051980854     5.521445944       
                  -0.9051980854     5.521445944       0.2125668394      0.06362867472     
2720006120        -0.0819837027     -0.01097856755    5.138155701       -1.837667081      
                  5.138155701       -1.837667081      -0.09048057403    -0.2648405988     
2805006030        0.01680493131     0.0004745465678   -4.003771653      -3.742135619      
                  -4.003771653      -3.742135619      -0.1633545668     0.1227255962      
2890005940        0.02302127592     -0.03606105023    -1.250069194      5.397800403       
                  -1.250069194      5.397800403       0.2321367447      0.008210086568    
2975005850        -0.09582525965    -0.008894459425   5.167801045       -1.377467937      
                  5.167801045       -1.377467937      -0.1630078539     -0.2468543511     
3060005760        0.01839229171     0.01130077558     -3.705495647      -4.084640115      
                  -3.705495647      -4.084640115      -0.1184299094     0.167891867       
3145005670        0.03758303985     -0.04394645212    -1.642870455      5.246973168       
                  -1.642870455      5.246973168       0.232620755       -0.07142064929    
3230005580        -0.1013761189     -0.03333822624    5.277100975       -0.9791826522     
                  5.277100975       -0.9791826522     -0.225943852      -0.2071998965     
3315005490        0.01027753749     0.03223848857     -3.431652289      -4.307228354      
                  -3.431652289      -4.307228354      -0.04608725868    0.2020034514      
3400005400        0.06160181312     -0.02802676892    -1.994976881      5.078981303       
                  -1.994976881      5.078981303       0.202025882       -0.1448614222     
3485005310        -0.09763313806    -0.06409506577    5.380253332       -0.6133788401     
                  5.380253332       -0.6133788401     -0.2817279743     -0.129719033      
3570005220        -0.02057139912    0.04972559426     -3.256373166      -4.500764697      
                  -3.256373166      -4.500764697      0.03195266781     0.2114559157      
3655005130        0.07007329285     0.004277446338    -2.20093953       4.951857098       
                  -2.20093953       4.951857098       0.1325668917      -0.2077384638     
3740005040        -0.07627948808    -0.09358897341    5.374691815       -0.253012224      
                  5.374691815       -0.253012224      -0.3112073151     -0.04014102942    
3825004950        -0.05984853388    0.0361966908      -2.976182924      -4.641119596      
                  -2.976182924      -4.641119596      0.1129222411      0.177006876       
3910004860        0.06263818448     0.03754378735     -2.620547766      4.724015832       
                  -2.620547766      4.724015832       0.05003651176     -0.2584847562     
3995004770        -0.03115028854    -0.1109208671     5.405216356       0.06830514001     
                  5.405216356       0.06830514001     -0.3057004449     0.06611090887     
4080004680        -0.08521795666    0.007675635407    -2.704808087      -4.812429443      
                  -2.704808087      -4.812429443      0.1905012413      0.1283961807      
4165004590        0.03815220081     0.07146304663     -2.879352516      4.588250752       
                  -2.879352516      4.588250752       -0.04684216072    -0.2705952644     
4250004500        0.01081241116     -0.08805478092    5.494122623       0.3125429389      
                  5.494122623       0.3125429389      -0.2663421318     0.17491759        
4335004410        -0.10188024       -0.02089265857    -2.448637454      -4.920761559      
                  -2.448637454      -4.920761559      0.2296912491      0.04474514164     
4420004320        -0.007312723799   0.08310340395     -3.081160448      4.480468274       
                  -3.081160448      4.480468274       -0.1645990855     -0.2510663037     
4505004230        0.03736236197     -0.05636660516    5.448550593       0.4914174108      
                  5.448550593       0.4914174108      -0.1958779558     0.2583885441      
4590004140        -0.09957737064    -0.05196647984    -2.180976327      -4.962258327      
                  -2.180976327      -4.962258327      0.2290476668      -0.05731814735    
4675004050        -0.04599477642    0.0701489379      -3.185216806      4.357670996       
                  -3.185216806      4.357670996       -0.2547865434     -0.1904046481     
4760003960        0.05692451528     -0.01576877994    5.296558935       0.7290930245      
                  5.296558935       0.7290930245      -0.08607721707    0.3115639658      
4845003870        -0.07666945269    -0.06862220746    -1.938886987      -5.009738007      
                  -1.938886987      -5.009738007      0.2009266232      -0.1544273517     
4930003780        -0.07616027348    0.04036059161     -3.368870955      4.179037711       
                  -3.368870955      4.179037711       -0.3189455859     -0.09952804016    
5015003690        0.04903718842     0.03844696012     5.169732526       0.9709828118      
                  5.169732526       0.9709828118      0.03587940554     0.3343483555      
5100003600        -0.05226083978    -0.05579081205    -1.764327002      -5.090085711      
                  -1.764327002      -5.090085711      0.1184342615      -0.2294197797     
5185003510        -0.09080160863    0.002881291136    -3.426528517      3.955637914       
                  -3.426528517      3.955637914       -0.3495537535     0.01111225674     
5270003420        0.01478114889     0.07040549197     5.035386534       1.203156942       
                  5.035386534       1.203156942       0.1503078834      0.3003210968      
5355003330        -0.04175922857    -0.0215543611     -1.650584894      -5.149923086      
                  -1.650584894      -5.149923086      -0.002477501611   -0.2787757156     
5440003240        -0.07050527986    -0.04031778184    -3.368291501      3.792927291       
                  -3.368291501      3.792927291       -0.3184370062     0.1311654229      
5525003150        -0.01895724523    0.05903699014     5.024886165       1.318443121       
                  5.024886165       1.318443121       0.2697557265      0.2013619356      
5610003060        -0.03945854011    0.02831525118     -1.595844442      -4.995082753      
                  -1.595844442      -4.995082753      -0.1368518666     -0.2676063358     
5695002970        -0.01384424822    -0.04330791464    -3.370533531      3.577052292       
                  -3.370533531      3.577052292       -0.2214969093     0.252576087       
5780002880        -0.02599731085    0.02281193654     4.977351919       1.414425875       
                  4.977351919       1.414425875       0.3305454359      0.05765361998     
5865002790        -0.07719943383    0.07654749189     -1.493396237      -4.729950654      
                  -1.493396237      -4.729950654      -0.2715022646     -0.1852614112     
5950002700        0.03691134011     0.005609367917    -3.407117581      3.368293089       
                  -3.407117581      3.368293089       -0.08303802275    0.3333187758      
6035002610        -0.01874444795    -0.04100080443    4.763586623       1.309409329       
                  4.763586623       1.309409329       0.2984109787      -0.09741418808    
6120002520        -0.1458698973     0.07308902716     -1.385243986      -4.473486125      
                  -1.385243986      -4.473486125      -0.3584355925     -0.04539108667    
6205002430        0.07258451025     0.08939745653     -3.295796169      3.170562031       
                  -3.295796169      3.170562031       0.101946316       0.3381186051      
6290002340        0.06086598277     -0.0923308584     4.543289308       1.164855227       
                  4.543289308       1.164855227       0.195470795       -0.2482331766     
6375002250        -0.2158487275     0.009155160106    -1.286778313      -4.17400773       
                  -1.286778313      -4.17400773       -0.3763510059     0.1303375587      
6460002160        0.02903655573     0.2070574551      -3.025603671      2.955706535       
                  -3.025603671      2.955706535       0.270381985       0.2716543833      
6545002070        0.1754281188      -0.05866167716    4.102534823       1.065787509       
                  4.102534823       1.065787509       0.02919457185     -0.3177156225     
6630001980        -0.2066812525     -0.1098106997     -1.126312719      -3.838020026      
                  -1.126312719      -3.838020026      -0.2974308974     0.2990229538      
6715001890        -0.07126384744    0.2722636618      -2.709175035      2.626819348       
                  -2.709175035      2.626819348       0.3806045152      0.1531420986      
6800001800        0.2659529323      0.05151697307     3.621101855       1.091891635       
                  3.621101855       1.091891635       -0.1321250279     -0.3081987393     
6885001710        -0.1044497542     -0.2414037215     -0.8577690676     -3.488885294      
                  -0.8577690676     -3.488885294      -0.1850066307     0.3829159039      
6970001620        -0.2053739135     0.2324912299      -2.618673917      2.244817479       
                  -2.618673917      2.244817479       0.4213314376      0.02157865945     
7055001530        0.2617156947      0.2065666866      3.221282399       1.243040501       
                  3.221282399       1.243040501       -0.2552388206     -0.2725897492     
7140001440        0.08109182206     -0.3008646105     -0.5299720283     -3.217862261      
                  -0.5299720283     -3.217862261      -0.06759781015    0.4476659245      
7225001350        -0.2947541088     0.09246785884     -2.556939193      1.879953068       
                  -2.556939193      1.879953068       0.4469744006      -0.104428472      
7310001260        0.1733245295      0.3383486706      2.842029017       1.138446502       
                  2.842029017       1.138446502       -0.3517077303     -0.1858755185     
7395001170        0.2856718003      -0.2307051489     -0.2714957052     -2.946215308      
                  -0.2714957052     -2.946215308      0.08142574792     0.4798338075      
7480001080        -0.2982102755     -0.1068175424     -2.405242122      1.631542916       
                  -2.405242122      1.631542916       0.3936350239      -0.2378574162     
7565000990        -0.03062607826    0.4028470515      2.633422321       1.16576466        
                  2.633422321       1.16576466        -0.4264662225     -0.08164159017    
7650000900        0.4012822275      -0.05554019582    -0.05046223326    -2.619578722      
                  -0.05046223326    -2.619578722      0.2117820134      0.4396894262      
7735000810        -0.1596960689     -0.3082377666     -2.29799055       1.346745339       
                  -2.29799055       1.346745339       0.3182277307      -0.3454102525     
7820000720        -0.2050410367     0.3180260443      2.278439084       1.236577015       
                  2.278439084       1.236577015       -0.404238968      0.02516962992     
7905000630        0.4161580679      0.1372138253      0.08918551118     -2.303660499      
                  0.08918551118     -2.303660499      0.3260244662      0.3628130671      
7990000540        0.06451204529     -0.3918123566     -2.218935142      0.9328669366      
                  -2.218935142      0.9328669366      0.2222458492      -0.4080540951     
8075000450        -0.3508049029     0.1197176406      1.908249005       1.434779135       
                  1.908249005       1.434779135       -0.386900689      0.1178371482      
8160000360        0.2973815532      0.3119707257      0.2507150952      -2.182185495      
                  0.2507150952      -2.182185495      0.3981370111      0.2783269707      
8245000270        0.2567737725      -0.3327096915     -2.024420432      0.6154318778      
                  -2.024420432      0.6154318778      0.1150814584      -0.4385001045     
8330000180        -0.3597277781     -0.1284277502     1.620152749       1.483430313       
                  1.620152749       1.483430313       -0.3394569163     0.1888842646      
8415000090        0.07745118329     0.3916795865      0.3984054803      -1.98733351       
                  0.3984054803      -1.98733351       0.437765663       0.1710486315      
8500000000        0.3835481812      -0.1825232462     -1.828722808      0.4353481226      
                  -1.828722808      0.4353481226      9.837986817e-05   -0.4616041967     
