! RsaToolbox (C) 2013 Rohde & Schwarz America
! 
! Number of points: 101
! Number of ports: 2
! Balanced ports?: 0
! 
! 
# Hz S RI R 50
9000              1.001438357       -0.01480770475    7.649272883e-05   -2.894333009e-05  
                  7.649272883e-05   -2.894333009e-05  1.011197344       -0.0222140537     
85008910          -0.0003177225945  0.1528540681      3.171604226       5.430414632       
                  3.171604226       5.430414632       -0.09241823665    -0.1160194859     
170008820         0.1378887445      -0.03986429058    3.151329292       -5.180621019      
                  3.151329292       -5.180621019      -0.02074346583    0.1718046547      
255008730         -0.1715840167     -0.07407021673    -6.015282084      -0.1540459476     
                  -6.015282084      -0.1540459476     0.0776702301      -0.02661625841    
340008640         -0.06355045752    0.1645824984      2.642559835       5.309626215       
                  2.642559835       5.309626215       -0.1267866326     -0.0539654514     
425008550         0.1547234338      -0.04491073368    3.350513537       -4.842316003      
                  3.350513537       -4.842316003      0.01652453849     0.1029302766      
510008460         -0.09881482948    -0.1597451116     -5.868134592      -0.6211368999     
                  -5.868134592      -0.6211368999     0.07081626877     -0.0798181722     
595008370         -0.1050236672     0.1350820325      2.230765173       5.379802187       
                  2.230765173       5.379802187       -0.08396224816    -0.01218993348    
680008280         0.1998144961      0.03321149263     3.61964983        -4.563693007      
                  3.61964983        -4.563693007      0.09207397027     0.0754757712      
765008190         0.01069887182     -0.1586415323     -5.69577882       -1.070481032      
                  -5.69577882       -1.070481032      0.06022567477     -0.06066397182    
850008100         -0.1781949837     0.1087236304      1.889873423       5.478885996       
                  1.889873423       5.478885996       -0.07181759052    0.06503389817     
935008010         0.1414873921      0.120805295       3.899725004       -4.223251811      
                  3.899725004       -4.223251811      0.1021496116      0.03893449933     
1020007920        0.07415637421     -0.1489139544     -5.557828573      -1.409448519      
                  -5.557828573      -1.409448519      -0.004802633447   -0.07577459499    
1105007830        -0.2208393345     -0.008862460653   1.511419105       5.566579414       
                  1.511419105       5.566579414       -0.06321096346    0.07527546098     
1190007740        0.06877968338     0.1353401963      4.148730938       -3.844173139      
                  4.148730938       -3.844173139      0.1242974077      -0.04242986362    
1275007650        0.1608310963      -0.1049100767     -5.442123664      -1.777972753      
                  -5.442123664      -1.777972753      -0.03012777699    -0.089181904      
1360007560        -0.1587098692     -0.09846890104    1.078697447       5.592986682       
                  1.078697447       5.592986682       -0.005621887084   0.1019991302      
1445007470        0.0007751587046   0.1357902662      4.353530057       -3.54064085       
                  4.353530057       -3.54064085       0.1472363497      -0.08828073329    
1530007380        0.1788206713      -0.009727495551   -5.284578408      -2.123628144      
                  -5.284578408      -2.123628144      -0.06941669783    -0.06467152578    
1615007290        -0.09004946094    -0.1177556994     0.6675814839      5.54275105        
                  0.6675814839      5.54275105        0.02308894506     0.1423941249      
1700007200        -0.08450405275    0.09128502394     4.595014347       -3.257130615      
                  4.595014347       -3.257130615      0.1109599863      -0.1334819528     
1785007110        0.1205332403      0.0298244137      -5.039662666      -2.452707131      
                  -5.039662666      -2.452707131      -0.1321114774     -0.0642093103     
1870007020        -0.02117762641    -0.1274142363     0.2823910103      5.546564069       
                  0.2823910103      5.546564069       0.0656459879      0.1323368215      
1955006930        -0.09936484981    0.01781202583     4.792132616       -2.914400091      
                  4.792132616       -2.914400091      0.08935527494     -0.1940903427     
2040006840        0.07571880407     0.03239715312     -4.804499417      -2.722182715      
                  -4.804499417      -2.722182715      -0.1550607672     -0.04174422014    
2125006750        0.03233280528     -0.08439348678    -0.1168887521     5.571828317       
                  -0.1168887521     5.571828317       0.1309724962      0.1371287603      
2210006660        -0.08205979774    -0.0004056035125  4.87286149        -2.56922311       
                  4.87286149        -2.56922311       0.04806915481     -0.2183881238     
2295006570        0.02594273624     0.02594670906     -4.572527761      -3.036038588      
                  -4.572527761      -3.036038588      -0.1864847245     0.01516957779     
2380006480        0.01984777735     -0.0456520701     -0.4676168406     5.500561129       
                  -0.4676168406     5.500561129       0.1669226569      0.1140526289      
2465006390        -0.07730556139    -0.01027079612    4.935635199       -2.263008111      
                  4.935635199       -2.263008111      -0.01957552482    -0.2599252625     
2550006300        0.0131785347      -0.01159696092    -4.264734779      -3.363519826      
                  -4.264734779      -3.363519826      -0.1912552298     0.06047384804     
2635006210        0.01193089065     -0.04278650253    -0.7759120041     5.434091252       
                  -0.7759120041     5.434091252       0.213630086       0.06424682836     
2720006120        -0.07484292058    0.001092387865    5.000756318       -1.900425675      
                  5.000756318       -1.900425675      -0.09055247174    -0.2650778152     
2805006030        0.02558345668     -0.01167801184    -3.988015336      -3.587662771      
                  -3.988015336      -3.587662771      -0.1632956462     0.1232214528      
2890005940        0.005747621789    -0.04227358474    -1.085040054      5.299725675       
                  -1.085040054      5.299725675       0.2323735505      0.009040894951    
2975005850        -0.09311929747    0.008018274862    5.02149104        -1.451744197      
                  5.02149104        -1.451744197      -0.1622220982     -0.2480944904     
3060005760        0.03278283674     0.002739328057    -3.703372036      -3.910339198      
                  -3.703372036      -3.910339198      -0.119207721      0.1685797214      
3145005670        0.02351212609     -0.0570976943     -1.469572119      5.149842019       
                  -1.469572119      5.149842019       0.2321772311      -0.07162427301    
3230005580        -0.107572131      -0.01689041488    5.121883524       -1.064827283      
                  5.121883524       -1.064827283      -0.2268590923     -0.2085210412     
3315005490        0.03005650505     0.0325904327      -3.453210095      -4.10094614       
                  -3.453210095      -4.10094614       -0.04600323415    0.2027964623      
3400005400        0.05478114615     -0.04954736112    -1.777896861      4.978024124       
                  -1.777896861      4.978024124       0.2020071068      -0.145189945      
3485005310        -0.113362639      -0.05018752063    5.197813195       -0.7371913682     
                  5.197813195       -0.7371913682     -0.2820033275     -0.1301479579     
3570005220        -9.774682972e-05  0.06128716583     -3.296309246      -4.236593235      
                  -3.296309246      -4.236593235      0.03357079069     0.2111060469      
3655005130        0.07319151425     -0.02160801207    -1.929095721      4.838808928       
                  -1.929095721      4.838808928       0.1352490122      -0.2087318163     
3740005040        -0.1010831392     -0.08801406654    5.162276273       -0.4299714717     
                  5.162276273       -0.4299714717     -0.3119001421     -0.03990489532    
3825004950        -0.04344079806    0.06394206667     -3.059669981      -4.28611127       
                  -3.059669981      -4.28611127       0.1138312885      0.176685538       
3910004860        0.08475860923     0.01133502821     -2.268405803      4.619140731       
                  -2.268405803      4.619140731       0.05121392218     -0.2590761657     
3995004770        -0.06349379925    -0.1206876499     5.125953941       -0.1928872889     
                  5.125953941       -0.1928872889     -0.3054123708     0.06534658782     
4080004680        -0.0830937853     0.04796241802     -2.799398945      -4.384209174      
                  -2.799398945      -4.384209174      0.1913127333      0.1285252421      
4165004590        0.0752131476      0.05300030361     -2.500525946      4.460804974       
                  -2.500525946      4.460804974       -0.04607419481    -0.2722333283     
4250004500        -0.01957100252    -0.1167413656     5.152152019       0.007815282263    
                  5.152152019       0.007815282263    -0.2657222716     0.1757701003      
4335004410        -0.1199143706     0.02406837154     -2.561524802      -4.424079781      
                  -2.561524802      -4.424079781      0.2304595317      0.04485028896     
4420004320        0.03984936021     0.08317762483     -2.609966063      4.333169347       
                  -2.609966063      4.333169347       -0.1637411271     -0.2511394375     
4505004230        0.01807445723     -0.1045073886     5.027070997       0.114226898       
                  5.027070997       0.114226898       -0.1968890088     0.2592226466      
4590004140        -0.140679458      -0.01450448948    -2.314571551      -4.383152656      
                  -2.314571551      -4.383152656      0.2298501613      -0.05749865554    
4675004050        0.005194873139    0.09413014973     -2.612009332      4.176030657       
                  -2.612009332      4.176030657       -0.2554829087     -0.1915351728     
4760003960        0.05991791064     -0.07402113646    4.840183576       0.3047135563      
                  4.840183576       0.3047135563      -0.08678588558    0.3114471735      
4845003870        -0.1348945513     -0.04948808924    -2.081311549      -4.348843668      
                  -2.081311549      -4.348843668      0.2006520138      -0.1548185037     
4930003780        -0.03682143427    0.09067484857     -2.707733589      3.951909214       
                  -2.707733589      3.951909214       -0.3198135764     -0.0999528416     
5015003690        0.0800405463      -0.02086799673    4.671479276       0.5064334864      
                  4.671479276       0.5064334864      0.03535751882     0.3349873123      
5100003600        -0.1201307422     -0.06547992909    -1.92096031       -4.298558912      
                  -1.92096031       -4.298558912      0.1197917597      -0.2294179655     
5185003510        -0.07495438285    0.07080990326     -2.724453871      3.695449183       
                  -2.724453871      3.695449183       -0.3501015113     0.01112264362     
5270003420        0.06848266816     0.02811751745     4.504963009       0.7138664324      
                  4.504963009       0.7138664324      0.1492742936      0.3002569405      
5355003330        -0.104193341      -0.06461292548    -1.810545811      -4.24064087       
                  -1.810545811      -4.24064087       -0.002011717337   -0.2793809049     
5440003240        -0.08493181005    0.02930207065     -2.688989662      3.509815219       
                  -2.688989662      3.509815219       -0.3199903261     0.1319026226      
5525003150        0.0498170455      0.04376086853     4.42954397        0.802508915       
                  4.42954397        0.802508915       0.2690648931      0.2018394139      
5610003060        -0.0754366758     -0.03678968533    -1.718488614      -4.096761386      
                  -1.718488614      -4.096761386      -0.1366162236     -0.2681654232     
5695002970        -0.05524392257    0.01469967278     -2.682655149      3.281414274       
                  -2.682655149      3.281414274       -0.2216063067     0.2529420826      
5780002880        0.04537522789     0.03972833733     4.301329339       0.8632672061      
                  4.301329339       0.8632672061      0.3297378969      0.05837613303     
5865002790        -0.08183743348    0.004128985371    -1.56766895       -3.899705545      
                  -1.56766895       -3.899705545      -0.2721381151     -0.1858206992     
5950002700        -0.02447541696    0.0400019321      -2.701925307      3.070324386       
                  -2.701925307      3.070324386       -0.08305228703    0.3333330366      
6035002610        0.03687418606     0.007299128968    4.064420097       0.8083841557      
                  4.064420097       0.8083841557      0.2991107849      -0.09710113744    
6120002520        -0.1190318412     0.009520526227    -1.411898851      -3.71077281       
                  -1.411898851      -3.71077281       -0.3583552696     -0.0459063736     
6205002430        0.004112227381    0.09199093503     -2.631110214      2.876270602       
                  -2.631110214      2.876270602       0.1021715957      0.3379620705      
6290002340        0.08711476599     -0.02801251745    3.861207195       0.7525997306      
                  3.861207195       0.7525997306      0.19585649        -0.2480620273     
6375002250        -0.1695144084     -0.03581113146    -1.278377275      -3.524233694      
                  -1.278377275      -3.524233694      -0.3763884836     0.1295775652      
6460002160        -0.02494727631    0.1835587826      -2.49378891       2.698203034       
                  -2.49378891       2.698203034       0.2710820873      0.2726385798      
6545002070        0.1728871184      0.0008595129393   3.558247205       0.7428005496      
                  3.558247205       0.7428005496      0.02926022215     -0.3203955318     
6630001980        -0.1533942089     -0.1294142991     -1.120090404      -3.31599939       
                  -1.120090404      -3.31599939       -0.2989726257     0.3023847642      
6715001890        -0.1062445442     0.2372213224      -2.305537854      2.416190011       
                  -2.305537854      2.416190011       0.3842067752      0.1566282173      
6800001800        0.240668428       0.1007445846      3.197580925       0.8504450895      
                  3.197580925       0.8504450895      -0.1312561709     -0.3091210194     
6885001710        -0.05423071752    -0.2342145917     -0.8228415084     -3.070502635      
                  -0.8228415084     -3.070502635      -0.1884408341     0.3883221281      
6970001620        -0.2228185238     0.1919205538      -2.297189881      2.064361315       
                  -2.297189881      2.064361315       0.4235922703      0.02388838344     
7055001530        0.230487059       0.2313623921      2.920347856       1.019499821       
                  2.920347856       1.019499821       -0.2571625203     -0.2715114066     
7140001440        0.1094600617      -0.2802071717     -0.5562281492     -2.938480253      
                  -0.5562281492     -2.938480253      -0.06367789908    0.4543531601      
7225001350        -0.2927595527     0.06268595803     -2.322322772      1.789982334       
                  -2.322322772      1.789982334       0.4530593439      -0.1030801963     
7310001260        0.1429970215      0.3518830097      2.664348661       1.018834135       
                  2.664348661       1.018834135       -0.3589457711     -0.1852946989     
7395001170        0.2977522809      -0.2031991351     -0.2724853146     -2.741204593      
                  -0.2724853146     -2.741204593      0.07684446042     0.4824846193      
7480001080        -0.2818898        -0.1368549127     -2.195335826      1.518170865       
                  -2.195335826      1.518170865       0.3950833632      -0.2369931929     
7565000990        -0.05674841066    0.3932759437      2.432477249       1.03914282        
                  2.432477249       1.03914282        -0.4254576398     -0.08460724749    
7650000900        0.4015323215      -0.03682066023    -0.07517442422    -2.462487996      
                  -0.07517442422    -2.462487996      0.2126112787      0.4393492349      
7735000810        -0.1455742651     -0.3147260077     -2.170817162      1.288958397       
                  -2.170817162      1.288958397       0.3175951871      -0.3464071879     
7820000720        -0.2208974259     0.3062658         2.164866959       1.164014337       
                  2.164866959       1.164014337       -0.4067042993     0.02467922448     
7905000630        0.4089987905      0.1508153445      0.08505279496     -2.206594276      
                  0.08505279496     -2.206594276      0.3242909722      0.3629510216      
7990000540        0.08060060103     -0.3909253898     -2.111137958      0.8856184473      
                  -2.111137958      0.8856184473      0.2222283946      -0.4075458828     
8075000450        -0.3564718058     0.1066498457      1.822627505       1.368719663       
                  1.822627505       1.368719663       -0.3886657264     0.1187400812      
8160000360        0.2886945489      0.3213167938      0.2394378495      -2.106299249      
                  0.2394378495      -2.106299249      0.3996318468      0.2802850917      
8245000270        0.2665238269      -0.3321975174     -1.971508077      0.5970117301      
                  -1.971508077      0.5970117301      0.1145918463      -0.4446734536     
8330000180        -0.3648164838     -0.1433420054     1.581653018       1.446824033       
                  1.581653018       1.446824033       -0.343572733      0.1933028123      
8415000090        0.06915326766     0.3952651613      0.3726420232      -1.935502303      
                  0.3726420232      -1.935502303      0.4362693984      0.1675180217      
8500000000        0.3874534282      -0.1797313517     -1.786561187      0.4346350782      
                  -1.786561187      0.4346350782      -0.004207031331   -0.4612509706     
