! RsaToolbox (C) 2013 Rohde & Schwarz America
! 
! Number of points: 101
! Number of ports: 2
! Balanced ports?: 0
! 
! 
# Hz S RI R 50
9000              1.012836594       -0.01831326898    5.822091458e-05   -4.235759571e-05  
                  5.822091458e-05   -4.235759571e-05  1.019670854       -0.02548728852    
85008910          0.002328206435    0.1587007142      3.194790794       5.505178922       
                  3.194790794       5.505178922       -0.09212538565    -0.1154618585     
170008820         0.1421705825      -0.0439892479     3.186457446       -5.225079695      
                  3.186457446       -5.225079695      -0.02040778786    0.1715183491      
255008730         -0.1758362595     -0.07549410373    -6.057301067      -0.1630534019     
                  -6.057301067      -0.1630534019     0.07776436791     -0.0264462672     
340008640         -0.06345833916    0.1696722414      2.655159618       5.353681764       
                  2.655159618       5.353681764       -0.1266984346     -0.05380405569    
425008550         0.1591114563      -0.04643841232    3.386317388       -4.871475351      
                  3.386317388       -4.871475351      0.01666511374     0.1027892379      
510008460         -0.101504163      -0.16332064       -5.906229952      -0.6418073916     
                  -5.906229952      -0.6418073916     0.07071641034     -0.07959884407    
595008370         -0.1074643864     0.1394852875      2.227109653       5.427379753       
                  2.227109653       5.427379753       -0.08364211398    -0.01205120825    
680008280         0.2041931847      0.03361019987     3.660671633       -4.578529506      
                  3.660671633       -4.578529506      0.09224363695     0.07545182089     
765008190         0.009446556982    -0.1635564277     -5.73326672       -1.099014764      
                  -5.73326672       -1.099014764      0.06019866588     -0.06050905402    
850008100         -0.1816339399     0.111450565       1.87323915        5.521748265       
                  1.87323915        5.521748265       -0.07156698224    0.06509003451     
935008010         0.1455568636      0.1234000718      3.944192778       -4.232810307      
                  3.944192778       -4.232810307      0.1020661121      0.03897871739     
1020007920        0.07542106808     -0.1536818734     -5.589410272      -1.443468224      
                  -5.589410272      -1.443468224      -0.004597216478   -0.07553985061    
1105007830        -0.2250271223     -0.008272099785   1.484620668       5.6141685         
                  1.484620668       5.6141685         -0.06295936629    0.07516020989     
1190007740        0.07121307469     0.1401168583      4.191416211       -3.862953127      
                  4.191416211       -3.862953127      0.1243750122      -0.04262853821    
1275007650        0.1642718586      -0.1085174415     -5.46875315       -1.825392412      
                  -5.46875315       -1.825392412      -0.03016424177    -0.08918153393    
1360007560        -0.163200729      -0.1005651899     1.049001902       5.640685026       
                  1.049001902       5.640685026       -0.005531476767   0.1017886114      
1445007470        0.0006192243243   0.1417081609      4.406925799       -3.545653775      
                  4.406925799       -3.545653775      0.147021761       -0.08832382853    
1530007380        0.1843856719      -0.0113052016     -5.307005537      -2.182205136      
                  -5.307005537      -2.182205136      -0.06920705301    -0.06450931029    
1615007290        -0.09400181551    -0.1237156421     0.6245284243      5.597691866       
                  0.6245284243      5.597691866       0.02326539341     0.1420659542      
1700007200        -0.08840945283    0.09697725143     4.663060836       -3.246595799      
                  4.663060836       -3.246595799      0.1108401549      -0.1334877641     
1785007110        0.1279503349      0.03168106841     -5.063943052      -2.5216788        
                  -5.063943052      -2.5216788        -0.1319082653     -0.06408799684    
1870007020        -0.02177049197    -0.1356555519     0.230509354       5.604633198       
                  0.230509354       5.604633198       0.06601919897     0.1321434397      
1955006930        -0.1065037885     0.02150291793     4.870389752       -2.893054602      
                  4.870389752       -2.893054602      0.08917555214     -0.19382938       
2040006840        0.08261512512     0.03877944776     -4.828147936      -2.805847276      
                  -4.828147936      -2.805847276      -0.1547631788     -0.04171492179    
2125006750        0.03604583853     -0.09262440466    -0.1872648164     5.632674794       
                  -0.1872648164     5.632674794       0.1309879539      0.1369902252      
2210006660        -0.09184737697    -0.0007985698987  4.965178828       -2.537839893      
                  4.965178828       -2.537839893      0.04803000382     -0.2181149107     
2295006570        0.02932101666     0.03616340186     -4.59503537       -3.134590677      
                  -4.59503537       -3.134590677      -0.1860688972     0.01543782139     
2380006480        0.02848693215     -0.05226807671    -0.5483978381     5.569174539       
                  -0.5483978381     5.569174539       0.1667196644      0.1139166806      
2465006390        -0.08746644981    -0.01596504196    5.042536995       -2.220131782      
                  5.042536995       -2.220131782      -0.01972345466    -0.2594089442     
2550006300        0.01153655847     0.0007515717914   -4.28624924       -3.473688523      
                  -4.28624924       -3.473688523      -0.1908668807     0.06071369504     
2635006210        0.02510565293     -0.04479988177    -0.8875296456     5.511095626       
                  -0.8875296456     5.511095626       0.2135513121      0.06428116462     
2720006120        -0.08211866271    -0.01026873692    5.118447515       -1.847275908      
                  5.118447515       -1.847275908      -0.09067763905    -0.2644624571     
2805006030        0.01780910395     -0.0005340617121  -4.002964431      -3.721249834      
                  -4.002964431      -3.721249834      -0.1629504749     0.1235063722      
2890005940        0.02066519893     -0.0367237263     -1.226115803      5.386107217       
                  -1.226115803      5.386107217       0.2318892407      0.009039060909    
2975005850        -0.094996639      -0.007401201865   5.149717939       -1.390761504      
                  5.149717939       -1.390761504      -0.1622312388     -0.2476425092     
3060005760        0.01904630388     0.009596028692    -3.702361121      -4.062858001      
                  -3.702361121      -4.062858001      -0.1190616577     0.1687637596      
3145005670        0.03541728678     -0.04508155656    -1.623943457      5.233177005       
                  -1.623943457      5.233177005       0.2317130609      -0.07163567537    
3230005580        -0.1020764766     -0.03212296088    5.257941549       -0.9872551788     
                  5.257941549       -0.9872551788     -0.2267302729     -0.2077512173     
3315005490        0.01226135479     0.03195094366     -3.43038767       -4.288042488      
                  -3.43038767       -4.288042488      -0.04610154561    0.2027040648      
3400005400        0.06105634708     -0.03009143285    -1.977183351      5.066428903       
                  -1.977183351      5.066428903       0.2012149305      -0.1449567995     
3485005310        -0.09866368393    -0.06322291022    5.357282094       -0.6229320299     
                  5.357282094       -0.6229320299     -0.2820885983     -0.1297621655     
3570005220        -0.01938408405    0.04974055316     -3.249988877      -4.47569875       
                  -3.249988877      -4.47569875       0.03345013523     0.2105865145      
3655005130        0.0689088104      0.002620321847    -2.170669141      4.931803319       
                  -2.170669141      4.931803319       0.1349254905      -0.2086278746     
3740005040        -0.07840812623    -0.09324362926    5.345640143       -0.267924424      
                  5.345640143       -0.267924424      -0.3120919736     -0.03960373098    
3825004950        -0.05822846604    0.03810592558     -2.980200593      -4.605423708      
                  -2.980200593      -4.605423708      0.1134056125      0.1762291586      
3910004860        0.06460290803     0.0365509797      -2.588513198      4.709112269       
                  -2.588513198      4.709112269       0.05036689417     -0.2590383171     
3995004770        -0.03214962902    -0.1119923442     5.374552452       0.05149120073     
                  5.374552452       0.05149120073     -0.3054233238     0.06532255494     
4080004680        -0.08484557419    0.009312531181    -2.703071714      -4.777490891      
                  -2.703071714      -4.777490891      0.1907924296      0.1283116878      
4165004590        0.04092566726     0.06993601208     -2.85574569       4.567715977       
                  -2.85574569       4.567715977       -0.04666363651    -0.2715822939     
4250004500        0.01068334125     -0.0891481055     5.460907326       0.3002469632      
                  5.460907326       0.3002469632      -0.2658876843     0.1755933607      
4335004410        -0.102292687      -0.01867114403    -2.445489549      -4.88524624       
                  -2.445489549      -4.88524624       0.2297864263      0.04443066122     
4420004320        -0.005977596343   0.08396286525     -3.054080417      4.453209529       
                  -3.054080417      4.453209529       -0.1640379203     -0.2507537297     
4505004230        0.03793935881     -0.05866635622    5.408404767       0.4762000216      
                  5.408404767       0.4762000216      -0.1966499035     0.2589138825      
4590004140        -0.1015832981     -0.05092362434    -2.181493199      -4.918096934      
                  -2.181493199      -4.918096934      0.2295544045      -0.05773001508    
4675004050        -0.04374143291    0.07161424619     -3.146230164      4.334722891       
                  -3.146230164      4.334722891       -0.255314423      -0.1911763427     
4760003960        0.05769212623     -0.01797807601    5.257280927       0.7095320438      
                  5.257280927       0.7095320438      -0.08639087503    0.3110869679      
4845003870        -0.07842375551    -0.06849527291    -1.932360637      -4.966123795      
                  -1.932360637      -4.966123795      0.2002632601      -0.1548619955     
4930003780        -0.07572271136    0.04281133132     -3.326839197      4.149888036       
                  -3.326839197      4.149888036       -0.3195348785     -0.09963903055    
5015003690        0.0515412516      0.03621015159     5.128658887       0.9489205301      
                  5.128658887       0.9489205301      0.03560471882     0.3344324687      
5100003600        -0.05387858238    -0.05726354525    -1.760894286      -5.032333326      
                  -1.760894286      -5.032333326      0.1196094692      -0.2294003732     
5185003510        -0.09131719656    0.006551606667    -3.37898279       3.926303083       
                  -3.37898279       3.926303083       -0.3495213946     0.01128190577     
5270003420        0.01689596807     0.07079227348     4.991091651       1.180290352       
                  4.991091651       1.180290352       0.149712446       0.299629953       
5355003330        -0.04357969913    -0.02476785652    -1.646680795      -5.087376086      
                  -1.646680795      -5.087376086      -0.002110493983   -0.279010531      
5440003240        -0.07305174557    -0.03682709591    -3.325696359      3.759529996       
                  -3.325696359      3.759529996       -0.3194321629     0.1320246193      
5525003150        -0.01584231862    0.06137214006     4.971280137       1.293426552       
                  4.971280137       1.293426552       0.2690844235      0.2015255629      
5610003060        -0.03894473491    0.02467601733     -1.588165186      -4.928751143      
                  -1.588165186      -4.928751143      -0.1369673475     -0.2675690289     
5695002970        -0.01622387676    -0.04171769454    -3.324266335      3.541454622       
                  -3.324266335      3.541454622       -0.2211615446     0.253011024       
5780002880        -0.02396274248    0.02530247952     4.918324953       1.385658954       
                  4.918324953       1.385658954       0.329452171       0.05801750645     
5865002790        -0.07548652786    0.0732486757      -1.48700149       -4.668276229      
                  -1.48700149       -4.668276229      -0.2721051873     -0.1853690203     
5950002700        0.03326101113     0.005283498452    -3.358198671      3.333281524       
                  -3.358198671      3.333281524       -0.08293825298    0.3329867702      
6035002610        -0.01749878433    -0.0361008619     4.702583277       1.283950344       
                  4.702583277       1.283950344       0.2985380075      -0.09749528833    
6120002520        -0.142360851      0.07132431378     -1.36684578       -4.41509516       
                  -1.36684578       -4.41509516       -0.3583649582     -0.04546616702    
6205002430        0.06850653546     0.08692239009     -3.249342439      3.128215041       
                  -3.249342439      3.128215041       0.1018891555      0.3375475139      
6290002340        0.06025785774     -0.08752009389    4.479553334       1.151334665       
                  4.479553334       1.151334665       0.1949737152      -0.2479571798     
6375002250        -0.2121911357     0.007474798601    -1.265390147      -4.127930813      
                  -1.265390147      -4.127930813      -0.3762353306     0.1300240671      
6460002160        0.02794818532     0.2039145619      -3.011240799      2.929969684       
                  -3.011240799      2.929969684       0.2708995831      0.2723147343      
6545002070        0.1746542678      -0.05720812786    4.08141529        1.058239954       
                  4.08141529        1.058239954       0.02884019643     -0.3200720519     
6630001980        -0.2041537238     -0.1103350046     -1.120803006      -3.826912581      
                  -1.120803006      -3.826912581      -0.2985655237     0.3022141326      
6715001890        -0.07245375367    0.272279284       -2.714809684      2.614685361       
                  -2.714809684      2.614685361       0.3837779859      0.1561799937      
6800001800        0.2636175105      0.05684053019     3.603604946       1.119435927       
                  3.603604946       1.119435927       -0.131448405      -0.3088797921     
6885001710        -0.1007807437     -0.2391734436     -0.8096408523     -3.483854731      
                  -0.8096408523     -3.483854731      -0.1882216362     0.3879283332      
6970001620        -0.2091460367     0.2311296012      -2.628366284      2.210835357       
                  -2.628366284      2.210835357       0.4232007026      0.02343467264     
7055001530        0.2608978106      0.2078070903      3.206315332       1.238859575       
                  3.206315332       1.238859575       -0.2568376248     -0.2713725838     
7140001440        0.08251578521     -0.2979136543     -0.5340189136     -3.216635475      
                  -0.5340189136     -3.216635475      -0.06328593684    0.4538696091      
7225001350        -0.2957685316     0.09482461691     -2.571401118      1.887217462       
                  -2.571401118      1.887217462       0.4527067861      -0.1033649116     
7310001260        0.1683743662      0.3466708692      2.853292192       1.161132826       
                  2.853292192       1.161132826       -0.3586777808     -0.1849711522     
7395001170        0.2851995444      -0.2257552113     -0.241381201      -2.956012313      
                  -0.241381201      -2.956012313      0.07725701108     0.4821628094      
7480001080        -0.2974727566     -0.1118948744     -2.408921362      1.602367721       
                  -2.408921362      1.602367721       0.3949548147      -0.2372491661     
7565000990        -0.03233995423    0.3988351758      2.605177866       1.164267989       
                  2.605177866       1.164267989       -0.4249010208     -0.08431926273    
7650000900        0.4003201208      -0.05526376618    -0.0499679792     -2.603682224      
                  -0.0499679792     -2.603682224      0.2130802529      0.4387582908      
7735000810        -0.1600683121     -0.3066342903     -2.293461646      1.3398812         
                  -2.293461646      1.3398812         0.3179784732      -0.3463889437     
7820000720        -0.2078028719     0.3162629673      2.269661268       1.242205864       
                  2.269661268       1.242205864       -0.4058521424     0.02508137551     
7905000630        0.4136807337      0.1393637544      0.09997844644     -2.296215511      
                  0.09997844644     -2.296215511      0.3244665746      0.3625639856      
7990000540        0.06692811302     -0.3902283344     -2.212513254      0.9191189093      
                  -2.212513254      0.9191189093      0.2217158732      -0.4070278123     
8075000450        -0.3504321357     0.1191480176      1.900600082       1.434352433       
                  1.900600082       1.434352433       -0.3880082778     0.1189053332      
8160000360        0.2965808779      0.3136094303      0.2549143155      -2.186467393      
                  0.2549143155      -2.186467393      0.3995274923      0.2801749746      
8245000270        0.2580750161      -0.3362329253     -2.037822957      0.6116137452      
                  -2.037822957      0.6116137452      0.1154568814      -0.4440856082     
8330000180        -0.3659410211     -0.1328745405     1.632991115       1.500017348       
                  1.632991115       1.500017348       -0.3434158361     0.1934083808      
8415000090        0.07792687708     0.392763585       0.3872146083      -1.994407484      
                  0.3872146083      -1.994407484      0.4357705088      0.1673066945      
8500000000        0.3827942267      -0.1853524938     -1.830799305      0.4435555725      
                  -1.830799305      0.4435555725      -0.004575239764   -0.460584219      
