! RsaToolbox (C) 2013 Rohde & Schwarz America
! 
! Number of points: 101
! Number of ports: 2
! Balanced ports?: 0
! 
! 
# Hz S RI R 50
9000              1.016904072       -0.02079703196    0.000138690555    -3.26409623e-05   
                  0.000138690555    -3.26409623e-05   1.021507455       -0.02506909636    
85008910          0.002735301269    0.1595426367      3.194335112       5.52646981        
                  3.194335112       5.52646981        -0.09187049066    -0.1156986966     
170008820         0.1425374223      -0.04450468249    3.196581112       -5.228666992      
                  3.196581112       -5.228666992      -0.02039300559    0.1716690438      
255008730         -0.1763553797     -0.07583384607    -6.064348751      -0.1705445812     
                  -6.064348751      -0.1705445812     0.07712298973     -0.02671328934    
340008640         -0.06336362889    0.1701591582      2.650605792       5.362625377       
                  2.650605792       5.362625377       -0.1265685811     -0.05369576722    
425008550         0.1595365231      -0.04656358888    3.396873498       -4.86953858       
                  3.396873498       -4.86953858       0.01658844977     0.1026781907      
510008460         -0.1017984723     -0.1635023232     -5.910718447      -0.6521952746     
                  -5.910718447      -0.6521952746     0.07076817545     -0.07956141642    
595008370         -0.1078385994     0.1400189717      2.226986457       5.434091407       
                  2.226986457       5.434091407       -0.08381978402    -0.01246865878    
680008280         0.2046452246      0.03348746075     3.670897757       -4.577298297      
                  3.670897757       -4.577298297      0.09179755012     0.0750617641      
765008190         0.009325949051    -0.1640606866     -5.738346943      -1.106897755      
                  -5.738346943      -1.106897755      0.05960867442     -0.06099502639    
850008100         -0.1820810782     0.1115721416      1.868607532       5.530474471       
                  1.868607532       5.530474471       -0.07158603008    0.06528835592     
935008010         0.1458118471      0.12367103        3.954023477       -4.232423324      
                  3.954023477       -4.232423324      0.101889777       0.03869924374     
1020007920        0.07559860226     -0.1542472814     -5.593759371      -1.4535804        
                  -5.593759371      -1.4535804        -0.004940585351   -0.07600144579    
1105007830        -0.225851912      -0.008479487242   1.473083724       5.624261354       
                  1.473083724       5.624261354       -0.06305150457    0.07500486354     
1190007740        0.07137326152     0.1406748046      4.202286641       -3.862023436      
                  4.202286641       -3.862023436      0.1242204935      -0.04263327373    
1275007650        0.1645577073      -0.1091284061     -5.473567631      -1.836398889      
                  -5.473567631      -1.836398889      -0.0301645214     -0.08914834136    
1360007560        -0.1639125963     -0.1006429635     1.040986262       5.649780193       
                  1.040986262       5.649780193       -0.00535318889    0.1016086159      
1445007470        0.0006045692335   0.1425322992      4.420421816       -3.543242366      
                  4.420421816       -3.543242366      0.1473559504      -0.08849766722    
1530007380        0.1851363478      -0.01142573412    -5.309462823      -2.193198945      
                  -5.309462823      -2.193198945      -0.06910511927    -0.064304967      
1615007290        -0.09473892579    -0.1245017809     0.6134522392      5.607226248       
                  0.6134522392      5.607226248       0.0233163466      0.142388741       
1700007200        -0.08856590796    0.09736015397     4.675808245       -3.240974071      
                  4.675808245       -3.240974071      0.1110634153      -0.1334404071     
1785007110        0.1287274557      0.03180044713     -5.067307817      -2.534677724      
                  -5.067307817      -2.534677724      -0.1316587863     -0.06403092876    
1870007020        -0.02182435257    -0.1367657996     0.2201182071      5.613655993       
                  0.2201182071      5.613655993       0.06596888799     0.1323608726      
1955006930        -0.1075582774     0.02166630072     4.882993109       -2.886023878      
                  4.882993109       -2.886023878      0.08932509939     -0.1940186692     
2040006840        0.08347009842     0.03915855924     -4.830131748      -2.821336733      
                  -4.830131748      -2.821336733      -0.1548588914     -0.04185540006    
2125006750        0.03659782861     -0.09348977872    -0.1987087069     5.642814852       
                  -0.1987087069     5.642814852       0.1309253841      0.1368782271      
2210006660        -0.09333148369    -0.0007853809586  4.980841252       -2.532189569      
                  4.980841252       -2.532189569      0.04752268194     -0.2179521779     
2295006570        0.02948399956     0.03724875677     -4.598084356      -3.151943479      
                  -4.598084356      -3.151943479      -0.1859221968     0.01523277224     
2380006480        0.02920259951     -0.05304415524    -0.5614192237     5.57971686        
                  -0.5614192237     5.57971686        0.1668549974      0.113913831       
2465006390        -0.08867250167    -0.01640177875    5.055934298       -2.21704309       
                  5.055934298       -2.21704309       -0.01965770473    -0.2594249164     
2550006300        0.01175419778     0.001708843269    -4.289024229      -3.49053032       
                  -4.289024229      -3.49053032       -0.1909015314     0.06068379954     
2635006210        0.02589025893     -0.04528881903    -0.9005634104     5.522037028       
                  -0.9005634104     5.522037028       0.2134109612      0.0640105046      
2720006120        -0.08287354176    -0.01138311998    5.132200333       -1.840318974      
                  5.132200333       -1.840318974      -0.09074584208    -0.2642521711     
2805006030        0.01714336842     0.0008330517532   -4.006160741      -3.736957381      
                  -4.006160741      -3.736957381      -0.1632343106     0.1236037184      
2890005940        0.02197764018     -0.03634310568    -1.240405659      5.396709587       
                  -1.240405659      5.396709587       0.2318890847      0.00888062531     
2975005850        -0.09496254886    -0.009133944371   5.16750675        -1.382670174      
                  5.16750675        -1.382670174      -0.1622882206     -0.2472595165     
3060005760        0.0182083453      0.01032559714     -3.706807125      -4.080449614      
                  -3.706807125      -4.080449614      -0.1188528492     0.1690012031      
3145005670        0.03698926765     -0.04452193832    -1.63785489       5.245893955       
                  -1.63785489       5.245893955       0.2321367737      -0.07091394596    
3230005580        -0.1021883629     -0.03394025394    5.2741501         -0.9849264659     
                  5.2741501         -0.9849264659     -0.2269433985     -0.2076121647     
3315005490        0.01166179005     0.03189995297     -3.433344504      -4.307346734      
                  -3.433344504      -4.307346734      -0.04571055416    0.2024942646      
3400005400        0.06110813241     -0.02887351256    -1.994013837      5.07745647        
                  -1.994013837      5.07745647        0.2014812942      -0.1450416899     
3485005310        -0.09743184074    -0.06386973838    5.377780763       -0.6144857455     
                  5.377780763       -0.6144857455     -0.2823180879     -0.1294194067     
3570005220        -0.02003740297    0.04964177442     -3.25279787       -4.499085547      
                  -3.25279787       -4.499085547      0.0334933176      0.2107118085      
3655005130        0.06903286093     0.00349534219     -2.193058444      4.946620431       
                  -2.193058444      4.946620431       0.1349833428      -0.2086385939     
3740005040        -0.07664466821    -0.09326980703    5.368259818       -0.2589305642     
                  5.368259818       -0.2589305642     -0.3117124931     -0.03931671779    
3825004950        -0.05877450355    0.03692136189     -2.978949177      -4.635814914      
                  -2.978949177      -4.635814914      0.1130158605      0.1760540294      
3910004860        0.0638944303      0.03761041954     -2.612995008      4.725534604       
                  -2.612995008      4.725534604       0.05025104743     -0.2592930385     
3995004770        -0.03080073635    -0.1114650111     5.40213951        0.06738911031     
                  5.40213951        0.06738911031     -0.3049961221     0.06562023122     
4080004680        -0.08452296512    0.007748349375    -2.706713875      -4.807178222      
                  -2.706713875      -4.807178222      0.1904192975      0.1280940741      
4165004590        0.03954573734     0.07001173884     -2.874320163      4.587967831       
                  -2.874320163      4.587967831       -0.04655106956    -0.2714168885     
4250004500        0.01201553925     -0.08807668965    5.490442028       0.3100353016      
                  5.490442028       0.3100353016      -0.2656402487     0.1759142801      
4335004410        -0.1012677008     -0.02006845666    -2.450935036      -4.916708247      
                  -2.450935036      -4.916708247      0.2295510696      0.04444256591     
4420004320        -0.007790244631   0.08374404164     -3.077689211      4.477207076       
                  -3.077689211      4.477207076       -0.1643437176     -0.2504189421     
4505004230        0.03820380758     -0.05667014037    5.442363492       0.4916019306      
                  5.442363492       0.4916019306      -0.1965759884     0.2589563004      
4590004140        -0.09944177769    -0.05224780791    -2.184385943      -4.956054991      
                  -2.184385943      -4.956054991      0.229503638       -0.05771498598    
4675004050        -0.045207177      0.07043537793     -3.177969815      4.356911028       
                  -3.177969815      4.356911028       -0.2554965206     -0.1911661859     
4760003960        0.05724204794     -0.01588635692    5.294197099       0.7260602376      
                  5.294197099       0.7260602376      -0.08632735448    0.3109014526      
4845003870        -0.07626848448    -0.06862611146    -1.936608732      -5.006309473      
                  -1.936608732      -5.006309473      0.200629025       -0.1548505909     
4930003780        -0.07664209618    0.04055181315     -3.363493059      4.176354737       
                  -3.363493059      4.176354737       -0.3192482334     -0.09933507038    
5015003690        0.04985177335     0.03758285619     5.164000954       0.9695581711      
                  5.164000954       0.9695581711      0.03562729558     0.3345174387      
5100003600        -0.05246467991    -0.0561489401     -1.763848704      -5.080568938      
                  -1.763848704      -5.080568938      0.1194656356      -0.2286251403     
5185003510        -0.09066879384    0.00409362583     -3.417136882      3.953575991       
                  -3.417136882      3.953575991       -0.3496632968     0.01163910821     
5270003420        0.01448099551     0.07180567381     5.031516117       1.200033462       
                  5.031516117       1.200033462       0.1497282851      0.2993042984      
5355003330        -0.0419311645     -0.02240111119    -1.648118248      -5.140238226      
                  -1.648118248      -5.140238226      -0.002039398596   -0.2786569643     
5440003240        -0.07129046181    -0.03934048112    -3.363150186      3.787162472       
                  -3.363150186      3.787162472       -0.3191125846     0.1322736721      
5525003150        -0.01882347737    0.06047072737     5.015593572       1.314811309       
                  5.015593572       1.314811309       0.2690626915      0.2010835311      
5610003060        -0.03899833096    0.0280975287      -1.593730896      -4.983398382      
                  -1.593730896      -4.983398382      -0.1365089625     -0.2675858285     
5695002970        -0.01341316524    -0.04343057383    -3.361875974      3.569797212       
                  -3.361875974      3.569797212       -0.221087987      0.2529052833      
5780002880        -0.02610081587    0.02325967899     4.967952794       1.408340974       
                  4.967952794       1.408340974       0.3292349141      0.05769368339     
5865002790        -0.07679040443    0.07635085993     -1.494749652      -4.72078561       
                  -1.494749652      -4.72078561       -0.2718180611     -0.1854346607     
5950002700        0.03653147424     0.005120003593    -3.398391301      3.362775863       
                  -3.398391301      3.362775863       -0.08286841339    0.3327674995      
6035002610        -0.01871175194    -0.03924398566    4.753694631       1.304201903       
                  4.753694631       1.304201903       0.2979682236      -0.09822019974    
6120002520        -0.1451674848     0.07388752945     -1.377217815      -4.462216308      
                  -1.377217815      -4.462216308      -0.3586401292     -0.04510569797    
6205002430        0.07167076992     0.08841409691     -3.285602816      3.156128757       
                  -3.285602816      3.156128757       0.1017640186      0.3377234711      
6290002340        0.06024730416     -0.09112343394    4.527849019       1.163712237       
                  4.527849019       1.163712237       0.1943733374      -0.2479155537     
6375002250        -0.2152691345     0.008134212172    -1.27804642       -4.166974135      
                  -1.27804642       -4.166974135      -0.3760036436     0.1300259113      
6460002160        0.02981652511     0.206974087       -3.037646712      2.955798847       
                  -3.037646712      2.955798847       0.2707081415      0.2717779041      
6545002070        0.176534555       -0.05999849941    4.124131569       1.067459273       
                  4.124131569       1.067459273       0.0285559254      -0.3199391009     
6630001980        -0.2076017429     -0.1106706403     -1.133718987      -3.858334332      
                  -1.133718987      -3.858334332      -0.2980517323     0.3023622524      
6715001890        -0.0718834122     0.275120893       -2.735040742      2.638334926       
                  -2.735040742      2.638334926       0.3838776089      0.1563062647      
6800001800        0.2664570418      0.05526515282     3.635206391       1.126271759       
                  3.635206391       1.126271759       -0.1316246845     -0.3086526583     
6885001710        -0.1032280697     -0.240677143      -0.8203653697     -3.510067154      
                  -0.8203653697     -3.510067154      -0.1874895533     0.3880965686      
6970001620        -0.2096374278     0.2337035752      -2.643540943      2.228424588       
                  -2.643540943      2.228424588       0.423573687       0.02317066801     
7055001530        0.26326136        0.2074507922      3.227834479       1.243535756       
                  3.227834479       1.243535756       -0.257122487      -0.271102852      
7140001440        0.08169132441     -0.29982285       -0.5417451633     -3.233492328      
                  -0.5417451633     -3.233492328      -0.06254720506    0.4538647545      
7225001350        -0.2967913136     0.09636180894     -2.581906785      1.901513614       
                  -2.581906785      1.901513614       0.4528684572      -0.1035135573     
7310001260        0.1701454174      0.3473085515      2.868325085       1.162181177       
                  2.868325085       1.162181177       -0.358310353      -0.1848566253     
7395001170        0.2850030359      -0.2276049395     -0.2475290384     -2.969786805      
                  -0.2475290384     -2.969786805      0.07732176907     0.4819757875      
7480001080        -0.2989413769     -0.1109967448     -2.418029124      1.613723742       
                  -2.418029124      1.613723742       0.394628177       -0.2374952254     
7565000990        -0.03131529135    0.399946949       2.618839087       1.165053984       
                  2.618839087       1.165053984       -0.4249309759     -0.08412986808    
7650000900        0.4010398785      -0.05649999873    -0.0544067492     -2.612961569      
                  -0.0544067492     -2.612961569      0.2136020866      0.4384639673      
7735000810        -0.1610989631     -0.3069979452     -2.300588119      1.344456486       
                  -2.300588119      1.344456486       0.3178461969      -0.3459621168     
7820000720        -0.207178588      0.3174553819      2.278160893       1.241118344       
                  2.278160893       1.241118344       -0.4054873829     0.02506840422     
7905000630        0.4148668861      0.1384741251      0.09584440156     -2.301295735      
                  0.09584440156     -2.301295735      0.3246337988      0.3621689266      
7990000540        0.06630128842     -0.390794743      -2.216355257      0.927157199       
                  -2.216355257      0.927157199       0.2216514434      -0.4073888914     
8075000450        -0.3508451175     0.1202357566      1.908840755       1.434102446       
                  1.908840755       1.434102446       -0.388427661      0.1191701565      
8160000360        0.297672234       0.3132677269      0.2513852319      -2.191837463      
                  0.2513852319      -2.191837463      0.3994252538      0.2798029875      
8245000270        0.2580033909      -0.3369944053     -2.040581289      0.6161027588      
                  -2.040581289      0.6161027588      0.1147986676      -0.443643664      
8330000180        -0.3664965956     -0.1322636596     1.63908916        1.500105979       
                  1.63908916        1.500105979       -0.3435642161     0.1937128505      
8415000090        0.07856201905     0.3932332335      0.3848940225      -1.997838078      
                  0.3848940225      -1.997838078      0.4356718891      0.167628902       
8500000000        0.3831342416      -0.1858564413     -1.832736748      0.4472855309      
                  -1.832736748      0.4472855309      -0.004627459741   -0.4599423584     
