! RsaToolbox (C) 2013 Rohde & Schwarz America
! 
! Number of points: 101
! Number of ports: 2
! Balanced ports?: 0
! 
! 
# Hz S RI R 50
9000              1.008100863       -0.01814266047    9.092276586e-05   -8.522049341e-06  
                  9.092276586e-05   -8.522049341e-06  1.017504848       -0.02340778057    
85008910          0.001852946369    0.1577599121      3.1927233         5.488371293       
                  3.1927233         5.488371293       -0.0922268742     -0.1156495315     
170008820         0.1415022989      -0.04333310612    3.179036445       -5.219070773      
                  3.179036445       -5.219070773      -0.02058450853    0.1716033775      
255008730         -0.1751507801     -0.07548355667    -6.050407632      -0.1604905741     
                  -6.050407632      -0.1604905741     0.07767127775     -0.02662064125    
340008640         -0.06343870795    0.1688445651      2.654327046       5.344264609       
                  2.654327046       5.344264609       -0.1265718832     -0.05385528933    
425008550         0.1583790142      -0.04615773109    3.377660586       -4.867325864      
                  3.377660586       -4.867325864      0.01661808327     0.1028882475      
510008460         -0.101154975      -0.1626942728     -5.899664834      -0.6355794613     
                  -5.899664834      -0.6355794613     0.07080023254     -0.0796832402     
595008370         -0.1069137355     0.1388938293      2.235571028       5.415384329       
                  2.235571028       5.415384329       -0.08386598947    -0.01220160484    
680008280         0.2034358563      0.03372112324     3.650270207       -4.576784594      
                  3.650270207       -4.576784594      0.09216756617     0.07531545218     
765008190         0.009646789192    -0.1626845843     -5.725735787      -1.090672723      
                  -5.725735787      -1.090672723      0.06011611051     -0.06074846909    
850008100         -0.1810895602     0.1109471129      1.879153379       5.512388096       
                  1.879153379       5.512388096       -0.07170871989    0.06509054823     
935008010         0.1447950001      0.1230207276      3.933481446       -4.232954201      
                  3.933481446       -4.232954201      0.1020116235      0.0388866102      
1020007920        0.07528600249     -0.152964824      -5.583770891      -1.435961062      
                  -5.583770891      -1.435961062      -0.004598522551   -0.07567631488    
1105007830        -0.2244708998     -0.008495884659   1.489715552       5.605209959       
                  1.489715552       5.605209959       -0.06302700671    0.07525915442     
1190007740        0.07077748766     0.1392618452      4.179964521       -3.860241344      
                  4.179964521       -3.860241344      0.1243935456      -0.0425078491     
1275007650        0.163600635       -0.107923378      -5.463382642      -1.815451822      
                  -5.463382642      -1.815451822      -0.03006465941    -0.08914228102    
1360007560        -0.1625772896     -0.1002124167     1.055027302       5.631548946       
                  1.055027302       5.631548946       -0.005546796905   0.1017284636      
1445007470        0.0006077565572   0.1407295928      4.394662575       -3.545783345      
                  4.394662575       -3.545783345      0.1472125268      -0.0883592272     
1530007380        0.1834037053      -0.01097141695    -5.302874883      -2.170993982      
                  -5.302874883      -2.170993982      -0.0692965189     -0.06456505865    
1615007290        -0.09333468386    -0.1227666827     0.6335644475      5.589691647       
                  0.6335644475      5.589691647       0.0230935427      0.1422561367      
1700007200        -0.08777025709    0.09595826        4.65111703        -3.249219508      
                  4.65111703        -3.249219508      0.1108615049      -0.1334724058     
1785007110        0.1265957143      0.03151786214     -5.060270539      -2.509389291      
                  -5.060270539      -2.509389291      -0.1319305111     -0.06403225686    
1870007020        -0.02150482201    -0.1342538193     0.2396562856      5.594431578       
                  0.2396562856      5.594431578       0.06585496463     0.1321588171      
1955006930        -0.1054509416     0.02073194        4.856498708       -2.89650182       
                  4.856498708       -2.89650182       0.08926063764     -0.1939401566     
2040006840        0.08133221504     0.03782984093     -4.823427001      -2.791652019      
                  -4.823427001      -2.791652019      -0.1547546463     -0.04161775794    
2125006750        0.0356057589      -0.09128026511    -0.173278039      5.621469769       
                  -0.173278039      5.621469769       0.1309587538      0.1369610467      
2210006660        -0.09027090365    -0.0008635208489  4.949628214       -2.543635936      
                  4.949628214       -2.543635936      0.04802842016     -0.2180447983     
2295006570        0.02861748985     0.03454163179     -4.591579772      -3.118228995      
                  -4.591579772      -3.118228995      -0.1862485235     0.0153253469      
2380006480        0.02729478094     -0.05115170872    -0.5363406297     5.557453134       
                  -0.5363406297     5.557453134       0.1670106187      0.1140028274      
2465006390        -0.08563220918    -0.01558310087    5.024708259       -2.224975889      
                  5.024708259       -2.224975889      -0.01962677104    -0.2596336441     
2550006300        0.01167076487     -0.00130822493    -4.282337201      -3.455267639      
                  -4.282337201      -3.455267639      -0.191016573      0.06059039486     
2635006210        0.02322877841     -0.04426406824    -0.869898594      5.49798748        
                  -0.869898594      5.49798748        0.2135347624      0.06409338603     
2720006120        -0.08087654615    -0.008671292277   5.098884248       -1.854515903      
                  5.098884248       -1.854515903      -0.09059800198    -0.2647191398     
2805006030        0.01899263654     -0.00222002591    -3.998111255      -3.698921464      
                  -3.998111255      -3.698921464      -0.1630371844     0.1234000375      
2890005940        0.0184822         -0.03730117687    -1.204436345      5.370073689       
                  -1.204436345      5.370073689       0.232227684       0.009016362108    
2975005850        -0.09430194322    -0.005279207429   5.128168949       -1.396083412      
                  5.128168949       -1.396083412      -0.1624314212     -0.2475722924     
3060005760        0.02087542584     0.00830070178     -3.699679245      -4.038488606      
                  -3.699679245      -4.038488606      -0.1190024045     0.1687505668      
3145005670        0.03375009366     -0.04646271558    -1.599644649      5.216593444       
                  -1.599644649      5.216593444       0.2319360846      -0.07160808978    
3230005580        -0.1024351371     -0.03023219787    5.234749971       -0.9960061386     
                  5.234749971       -0.9960061386     -0.2273118128     -0.2077106693     
3315005490        0.01456827387     0.03164223179     -3.430096001      -4.26045016       
                  -3.430096001      -4.26045016       -0.04601001845    0.2028219418      
3400005400        0.05998207037     -0.03237280328    -1.948997216      5.051018541       
                  -1.948997216      5.051018541       0.2015868589      -0.1449553083     
3485005310        -0.1000890829     -0.06139815997    5.332041515       -0.6379821266     
                  5.332041515       -0.6379821266     -0.2821186873     -0.1297168126     
3570005220        -0.01699039556    0.05090612185     -3.253254304      -4.440853023      
                  -3.253254304      -4.440853023      0.03357670669     0.2107124873      
3655005130        0.06944300238     -2.749008647e-05  -2.136736125      4.914499429       
                  -2.136736125      4.914499429       0.1352233551      -0.2085161302     
3740005040        -0.08073787283    -0.09237788214    5.316183167       -0.2890418252     
                  5.316183167       -0.2890418252     -0.3119283372     -0.03972808837    
3825004950        -0.05644802121    0.04067665831     -2.987702325      -4.561333844      
                  -2.987702325      -4.561333844      0.1134404128      0.1762836223      
3910004860        0.06671292479     0.03396203398     -2.546090679      4.694207106       
                  -2.546090679      4.694207106       0.05064696243     -0.2590033941     
3995004770        -0.03525166444    -0.1125605611     5.340334554       0.02166733721     
                  5.340334554       0.02166733721     -0.305466759      0.06546347107     
4080004680        -0.08447612862    0.01316417479     -2.710580077      -4.728735827      
                  -2.710580077      -4.728735827      0.1909165383      0.1286455957      
4165004590        0.04435941888     0.06809700932     -2.813757019      4.548802177       
                  -2.813757019      4.548802177       -0.04635061194    -0.2717422647     
4250004500        0.007571815165    -0.09204291283    5.419999539       0.2683822841      
                  5.419999539       0.2683822841      -0.2658368743     0.1756873531      
4335004410        -0.1039051615     -0.01432405499    -2.456371703      -4.829308096      
                  -2.456371703      -4.829308096      0.2300702145      0.0446320347      
4420004320        -0.001362667418   0.08387656383     -3.000939178      4.435441208       
                  -3.000939178      4.435441208       -0.1638245187     -0.2508278031     
4505004230        0.03593621936     -0.06295009841    5.361221327       0.4348877095      
                  5.361221327       0.4348877095      -0.1967446731     0.2590513761      
4590004140        -0.1054256488     -0.04765695176    -2.195647039      -4.855187883      
                  -2.195647039      -4.855187883      0.2296712628      -0.05751694938    
4675004050        -0.03888867929    0.07389092168     -3.083405989      4.314364703       
                  -3.083405989      4.314364703       -0.2552933383     -0.1914662381     
4760003960        0.05792240429     -0.02324344503    5.20680427        0.6620451046      
                  5.20680427        0.6620451046      -0.08646687412    0.3110868614      
4845003870        -0.08399722988    -0.06675277018    -1.950841623      -4.892868143      
                  -1.950841623      -4.892868143      0.2004308787      -0.1548611254     
4930003780        -0.07211772602    0.04763015636     -3.250609329      4.127404566       
                  -3.250609329      4.127404566       -0.3195983202     -0.09968305211    
5015003690        0.05439876445     0.03059835775     5.074926486       0.8975408385      
                  5.074926486       0.8975408385      0.03548786056     0.3346444029      
5100003600        -0.06048116045    -0.05846024635    -1.784465789      -4.945495449      
                  -1.784465789      -4.945495449      0.1197214243      -0.2293306721     
5185003510        -0.08988509899    0.01303637281     -3.296442196      3.901256978       
                  -3.296442196      3.901256978       -0.3498535517     0.01105631376     
5270003420        0.02222847823     0.06665128689     4.933596821       1.120869034       
                  4.933596821       1.120869034       0.1497377575      0.2997238051      
5355003330        -0.04967930255    -0.02906376148    -1.675985035      -4.982109611      
                  -1.675985035      -4.982109611      -0.001972461624   -0.2792510407     
5440003240        -0.07464350072    -0.03017868443    -3.242291787      3.731428399       
                  -3.242291787      3.731428399       -0.3197447799     0.132023612       
5525003150        -0.009087538385   0.05973947017     4.906134763       1.228670552       
                  4.906134763       1.228670552       0.2687691949      0.2016656745      
5610003060        -0.04234218812    0.01795216863     -1.615161957      -4.821080293      
                  -1.615161957      -4.821080293      -0.1366474061     -0.2678678941     
5695002970        -0.02087125476    -0.03574871724    -3.237354771      3.512178347       
                  -3.237354771      3.512178347       -0.2213844687     0.2529540672      
5780002880        -0.0165178138     0.0271365423      4.843950696       1.312365769       
                  4.843950696       1.312365769       0.3296486591      0.05808034427     
5865002790        -0.0757012494     0.06562613198     -1.505005467      -4.56649465       
                  -1.505005467      -4.56649465       -0.2722147049     -0.1854595943     
5950002700        0.0267267194      0.008791688422    -3.267474853      3.303676772       
                  -3.267474853      3.303676772       -0.08299405536    0.3331508359      
6035002610        -0.01162184475    -0.03097468137    4.622234442       1.213182191       
                  4.622234442       1.213182191       0.2988386386      -0.09726055248    
6120002520        -0.1392336642     0.06515619331     -1.378394009      -4.320572966      
                  -1.378394009      -4.320572966      -0.3583649212     -0.04556084634    
6205002430        0.06134616093     0.08716993669     -3.164423977      3.097869749       
                  -3.164423977      3.097869749       0.102022785       0.3376495184      
6290002340        0.06293345586     -0.08080182191    4.39849702        1.092640697       
                  4.39849702        1.092640697       0.1951228479      -0.2479885609     
6375002250        -0.2070999981     0.003184702463    -1.269082602      -4.047525559      
                  -1.269082602      -4.047525559      -0.3762103608     0.1298057548      
6460002160        0.02223260724     0.2012441312      -2.941431205      2.899963177       
                  -2.941431205      2.899963177       0.2709263883      0.2724709155      
6545002070        0.1740908192      -0.05080588203    4.011660324       1.013974043       
                  4.011660324       1.013974043       0.02886238159     -0.3201606228     
6630001980        -0.1982699952     -0.1119442552     -1.120028014      -3.757905605      
                  -1.120028014      -3.757905605      -0.2986523111     0.3022363937      
6715001890        -0.07575587098    0.2680860256      -2.6616255        2.587426898       
                  -2.6616255        2.587426898       0.3839855713      0.1562725457      
6800001800        0.2604800584      0.06155046607     3.548985486       1.08433993        
                  3.548985486       1.08433993        -0.1313983851     -0.3088848614     
6885001710        -0.09586070558    -0.2378784768     -0.8129273838     -3.428443561      
                  -0.8129273838     -3.428443561      -0.1888488364     0.3881483281      
6970001620        -0.2102413735     0.2266555968      -2.586273888      2.189039709       
                  -2.586273888      2.189039709       0.4233881617      0.02364098768     
7055001530        0.257091157       0.2100385718      3.167391322       1.213091584       
                  3.167391322       1.213091584       -0.257082637      -0.271387877      
7140001440        0.08543202537     -0.295283034      -0.5330166178     -3.180425939      
                  -0.5330166178     -3.180425939      -0.0634834806     0.4541747263      
7225001350        -0.2948900425     0.09120555184     -2.540453431      1.871839339       
                  -2.540453431      1.871839339       0.4527556294      -0.1033970883     
7310001260        0.1653755006      0.3467985138      2.827505941       1.146011794       
                  2.827505941       1.146011794       -0.3587024842     -0.185088372      
7395001170        0.286253554       -0.2228522024     -0.2421730508     -2.928598485      
                  -0.2421730508     -2.928598485      0.07710642053     0.4821497436      
7480001080        -0.2953298577     -0.1144935776     -2.382797572      1.588671216       
                  -2.382797572      1.588671216       0.3948529452      -0.2372419455     
7565000990        -0.03520007905    0.3976419454      2.582039506       1.151601815       
                  2.582039506       1.151601815       -0.4250261761     -0.08434600362    
7650000900        0.399852184       -0.05295628194    -0.05061815476    -2.585072762      
                  -0.05061815476    -2.585072762      0.212656949       0.4389783022      
7735000810        -0.1581297923     -0.3074318588     -2.279035559      1.329807298       
                  -2.279035559      1.329807298       0.3174212711      -0.3462035278     
7820000720        -0.2092077334     0.3147510037      2.254069693       1.234446078       
                  2.254069693       1.234446078       -0.4061808842     0.0248552903      
7905000630        0.4127592372      0.1407286099      0.1010604615      -2.284287917      
                  0.1010604615      -2.284287917      0.3243926749      0.3626629266      
7990000540        0.06864695913     -0.3899010632     -2.200597311      0.911520768       
                  -2.200597311      0.911520768       0.2217772566      -0.4072750733     
8075000450        -0.3510323281     0.1173940835      1.888431441       1.428486025       
                  1.888431441       1.428486025       -0.3881334973     0.1188346185      
8160000360        0.295259099       0.314314402       0.2561466259      -2.175957637      
                  0.2561466259      -2.175957637      0.3994826374      0.2801413324      
8245000270        0.2589509974      -0.3356704719     -2.030195332      0.6072305899      
                  -2.030195332      0.6072305899      0.114551629       -0.4443465713     
8330000180        -0.3652619953     -0.1342897248     1.624128854       1.494696169       
                  1.624128854       1.494696169       -0.3434884408     0.19329702        
8415000090        0.07672066022     0.3926900866      0.3877650841      -1.986897167      
                  0.3877650841      -1.986897167      0.4360222268      0.1674746542      
8500000000        0.3834773275      -0.1844555463     -1.825977358      0.4404723604      
                  -1.825977358      0.4404723604      -0.004309435502   -0.4604776668     
