! RsaToolbox (C) 2013 Rohde & Schwarz America
! 
! Number of points: 101
! Number of ports: 2
! Balanced ports?: 0
! 
! 
# Hz S RI R 50
9000              0.9802942042      -0.007350924933   7.114611578e-05   -1.060423326e-05  
                  7.114611578e-05   -1.060423326e-05  0.9940524722      -0.01681873128    
85008910          -0.07924145646    -0.05385582968    2.059265929       3.289685533       
                  2.059265929       3.289685533       -0.09223855819    -0.117080323      
170008820         0.007816336587    0.08961631557     1.997557495       -3.615710988      
                  1.997557495       -3.615710988      -0.02131983218    0.1719018245      
255008730         -0.01411248703    -0.02016292598    -4.161722863      0.1705977747      
                  -4.161722863      0.1705977747      0.07795705941     -0.02676857863    
340008640         -0.069052361      0.006122123763    2.11858703        3.588248903       
                  2.11858703        3.588248903       -0.127159696      -0.05468548225    
425008550         0.01311350766     0.01665070098     2.095921618       -3.612832083      
                  2.095921618       -3.612832083      0.01611573124     0.1030378073      
510008460         0.01076738683     -0.05446532218    -4.167845426      -0.07973910664    
                  -4.167845426      -0.07973910664    0.07108116223     -0.08011248557    
595008370         -0.04078030257    -0.008774377542   1.911209622       3.769547122       
                  1.911209622       3.769547122       -0.08437810234    -0.0125585382     
680008280         0.04922827547     0.04355602203     2.205740895       -3.443712463      
                  2.205740895       -3.443712463      0.09215228142     0.07597586371     
765008190         0.05761951671     -0.003922020637   -4.174878026      -0.4218181047     
                  -4.174878026      -0.4218181047     0.0605623632      -0.06101366655    
850008100         -0.0736921129     0.002666792428    1.738181219       3.71866187        
                  1.738181219       3.71866187        -0.07236253327    0.0648752001      
935008010         0.009085797724    0.04837103338     2.48854272        -3.358142934      
                  2.48854272        -3.358142934      0.1023461716      0.03901944833     
1020007920        0.0294566235      0.01277892597     -4.163104318      -0.5433731665     
                  -4.163104318      -0.5433731665     -0.00499953289    -0.07651718454    
1105007830        -0.07949640183    -0.04963672644    1.598965479       3.7119209         
                  1.598965479       3.7119209         -0.0638975048     0.07525272322     
1190007740        0.0006388876163   -0.04195349208    2.655930459       -3.222298624      
                  2.655930459       -3.222298624      0.1244580433      -0.04229101935    
1275007650        0.05605856275     0.02148560473     -4.077739787      -0.6984034461     
                  -4.077739787      -0.6984034461     -0.0304750519     -0.08956153302    
1360007560        0.0004089161872   -0.03929810128    1.38952551        3.850533726       
                  1.38952551        3.850533726       -0.006160785007   0.1023381725      
1445007470        0.03316616374     -0.06873743883    2.747256845       -3.105188052      
                  2.747256845       -3.105188052      0.1476196267      -0.08823249126    
1530007380        -0.00276988242    0.04968503947     -3.898848231      -0.7666423134     
                  -3.898848231      -0.7666423134     -0.06994849913    -0.06510016949    
1615007290        0.03543326952     0.0661748588      1.255099026       3.755806403       
                  1.255099026       3.755806403       0.02254104453     0.1428036598      
1700007200        0.04812790136     -0.08821538431    2.653439497       -2.943335146      
                  2.653439497       -2.943335146      0.1112291926      -0.1337995662     
1785007110        -0.09848691694    -0.03486795122    -3.854722458      -0.9361293196     
                  -3.854722458      -0.9361293196     -0.1329079385     -0.06464305903    
1870007020        -0.0063815695     0.1094117019      1.106407488       3.782771615       
                  1.106407488       3.782771615       0.06524038935     0.1328723206      
1955006930        0.1162836996      -0.07277899059    2.77472355        -2.859573202      
                  2.77472355        -2.859573202      0.08964435609     -0.194560373      
2040006840        -0.09129852408    -0.1478282401     -3.835316627      -1.073283804      
                  -3.835316627      -1.073283804      -0.1558869534     -0.04208486976    
2125006750        -0.08364610654    0.1365210614      1.008128148       3.828239753       
                  1.008128148       3.828239753       0.1308956584      0.1375550261      
2210006660        0.1802226016      0.02375678311     2.741539253       -2.717735841      
                  2.741539253       -2.717735841      0.04828237283     -0.2191169193     
2295006570        -0.04017911874    -0.2320382693     -3.680612418      -1.105966695      
                  -3.680612418      -1.105966695      -0.1872278383     0.01484469807     
2380006480        -0.1942051177     0.09929274076     0.8433240122      3.793500834       
                  0.8433240122      3.793500834       0.1671328258      0.1142653987      
2465006390        0.1617424135      0.1417808846      2.704232057       -2.555598719      
                  2.704232057       -2.555598719      -0.01951953168    -0.2609773513     
2550006300        0.07362655187     -0.2701210553     -3.550421847      -1.331034485      
                  -3.550421847      -1.331034485      -0.1918200611     0.06054500582     
2635006210        -0.2508597825     -0.007335547101   0.6659012335      3.698091901       
                  0.6659012335      3.698091901       0.2141347247      0.06405065554     
2720006120        0.0701746096      0.246867953       2.798070785       -2.342184924      
                  2.798070785       -2.342184924      -0.09071559409    -0.2661305129     
2805006030        0.2003988696      -0.2229845386     -3.347971421      -1.383668142      
                  -3.347971421      -1.383668142      -0.1637417618     0.1229941436      
2890005940        -0.2496514349     -0.1356439386     0.4710238336      3.572247391       
                  0.4710238336      3.572247391       0.2331849453      0.008581901221    
2975005850        -0.07740424785    0.286226576       2.924110773       -1.974379469      
                  2.924110773       -1.974379469      -0.1623309465     -0.2494499376     
3060005760        0.2791834223      -0.09833825791    -3.188548659      -1.677194846      
                  -3.188548659      -1.677194846      -0.119300492      0.168505571       
3145005670        -0.166806022      -0.2536166855     0.1417090217      3.520253631       
                  0.1417090217      3.520253631       0.2328615377      -0.07208618766    
3230005580        -0.2131510287     0.2286010221      3.081132214       -1.657977091      
                  3.081132214       -1.657977091      -0.22684642       -0.2092611982     
3315005490        0.3015452664      0.04769431082     -2.953023934      -1.767575324      
                  -2.953023934      -1.767575324      -0.04585608898    0.2029656667      
3400005400        -0.03520558073    -0.3091640009     -0.1395584363     3.397666688       
                  -0.1395584363     3.397666688       0.2031129774      -0.1453955906     
3485005310        -0.3159341488     0.1238999582      3.077750773       -1.404836256      
                  3.077750773       -1.404836256      -0.2819648824     -0.1308314527     
3570005220        0.2427645584      0.1910411927      -2.754619152      -1.866341952      
                  -2.754619152      -1.866341952      0.03405754202     0.2118037297      
3655005130        0.09844792454     -0.2951564695     -0.3084563312     3.240850776       
                  -0.3084563312     3.240850776       0.1366338525      -0.2085538309     
3740005040        -0.350970856      -0.01956948816    3.025819331       -1.162423731      
                  3.025819331       -1.162423731      -0.3116964355     -0.04023814237    
3825004950        0.1180653903      0.2819924353      -2.488597301      -1.953324802      
                  -2.488597301      -1.953324802      0.1145716148      0.1783958265      
3910004860        0.2274757753      -0.2203004068     -0.5613031024     3.077429486       
                  -0.5613031024     3.077429486       0.05305153453     -0.2586812942     
3995004770        -0.3181140079     -0.1661606567     2.925443096       -0.9314051707     
                  2.925443096       -0.9314051707     -0.3056992349     0.06572190025     
4080004680        -0.03228342491    0.315177352       -2.213144464      -2.024900496      
                  -2.213144464      -2.024900496      0.1934636744      0.128894646       
4165004590        0.2983532611      -0.09569790313    -0.7674806177     2.948537784       
                  -0.7674806177     2.948537784       -0.04601355383    -0.274849271      
4250004500        -0.2291312365     -0.265089278      2.901511035       -0.7027275473     
                  2.901511035       -0.7027275473     -0.2650763383     0.1766172021      
4335004410        -0.1873055683     0.2705527163      -2.034434166      -2.173084262      
                  -2.034434166      -2.173084262      0.2321753089      0.04477260365     
4420004320        0.2918985649      0.04932509738     -0.9537008382     2.8465431         
                  -0.9537008382     2.8465431         -0.1636289096     -0.252056363      
4505004230        -0.101136252      -0.316966939      2.863371199       -0.5345768666     
                  2.863371199       -0.5345768666     -0.1972733944     0.2598554627      
4590004140        -0.2964150274     0.1720889682      -1.801014037      -2.193452418      
                  -1.801014037      -2.193452418      0.2307257375      -0.0574118086     
4675004050        0.2332344881      0.169497561       -1.050744483      2.672032496       
                  -1.050744483      2.672032496       -0.2560733311     -0.1922324716     
4760003960        0.04433802871     -0.3107758345     2.760319805       -0.3405494267     
                  2.760319805       -0.3405494267     -0.08757372315    0.3120964188      
4845003870        -0.3410036326     0.04474360667     -1.57543021       -2.223396934      
                  -1.57543021       -2.223396934      0.2011612059      -0.1548334856     
4930003780        0.1189833863      0.252602912       -1.216117287      2.497960773       
                  -1.216117287      2.497960773       -0.3209960824     -0.1005489248     
5015003690        0.1639074179      -0.2355573295     2.675649718       -0.1284229402     
                  2.675649718       -0.1284229402     0.03511518568     0.3362839176      
5100003600        -0.3272458243     -0.07711321244    -1.416696174      -2.255033709      
                  -1.416696174      -2.255033709      0.1199501935      -0.2297548261     
5185003510        -0.01115556212    0.2776344095      -1.321308754      2.292394913       
                  -1.321308754      2.292394913       -0.3514183055     0.01068575533     
5270003420        0.2292452646      -0.1169991089     2.631443425       0.1084600537      
                  2.631443425       0.1084600537      0.1489194426      0.301493641       
5355003330        -0.2725074952     -0.1660808005     -1.274208486      -2.252171325      
                  -1.274208486      -2.252171325      -0.001671511444   -0.2804744099     
5440003240        -0.1144951665     0.2395155875      -1.386624539      2.170630188       
                  -1.386624539      2.170630188       -0.3214572917     0.1315015917      
5525003150        0.2438460384      -0.007154981178   2.580132672       0.2291350254      
                  2.580132672       0.2291350254      0.269129325       0.2030358469      
5610003060        -0.17862124       -0.2024120421     -1.17191906       -2.226282896      
                  -1.17191906       -2.226282896      -0.1361818215     -0.269232883      
5695002970        -0.1685199602     0.1832265867      -1.436773645      2.016317288       
                  -1.436773645      2.016317288       -0.2229072107     0.2527696995      
5780002880        0.2245429615      0.08567938774     2.506147349       0.3355587017      
                  2.506147349       0.3355587017      0.3304933826      0.05986051591     
5865002790        -0.1001132003     -0.1956171544     -1.016167454      -2.171195696      
                  -1.016167454      -2.171195696      -0.2713804329     -0.1871459416     
5950002700        -0.1910311826     0.1353620753      -1.48557311       1.875808375       
                  -1.48557311       1.875808375       -0.08409538549    0.3341852925      
6035002610        0.1710273854      0.1297269932      2.364623887       0.3820213686      
                  2.364623887       0.3820213686      0.3009493405      -0.09550248695    
6120002520        -0.04369066189    -0.1758045748     -0.8803633085     -2.125163197      
                  -0.8803633085     -2.125163197      -0.3579004475     -0.04711578815    
6205002430        -0.1844243249     0.1011486685      -1.477990694      1.757956878       
                  -1.477990694      1.757956878       0.1024220799      0.3396294824      
6290002340        0.1503140389      0.1446018887      2.251496013       0.4084181125      
                  2.251496013       0.4084181125      0.1982466861      -0.2476087511     
6375002250        -0.02188187133    -0.1727820178     -0.7730763164     -2.070700241      
                  -0.7730763164     -2.070700241      -0.3766063454     0.1281094595      
6460002160        -0.1969553319     0.1097968491      -1.44587992       1.657016128       
                  -1.44587992       1.657016128       0.2714923326      0.2738424442      
6545002070        0.1549040249      0.1831521977      2.108764636       0.4291811215      
                  2.108764636       0.4291811215      0.03068095876     -0.3210835963     
6630001980        0.03312574298     -0.1886241273     -0.6690834073     -1.988602569      
                  -0.6690834073     -1.988602569      -0.3000108629     0.3023176069      
6715001890        -0.2299628222     0.09903943841     -1.374641516      1.484001168       
                  -1.374641516      1.484001168       0.3845733407      0.1578726382      
6800001800        0.1504221303      0.2535704903      1.918041074       0.4965530393      
                  1.918041074       0.4965530393      -0.130719854      -0.309585474      
6885001710        0.1338214987      -0.2067176833     -0.4834574769     -1.859021637      
                  -0.4834574769     -1.859021637      -0.1894939894     0.3889711218      
6970001620        -0.2736191425     0.02070863703     -1.422553238      1.2962776         
                  -1.422553238      1.2962776         0.4242109917      0.0252721401      
7055001530        0.09258499632     0.328874106       1.799309389       0.5988376401      
                  1.799309389       0.5988376401      -0.2573697321     -0.2721060268     
7140001440        0.2538302886      -0.1808056565     -0.3546595763     -1.835665917      
                  -0.3546595763     -1.835665917      -0.06475563468    0.4551824674      
7225001350        -0.2695105778     -0.1080274292     -1.455387871      1.140545082       
                  -1.455387871      1.140545082       0.4535920593      -0.1020686673     
7310001260        -0.004302617983   0.3779060437      1.726740936       0.6218612762      
                  1.726740936       0.6218612762      -0.3596269297     -0.1858704893     
7395001170        0.3724029471      -0.06554968153    -0.1936580695     -1.757838444      
                  -0.1936580695     -1.757838444      0.07592287532     0.4833204332      
7480001080        -0.1898415145     -0.2682275913     -1.414847764      0.9776911754      
                  -1.414847764      0.9776911754      0.3955834346      -0.2366993034     
7565000990        -0.2002742109     0.3530471182      1.561487001       0.6635721285      
                  1.561487001       0.6635721285      -0.4266917466     -0.08552703629    
7650000900        0.41177647        0.1004823835      -0.07820782115    -1.647788933      
                  -0.07820782115    -1.647788933      0.2117702739      0.4404322247      
7735000810        -0.02368397032    -0.3783514609     -1.463712381      0.8708083334      
                  -1.463712381      0.8708083334      0.3181425064      -0.3469071001     
7820000720        -0.3222992062     0.2238084821      1.474567829       0.7894304808      
                  1.474567829       0.7894304808      -0.4081375951     0.02393176813     
7905000630        0.3682789706      0.2620915093      0.03965781295     -1.538922271      
                  0.03965781295     -1.538922271      0.323991491       0.3639744543      
7990000540        0.2013666683      -0.3944938112     -1.457140674      0.6008306594      
                  -1.457140674      0.6008306594      0.2227294602      -0.408939617      
8075000450        -0.4079966614     -0.006230525639   1.258319306       0.9689912651      
                  1.258319306       0.9689912651      -0.3900593051     0.1182737804      
8160000360        0.2101624467      0.4038739599      0.1686349948      -1.487353979      
                  0.1686349948      -1.487353979      0.3999646188      0.2808414892      
8245000270        0.3626750553      -0.2914212752     -1.404910473      0.4362232163      
                  -1.404910473      0.4362232163      0.1146372344      -0.4456605984     
8330000180        -0.3589201875     -0.2527399746     1.120141509       1.030557868       
                  1.120141509       1.030557868       -0.3441075046     0.1931218357      
8415000090        -0.02755823396    0.4310644507      0.2665168816      -1.397698396      
                  0.2665168816      -1.397698396      0.4372047102      0.1675997959      
8500000000        0.4486731158      -0.1140915059     -1.320550003      0.3414901168      
                  -1.320550003      0.3414901168      -0.00351818607    -0.4627297683     
