! RsaToolbox (C) 2013 Rohde & Schwarz America
! 
! Number of points: 101
! Number of ports: 2
! Balanced ports?: 0
! 
! 
# Hz S RI R 50
9000              1.01843809        -0.023542734      5.059799818e-05   0.0001713059598   
                  5.059799818e-05   0.0001713059598   1.018323447       -0.03095029735    
85008910          0.002811310351    0.1595339078      3.193475282       5.523313364       
                  3.193475282       5.523313364       -0.09229909195    -0.115209508      
170008820         0.1425156117      -0.04456294458    3.19610885        -5.228854619      
                  3.19610885        -5.228854619      -0.02023480065    0.171838856       
255008730         -0.1764153632     -0.07594035442    -6.062704695      -0.1718881696     
                  -6.062704695      -0.1718881696     0.07750867474     -0.02616814783    
340008640         -0.06337327135    0.1704446232      2.655525915       5.360088415       
                  2.655525915       5.360088415       -0.1261127982     -0.05401000939    
425008550         0.159342906       -0.04648719061    3.39412509        -4.871109637      
                  3.39412509        -4.871109637      0.01652836626     0.1030231343      
510008460         -0.1018781761     -0.1637337711     -5.910375663      -0.6507206784     
                  -5.910375663      -0.6507206784     0.07070338349     -0.07956906331    
595008370         -0.1074621674     0.1402357131      2.225558603       5.434036449       
                  2.225558603       5.434036449       -0.08347556349    -0.01163623799    
680008280         0.2046784253      0.0337391349      3.669757553       -4.579148366      
                  3.669757553       -4.579148366      0.09255714873     0.07500522953     
765008190         0.009552983201    -0.163930389      -5.737748683      -1.109959605      
                  -5.737748683      -1.109959605      0.06003325827     -0.06058511203    
850008100         -0.1821842367     0.1114582154      1.869909368       5.53278767        
                  1.869909368       5.53278767        -0.07177775222    0.0652299936      
935008010         0.1460311775      0.1235955783      3.954344839       -4.234117015      
                  3.954344839       -4.234117015      0.102292229       0.03875028311     
1020007920        0.07571276531     -0.15441513       -5.593979247      -1.453898534      
                  -5.593979247      -1.453898534      -0.00469799192    -0.07535071217    
1105007830        -0.2252050708     -0.008364207691   1.4737368         5.62377495        
                  1.4737368         5.62377495        -0.06273810366    0.07530095439     
1190007740        0.07138737096     0.1408653865      4.203017131       -3.862698222      
                  4.203017131       -3.862698222      0.1248287256      -0.04298615669    
1275007650        0.1645800547      -0.1090057403     -5.4732904        -1.837023551      
                  -5.4732904        -1.837023551      -0.03005489305    -0.08932820223    
1360007560        -0.1638215205     -0.1006711906     1.040553669       5.651237985       
                  1.040553669       5.651237985       -0.005472049257   0.1015897847      
1445007470        0.0004375678863   0.1419286964      4.414404347       -3.544104953      
                  4.414404347       -3.544104953      0.1467642374      -0.08867113022    
1530007380        0.1851435412      -0.0114698917     -5.310934489      -2.193743699      
                  -5.310934489      -2.193743699      -0.06926372903    -0.06429893188    
1615007290        -0.09464316163    -0.1244720497     0.6160406736      5.6094938         
                  0.6160406736      5.6094938         0.02308703504     0.1424900786      
1700007200        -0.08859514583    0.09769342489     4.675154967       -3.244076113      
                  4.675154967       -3.244076113      0.1113940984      -0.1335703977     
1785007110        0.1288251245      0.03161277817     -5.065140949      -2.534114615      
                  -5.065140949      -2.534114615      -0.1317970349     -0.06393218556    
1870007020        -0.02188307622    -0.1364326818     0.2202279289      5.611192343       
                  0.2202279289      5.611192343       0.06610948936     0.1321608705      
1955006930        -0.1072229442     0.02194932991     4.881090507       -2.886375137      
                  4.881090507       -2.886375137      0.08935032628     -0.1939913313     
2040006840        0.08343722265     0.03943708503     -4.830065174      -2.817445658      
                  -4.830065174      -2.817445658      -0.1545850977     -0.04132427764    
2125006750        0.03643830609     -0.09350866912    -0.1950629058     5.640448928       
                  -0.1950629058     5.640448928       0.1312393394      0.1368696943      
2210006660        -0.09300999502    -0.0008659870418  4.979331033       -2.531909891      
                  4.979331033       -2.531909891      0.04813883546     -0.218186256      
2295006570        0.02957162953     0.0370689048      -4.596003687      -3.1499324        
                  -4.596003687      -3.1499324        -0.1858332769     0.01566352847     
2380006480        0.02933690382     -0.05321144975    -0.5603445162     5.578064207       
                  -0.5603445162     5.578064207       0.1668492737      0.1141581084      
2465006390        -0.08831843694    -0.01681517893    5.054930192       -2.215220243      
                  5.054930192       -2.215220243      -0.01966442188    -0.2591699188     
2550006300        0.01178019674     0.002036620712    -4.287996687      -3.488960392      
                  -4.287996687      -3.488960392      -0.1906627461     0.0607426051      
2635006210        0.02664189741     -0.04511833252    -0.9013609741     5.520972444       
                  -0.9013609741     5.520972444       0.2134276641      0.06400566995     
2720006120        -0.08307094471    -0.01137537312    5.133981718       -1.839023125      
                  5.133981718       -1.839023125      -0.09049713752    -0.2646619118     
2805006030        0.0172604412      0.001036075061    -4.004860936      -3.737058321      
                  -4.004860936      -3.737058321      -0.1629335721     0.1235822701      
2890005940        0.02231020095     -0.03671464645    -1.243706081      5.397134744       
                  -1.243706081      5.397134744       0.2320792359      0.009055987931    
2975005850        -0.09494993908    -0.008663423408   5.165812846       -1.383730835      
                  5.165812846       -1.383730835      -0.1621186273     -0.2477071641     
3060005760        0.01796929014     0.01062655655     -3.706975391      -4.081517486      
                  -3.706975391      -4.081517486      -0.1185844425     0.1686942645      
3145005670        0.0369323403      -0.04425372678    -1.640303138      5.245399772       
                  -1.640303138      5.245399772       0.2316022342      -0.07174828097    
3230005580        -0.1016791855     -0.0335802686     5.274621607       -0.9813265052     
                  5.274621607       -0.9813265052     -0.2269327912     -0.2075404622     
3315005490        0.01112540609     0.03199249231     -3.433786223      -4.306976488      
                  -3.433786223      -4.306976488      -0.04635870424    0.2029312503      
3400005400        0.06154286886     -0.02873264476    -1.99446163       5.078962376       
                  -1.99446163       5.078962376       0.2010539353      -0.1452061511     
3485005310        -0.09746569411    -0.06447773126    5.378418816       -0.6123490712     
                  5.378418816       -0.6123490712     -0.2822012135     -0.1291338628     
3570005220        -0.02059249956    0.04922768011     -3.253127791      -4.500311803      
                  -3.253127791      -4.500311803      0.03367649856     0.2110153628      
3655005130        0.06905679746     0.004048783191    -2.195601669      4.947434888       
                  -2.195601669      4.947434888       0.1343200713      -0.2087992439     
3740005040        -0.07721581396    -0.09347644622    5.370250228       -0.256758496      
                  5.370250228       -0.256758496      -0.3124510083     -0.03947388259    
3825004950        -0.05891875       0.0369179437      -2.978240566      -4.634185055      
                  -2.978240566      -4.634185055      0.1132436011      0.1763402235      
3910004860        0.06403813051     0.03784315326     -2.613532379      4.72389541        
                  -2.613532379      4.72389541        0.05071516042     -0.2589685547     
3995004770        -0.03085576504    -0.1115440877     5.401814985       0.06558146314     
                  5.401814985       0.06558146314     -0.3057011511     0.06571313536     
4080004680        -0.08501131884    0.007724347718    -2.708154716      -4.807794308      
                  -2.708154716      -4.807794308      0.1907335061      0.1281390406      
4165004590        0.03899268984     0.07039454369     -2.87532572       4.587536015       
                  -2.87532572       4.587536015       -0.046891076      -0.2712203221     
4250004500        0.01149444518     -0.08776624307    5.490359588       0.3097601976      
                  5.490359588       0.3097601976      -0.2656131636     0.1758932417      
4335004410        -0.1010853504     -0.02004391268    -2.450255283      -4.917977714      
                  -2.450255283      -4.917977714      0.2296552618      0.04478268803     
4420004320        -0.007469431991   0.08310208746     -3.07784415       4.474716678       
                  -3.07784415       4.474716678       -0.1640634727     -0.2506941122     
4505004230        0.03784709973     -0.05660473432    5.442110198       0.4872316802      
                  5.442110198       0.4872316802      -0.1966247283     0.2591944011      
4590004140        -0.0999597796     -0.0519198657     -2.183401671      -4.954021056      
                  -2.183401671      -4.954021056      0.2294154759      -0.05788232559    
4675004050        -0.04529771833    0.07050296772     -3.177555653      4.356527327       
                  -3.177555653      4.356527327       -0.2552348615     -0.1910904732     
4760003960        0.056840058       -0.01603205582    5.292619075       0.7262731834      
                  5.292619075       0.7262731834      -0.08624948022    0.3107624667      
4845003870        -0.07619544131    -0.06852497893    -1.937822264      -5.006866603      
                  -1.937822264      -5.006866603      0.2000020607      -0.1550895574     
4930003780        -0.07652973834    0.04044064415     -3.361421369      4.175142306       
                  -3.361421369      4.175142306       -0.3192204074     -0.0994767379     
5015003690        0.0496804404      0.03750022544     5.16535349        0.9664655254      
                  5.16535349        0.9664655254      0.03561812339     0.3345465676      
5100003600        -0.05166402358    -0.05584088292    -1.762820317      -5.077262142      
                  -1.762820317      -5.077262142      0.1194084552      -0.2291366764     
5185003510        -0.09057007833    0.003962965176    -3.4165498        3.952533655       
                  -3.4165498        3.952533655       -0.3496985204     0.01183645081     
5270003420        0.01437569323     0.07132405315     5.029017225       1.198853487       
                  5.029017225       1.198853487       0.149722412       0.2993273885      
5355003330        -0.04235506189    -0.02182008697    -1.645464788      -5.142201095      
                  -1.645464788      -5.142201095      -0.002686408293   -0.2787879696     
5440003240        -0.07141902318    -0.03936582945    -3.362753208      3.787098631       
                  -3.362753208      3.787098631       -0.3193439559     0.1320211984      
5525003150        -0.01853158035    0.06061911328     5.015379928       1.314073727       
                  5.015379928       1.314073727       0.2690205302      0.2012109651      
5610003060        -0.03857062702    0.02798056531     -1.595572206      -4.982070937      
                  -1.595572206      -4.982070937      -0.1365830167     -0.2677165398     
5695002970        -0.01371595812    -0.04333703187    -3.362625989      3.569753261       
                  -3.362625989      3.569753261       -0.2209329617     0.2527978197      
5780002880        -0.02619581344    0.02330771112     4.966481063       1.408077153       
                  4.966481063       1.408077153       0.329051744       0.05703602182     
5865002790        -0.07700591903    0.07620416088     -1.49376755       -4.72019107       
                  -1.49376755       -4.72019107       -0.273008444      -0.1848320994     
5950002700        0.036492053       0.004897520457    -3.396959706      3.36168135        
                  -3.396959706      3.36168135        -0.08271726983    0.3328323823      
6035002610        -0.01873617586    -0.03920394016    4.754820485       1.304853503       
                  4.754820485       1.304853503       0.2980481961      -0.09766121106    
6120002520        -0.1451295668     0.07355863036     -1.377319613      -4.462233296      
                  -1.377319613      -4.462233296      -0.3584580734     -0.04526909453    
6205002430        0.07128740015     0.08829480165     -3.285114051      3.155713408       
                  -3.285114051      3.155713408       0.1014976915      0.3374228435      
6290002340        0.06050761624     -0.09091260929    4.526859995       1.164571044       
                  4.526859995       1.164571044       0.1949632137      -0.2477308203     
6375002250        -0.215630198      0.008408915023    -1.278302416      -4.166106697      
                  -1.278302416      -4.166106697      -0.3761462231     0.1298503495      
6460002160        0.02943607729     0.2066711765      -3.037460275      2.955576565       
                  -3.037460275      2.955576565       0.2706640846      0.2719424688      
6545002070        0.1762979808      -0.05984454591    4.121781368       1.066859641       
                  4.121781368       1.066859641       0.02861164349     -0.3199328828     
6630001980        -0.2072795179     -0.1107281923     -1.133157522      -3.858244661      
                  -1.133157522      -3.858244661      -0.2984138799     0.3020625932      
6715001890        -0.07175331329    0.2751186875      -2.73469311       2.636897719       
                  -2.73469311       2.636897719       0.3840277074      0.1559321492      
6800001800        0.2660829596      0.05529841396     3.63645212        1.125757276       
                  3.63645212        1.125757276       -0.1315705181     -0.3085178077     
6885001710        -0.103145305      -0.2408845315     -0.8194927132     -3.509174936      
                  -0.8194927132     -3.509174936      -0.1881058262     0.3880536634      
6970001620        -0.2096690397     0.2334813789      -2.643033833      2.228105996       
                  -2.643033833      2.228105996       0.4230365985      0.02407369128     
7055001530        0.2633722333      0.2075217804      3.228107919       1.242608595       
                  3.228107919       1.242608595       -0.2571379052     -0.2711869182     
7140001440        0.0818924271      -0.2999606674     -0.5413426948     -3.234089649      
                  -0.5413426948     -3.234089649      -0.06286969792    0.4537881917      
7225001350        -0.2970748406     0.09670398927     -2.582475979      1.899961377       
                  -2.582475979      1.899961377       0.4522537763      -0.1042264429     
7310001260        0.1699627823      0.3472807139      2.867858096       1.162763166       
                  2.867858096       1.162763166       -0.3586838334     -0.1848264946     
7395001170        0.2853061592      -0.2275112034     -0.2461918908     -2.969296981      
                  -0.2461918908     -2.969296981      0.0775828665      0.4817331142      
7480001080        -0.2989925578     -0.11082676       -2.418055576      1.614091162       
                  -2.418055576      1.614091162       0.3948944498      -0.2371245388     
7565000990        -0.0310654771     0.4002422473      2.618449639       1.165981324       
                  2.618449639       1.165981324       -0.4246445192     -0.08411699245    
7650000900        0.4008324248      -0.0567202556     -0.05401446842    -2.612366318      
                  -0.05401446842    -2.612366318      0.2125939017      0.4387614933      
7735000810        -0.1615296323     -0.3067266707     -2.298684288      1.348142722       
                  -2.298684288      1.348142722       0.3172167537      -0.3462888714     
7820000720        -0.2069933844     0.3176433851      2.279633315       1.2411318         
                  2.279633315       1.2411318         -0.4060219032     0.02565075235     
7905000630        0.4145885002      0.1384226615      0.09624659931     -2.301682128      
                  0.09624659931     -2.301682128      0.3248298514      0.3623251108      
7990000540        0.06622450783     -0.3910036259     -2.216615388      0.9270752473      
                  -2.216615388      0.9270752473      0.2213595371      -0.4070157233     
8075000450        -0.3505959721     0.1204272178      1.909497893       1.433112936       
                  1.909497893       1.433112936       -0.3878595894     0.1176192286      
8160000360        0.2969367229      0.3131418613      0.2518176719      -2.191587104      
                  0.2518176719      -2.191587104      0.3995642441      0.2805057014      
8245000270        0.2576682355      -0.3370776084     -2.039836253      0.6165665564      
                  -2.039836253      0.6165665564      0.1148098753      -0.4435384176     
8330000180        -0.3666143712     -0.1321473916     1.639184109       1.499831528       
                  1.639184109       1.499831528       -0.3435631085     0.1939156565      
8415000090        0.07858853627     0.3932955108      0.3843477932      -1.998692236      
                  0.3843477932      -1.998692236      0.4356195586      0.1675364204      
8500000000        0.3828554399      -0.18588182       -1.831674071      0.4464990313      
                  -1.831674071      0.4464990313      -0.004830491663   -0.4606184909     
