! RsaToolbox (C) 2013 Rohde & Schwarz America
! 
! Number of points: 101
! Number of ports: 2
! Balanced ports?: 0
! 
! 
# Hz S RI R 50
9000              1.008896635       -0.01848077644    8.375805013e-05   6.792319369e-06   
                  8.375805013e-05   6.792319369e-06   1.016671482       -0.0235893935     
85008910          0.001991200627    0.1582022585      3.193470884       5.495429808       
                  3.193470884       5.495429808       -0.09229846904    -0.1156051511     
170008820         0.1416826099      -0.04350827176    3.180053436       -5.219843458      
                  3.180053436       -5.219843458      -0.02047169239    0.1716721086      
255008730         -0.1754193532     -0.07562372843    -6.05327872       -0.1612928034     
                  -6.05327872       -0.1612928034     0.07773624025     -0.02643561768    
340008640         -0.06350128591    0.1690725311      2.654975745       5.347551375       
                  2.654975745       5.347551375       -0.1266441969     -0.05386360596    
425008550         0.1587518166      -0.04617690718    3.380625207       -4.868327466      
                  3.380625207       -4.868327466      0.01675838281     0.1026236521      
510008460         -0.1012320242     -0.1629545178     -5.901659793      -0.6372342055     
                  -5.901659793      -0.6372342055     0.070712369       -0.0797121464     
595008370         -0.1070067936     0.1390942848      2.232875551       5.418049074       
                  2.232875551       5.418049074       -0.08381338281    -0.01212320591    
680008280         0.2037491893      0.03379368553     3.653773599       -4.576097535      
                  3.653773599       -4.576097535      0.09222431786     0.07535711086     
765008190         0.009695230392    -0.1630786006     -5.727470088      -1.094284715      
                  -5.727470088      -1.094284715      0.06009939143     -0.06060543253    
850008100         -0.1813929315     0.1106178244      1.87015363        5.518382527       
                  1.87015363        5.518382527       -0.07173726924    0.06495994809     
935008010         0.1449569637      0.1230841093      3.936333996       -4.232934153      
                  3.936333996       -4.232934153      0.1021661255      0.03905460173     
1020007920        0.07535805715     -0.1532076227     -5.585634971      -1.43876551       
                  -5.585634971      -1.43876551       -0.004758430441   -0.07548544688    
1105007830        -0.2247283447     -0.008402292423   1.487528893       5.609162972       
                  1.487528893       5.609162972       -0.06296298881    0.0752174025      
1190007740        0.07087319301     0.1396138682      4.18589875        -3.860673872      
                  4.18589875        -3.860673872      0.1242721303      -0.04250310983    
1275007650        0.1638512654      -0.1081558164     -5.465144566      -1.819820372      
                  -5.465144566      -1.819820372      -0.02998911988    -0.08918488225    
1360007560        -0.162794963      -0.1004999143     1.051261149       5.635297256       
                  1.051261149       5.635297256       -0.005366246393   0.1018829681      
1445007470        0.0004894172575   0.1411022013      4.401078418       -3.544427982      
                  4.401078418       -3.544427982      0.1470993419      -0.08834801574    
1530007380        0.1837763434      -0.01112126126    -5.303825182      -2.175263814      
                  -5.303825182      -2.175263814      -0.06922790528    -0.06456011107    
1615007290        -0.09355675486    -0.1232376418     0.6289291056      5.592929013       
                  0.6289291056      5.592929013       0.02312434616     0.1422415026      
1700007200        -0.08802784779    0.09629795934     4.655628903       -3.247425016      
                  4.655628903       -3.247425016      0.1109258174      -0.1334785557     
1785007110        0.1271078148      0.03160781017     -5.061877908      -2.513491049      
                  -5.061877908      -2.513491049      -0.1319805924     -0.06433047964    
1870007020        -0.02162428432    -0.1348514011     0.2348940973      5.598124845       
                  0.2348940973      5.598124845       0.0657457887      0.132097532       
1955006930        -0.1059297113     0.02095451501     4.863252271       -2.894026813      
                  4.863252271       -2.894026813      0.08936151373     -0.1938661224     
2040006840        0.08194038243     0.0382230389      -4.824853406      -2.798776111      
                  -4.824853406      -2.798776111      -0.1548197252     -0.04172504854    
2125006750        0.0357559444      -0.09184799903    -0.1808019554     5.626722356       
                  -0.1808019554     5.626722356       0.1310767528      0.1368918154      
2210006660        -0.09102482982    -0.0009820269367  4.957177409       -2.539163391      
                  4.957177409       -2.539163391      0.04800842443     -0.2180709745     
2295006570        0.02886260161     0.03524218401     -4.592107854      -3.127087005      
                  -4.592107854      -3.127087005      -0.1862105178     0.01524628122     
2380006480        0.02774564538     -0.0515238525     -0.5437441593     5.562651454       
                  -0.5437441593     5.562651454       0.1668389943      0.1140985126      
2465006390        -0.08644160489    -0.01582105329    5.033609026       -2.222034795      
                  5.033609026       -2.222034795      -0.01970544536    -0.2596188194     
2550006300        0.0116657771      -0.0004940443599  -4.282924951      -3.463610681      
                  -4.282924951      -3.463610681      -0.1908355076     0.06072639935     
2635006210        0.02393339188     -0.04435895815    -0.8778596276     5.502880545       
                  -0.8778596276     5.502880545       0.2135235538      0.06422463872     
2720006120        -0.0813538473     -0.009527806297   5.107343549       -1.850551947      
                  5.107343549       -1.850551947      -0.09057308277    -0.2644690196     
2805006030        0.01849080516     -0.001482097602   -3.998939097      -3.708919818      
                  -3.998939097      -3.708919818      -0.1631152371     0.1235813259      
2890005940        0.01944313399     -0.03714824067    -1.214062172      5.378593552       
                  -1.214062172      5.378593552       0.2320329128      0.008968356451    
2975005850        -0.09450700353    -0.006480602004   5.137942133       -1.394315402      
                  5.137942133       -1.394315402      -0.1622245853     -0.2476357212     
3060005760        0.02010650713     0.00886246485     -3.700326003      -4.049728807      
                  -3.700326003      -4.049728807      -0.1190928716     0.1687413992      
3145005670        0.03460802994     -0.04593521607    -1.612635223      5.224533692       
                  -1.612635223      5.224533692       0.2318146926      -0.07160058451    
3230005580        -0.1022151042     -0.03110102097    5.244416346       -0.9914051059     
                  5.244416346       -0.9914051059     -0.2269269261     -0.2080552201     
3315005490        0.01352534702     0.03186312221     -3.428974808      -4.272434366      
                  -3.428974808      -4.272434366      -0.04616766836    0.2028672765      
3400005400        0.06044536297     -0.0313047951     -1.961653659      5.055594382       
                  -1.961653659      5.055594382       0.201619486       -0.1448447154     
3485005310        -0.0995021693     -0.0621991506     5.343279786       -0.630344591      
                  5.343279786       -0.630344591      -0.2821847631     -0.1299228365     
3570005220        -0.01797885624    0.0503265168      -3.250847914      -4.456056705      
                  -3.250847914      -4.456056705      0.03359928433     0.2105960089      
3655005130        0.06916263986     0.001229167798    -2.152696432      4.921627218       
                  -2.152696432      4.921627218       0.1348325429      -0.2086341741     
3740005040        -0.07962768817    -0.09266883669    5.329125696       -0.2793787796     
                  5.329125696       -0.2793787796     -0.3119818146     -0.03963627179    
3825004950        -0.05728637121    0.0395311625      -2.984037516      -4.581029156      
                  -2.984037516      -4.581029156      0.1135027607      0.1762336263      
3910004860        0.06584047771     0.03526835872     -2.56522085       4.700608937       
                  -2.56522085       4.700608937       0.05061097008     -0.2590010373     
3995004770        -0.0338995625     -0.1121388308     5.35478593        0.03460997725     
                  5.35478593        0.03460997725     -0.3054537058     0.06536207853     
4080004680        -0.08468674064    0.01144649624     -2.705334596      -4.749554926      
                  -2.705334596      -4.749554926      0.1907533744      0.1284310271      
4165004590        0.04278215547     0.06891301472     -2.832037769      4.555417779       
                  -2.832037769      4.555417779       -0.04630034177    -0.2716763284     
4250004500        0.009086899729    -0.0908458005     5.437304146       0.2830710721      
                  5.437304146       0.2830710721      -0.2658402186     0.1757367774      
4335004410        -0.1030623207     -0.01617566255    -2.450339164      -4.853098995      
                  -2.450339164      -4.853098995      0.2299661454      0.04466191708     
4420004320        -0.003436506041   0.08387649258     -3.024132492      4.441965371       
                  -3.024132492      4.441965371       -0.1638226354     -0.2508403633     
4505004230        0.03676344849     -0.06084345572    5.380293966       0.4536786763      
                  5.380293966       0.4536786763      -0.1965735199     0.2588949992      
4590004140        -0.1035982994     -0.0491926186     -2.187884612      -4.882367159      
                  -2.187884612      -4.882367159      0.2296475381      -0.05756796824    
4675004050        -0.04103599767    0.0728741788      -3.110797434      4.322154413       
                  -3.110797434      4.322154413       -0.2553768798     -0.1911919641     
4760003960        0.05795148205     -0.02103123319    5.227291939       0.6832306849      
                  5.227291939       0.6832306849      -0.08639175062    0.3111280193      
4845003870        -0.0815896808     -0.06746992923    -1.941734481      -4.923166067      
                  -1.941734481      -4.923166067      0.2004143688      -0.1549256365     
4930003780        -0.07379821375    0.0454547902      -3.284952135      4.136141317       
                  -3.284952135      4.136141317       -0.3195861268     -0.09977086044    
5015003690        0.0530207063      0.03305942149     5.09613171        0.9208287356      
                  5.09613171        0.9208287356      0.0351511751      0.3344075603      
5100003600        -0.05740253374    -0.05807303286    -1.771550614      -4.982712707      
                  -1.771550614      -4.982712707      0.1196517403      -0.2292629726     
5185003510        -0.09078726184    0.0101997944      -3.332840564      3.910391479       
                  -3.332840564      3.910391479       -0.3497954777     0.01140310109     
5270003420        0.01983523284     0.06867243366     4.957547933       1.14780597        
                  4.957547933       1.14780597        0.1499677913      0.2999246039      
5355003330        -0.04680215046    -0.02714337302    -1.661729724      -5.028302114      
                  -1.661729724      -5.028302114      -0.002084575921   -0.2790509353     
5440003240        -0.07407792421    -0.03331502487    -3.278945307      3.741967761       
                  -3.278945307      3.741967761       -0.3195367397     0.132046855       
5525003150        -0.01217003835    0.06054773383     4.933408104       1.259354498       
                  4.933408104       1.259354498       0.2691042473      0.2014370848      
5610003060        -0.0405920262     0.0211471091      -1.602206345      -4.867621462      
                  -1.602206345      -4.867621462      -0.1366977506     -0.2677281257     
5695002970        -0.01874914753    -0.03858048669    -3.27620069       3.523768077       
                  -3.27620069       3.523768077       -0.2212908082     0.2529233634      
5780002880        -0.02000538372    0.02648930331     4.875777809       1.346483873       
                  4.875777809       1.346483873       0.329542515       0.05789676006     
5865002790        -0.07542150161    0.06924091623     -1.495336737      -4.611200094      
                  -1.495336737      -4.611200094      -0.2720885169     -0.185444207      
5950002700        0.02962253633     0.007066830866    -3.30732989       3.314479161       
                  -3.30732989       3.314479161       -0.08285519827    0.333080979       
6035002610        -0.01436531362    -0.03320106339    4.656719031       1.245500673       
                  4.656719031       1.245500673       0.2986952106      -0.09724302401    
6120002520        -0.1405094473     0.06814143613     -1.371605485      -4.36231924       
                  -1.371605485      -4.36231924       -0.3583835252     -0.04559431273    
6205002430        0.06461463042     0.0870539998      -3.202263344      3.109872322       
                  -3.202263344      3.109872322       0.1018678578      0.337964782       
6290002340        0.06136864194     -0.08371996028    4.432067081       1.119033027       
                  4.432067081       1.119033027       0.195206881       -0.247943126      
6375002250        -0.2092741846     0.005339777957    -1.265994505      -4.08242201       
                  -1.265994505      -4.08242201       -0.3761396738     0.1299216251      
6460002160        0.02476913048     0.2022610558      -2.972676258      2.912048094       
                  -2.972676258      2.912048094       0.2708663208      0.2723193482      
6545002070        0.1740870727      -0.05372634041    4.04160674        1.034790433       
                  4.04160674        1.034790433       0.02880235265     -0.3202099583     
6630001980        -0.2012570516     -0.1108651725     -1.127077437      -3.785882206      
                  -1.127077437      -3.785882206      -0.2987263657     0.3023606895      
6715001890        -0.07412628253    0.2697884761      -2.685805741      2.599179809       
                  -2.685805741      2.599179809       0.3839485484      0.1562654948      
6800001800        0.2617565088      0.05931367353     3.572978879       1.100479684       
                  3.572978879       1.100479684       -0.1313613346     -0.3089697897     
6885001710        -0.09814527843    -0.2384019875     -0.8086550267     -3.453046106      
                  -0.8086550267     -3.453046106      -0.1881100395     0.3880468589      
6970001620        -0.2096367332     0.2288159328      -2.605404402      2.198046558       
                  -2.605404402      2.198046558       0.4232723888      0.02346300799     
7055001530        0.2586025089      0.2089952749      3.183865572       1.225317802       
                  3.183865572       1.225317802       -0.256967315      -0.2714789315     
7140001440        0.0841149625      -0.2963477513     -0.5324017802     -3.196462961      
                  -0.5324017802     -3.196462961      -0.06349315744    0.4539264648      
7225001350        -0.2950572669     0.09279277611     -2.554395127      1.877655329       
                  -2.554395127      1.877655329       0.4528180057      -0.1033865314     
7310001260        0.1666503773      0.346681626       2.838740862       1.153583303       
                  2.838740862       1.153583303       -0.3587745033     -0.1851363547     
7395001170        0.2856063873      -0.2241553983     -0.2411632266     -2.940870991      
                  -0.2411632266     -2.940870991      0.07700664905     0.4822930929      
7480001080        -0.2961392563     -0.1134077197     -2.394975174      1.594060963       
                  -2.394975174      1.594060963       0.39492409        -0.23715434       
7565000990        -0.03399445996    0.3982086447      2.591528725       1.157695147       
                  2.591528725       1.157695147       -0.425112978      -0.08439169805    
7650000900        0.3999798453      -0.05405453393    -0.0496966389     -2.593382516      
                  -0.0496966389     -2.593382516      0.2128445288      0.4389121454      
7735000810        -0.1588161758     -0.3068340224     -2.285537309      1.333962149       
                  -2.285537309      1.333962149       0.3174234571      -0.3463318628     
7820000720        -0.2084921892     0.3152747248      2.260849313       1.238519698       
                  2.260849313       1.238519698       -0.4060904989     0.02489535074     
7905000630        0.4130586298      0.1401969743      0.101069133       -2.289634147      
                  0.101069133       -2.289634147      0.3250175303      0.3624259301      
7990000540        0.06809969802     -0.3901438727     -2.206075167      0.9145908288      
                  -2.206075167      0.9145908288      0.2215760825      -0.4070999145     
8075000450        -0.3507516578     0.1181993285      1.893257209       1.431581255       
                  1.893257209       1.431581255       -0.3879376342     0.1183675907      
8160000360        0.2955768378      0.3140447536      0.2563127567      -2.180464401      
                  0.2563127567      -2.180464401      0.3996159512      0.2799673986      
8245000270        0.2585737402      -0.3360159695     -2.033828199      0.6091130516      
                  -2.033828199      0.6091130516      0.1145959398      -0.4443246912     
8330000180        -0.3655558718     -0.1337893226     1.628195407       1.497520387       
                  1.628195407       1.497520387       -0.3433794466     0.1933486036      
8415000090        0.07713771686     0.3928189821      0.3879691302      -1.990348074      
                  0.3879691302      -1.990348074      0.4358162283      0.1671346452      
8500000000        0.3830785777      -0.1848474577     -1.827990089      0.441637766       
                  -1.827990089      0.441637766       -0.004221674795   -0.4604858651     
