! RsaToolbox (C) 2013 Rohde & Schwarz America
! 
! Number of points: 101
! Number of ports: 2
! Balanced ports?: 0
! 
! 
# Hz S RI R 50
9000              1.010263634       -0.02021055346    2.067543819e-05   3.652786928e-07   
                  2.067543819e-05   3.652786928e-07   1.02101888        -0.02681908871    
85008910          0.00251617798     0.1591330196      3.194558933       5.514914631       
                  3.194558933       5.514914631       -0.09256554876    -0.1155243499     
170008820         0.1424155693      -0.04426234314    3.192652389       -5.22752775       
                  3.192652389       -5.22752775       -0.02009375455    0.1716496105      
255008730         -0.1763411159     -0.0757704254     -6.06148924       -0.1689334132     
                  -6.06148924       -0.1689334132     0.07778808696     -0.02619957674    
340008640         -0.06348623527    0.1697594236      2.652992066       5.357162227       
                  2.652992066       5.357162227       -0.1265371844     -0.0536635376     
425008550         0.1593471646      -0.04646602401    3.391581742       -4.870924264      
                  3.391581742       -4.870924264      0.01674717417     0.1027657124      
510008460         -0.1018857736     -0.163264275      -5.9094023        -0.6465129285     
                  -5.9094023        -0.6465129285     0.07078104695     -0.07983365205    
595008370         -0.1072413445     0.1399907523      2.228588512       5.428701838       
                  2.228588512       5.428701838       -0.08361641987    -0.01198258805    
680008280         0.2044880909      0.03342890794     3.666496629       -4.578492527      
                  3.666496629       -4.578492527      0.09201529276     0.07507356274     
765008190         0.009367182149    -0.1637287828     -5.73558283       -1.104115919      
                  -5.73558283       -1.104115919      0.05991853516     -0.06066667292    
850008100         -0.1817912657     0.1115251999      1.870147074       5.526924304       
                  1.870147074       5.526924304       -0.07162022065    0.06507498073     
935008010         0.1460406355      0.1234987152      3.949046119       -4.233270055      
                  3.949046119       -4.233270055      0.1019249164      0.0389097236      
1020007920        0.07548402936     -0.1540729826     -5.590751825      -1.449097026      
                  -5.590751825      -1.449097026      -0.004527373217   -0.07562527223    
1105007830        -0.2254200004     -0.007924940057   1.479380262       5.619909943       
                  1.479380262       5.619909943       -0.0629355679     0.07513204329     
1190007740        0.0713877926      0.140423007       4.197427943       -3.860367893      
                  4.197427943       -3.860367893      0.1243831625      -0.04259842299    
1275007650        0.1644824856      -0.108696641      -5.469493944      -1.837205635      
                  -5.469493944      -1.837205635      -0.03003161284    -0.08906919292    
1360007560        -0.1636317712     -0.1003453264     1.044488728       5.646042248       
                  1.044488728       5.646042248       -0.005294645803   0.1017866909      
1445007470        0.0005358699103   0.1423786944      4.414341689       -3.545442286      
                  4.414341689       -3.545442286      0.1470765153      -0.08839075742    
1530007380        0.1846443675      -0.01149135334    -5.307721459      -2.188901061      
                  -5.307721459      -2.188901061      -0.06918815481    -0.06443833278    
1615007290        -0.09425902493    -0.1242430561     0.6181701421      5.606372259       
                  0.6181701421      5.606372259       0.02347374738     0.1422080592      
1700007200        -0.0885457883     0.09735040107     4.670327575       -3.244401686      
                  4.670327575       -3.244401686      0.1108734296      -0.1335027034     
1785007110        0.1282708335      0.03159016389     -5.065433982      -2.529234018      
                  -5.065433982      -2.529234018      -0.1319240569     -0.06392439619    
1870007020        -0.02186689633    -0.1362052935     0.2248480597      5.609456839       
                  0.2248480597      5.609456839       0.0659796106      0.1320745594      
1955006930        -0.1070834582     0.0215736043      4.878061542       -2.88953107       
                  4.878061542       -2.88953107       0.08920083058     -0.1938851696     
2040006840        0.08293860314     0.03920961525     -4.829822875      -2.815788085      
                  -4.829822875      -2.815788085      -0.1545476021     -0.04148443424    
2125006750        0.03628826035     -0.09327904243    -0.193289474      5.638628435       
                  -0.193289474      5.638628435       0.1310423532      0.1368937382      
2210006660        -0.09293940407    -0.000880251091   4.975764958       -2.533637015      
                  4.975764958       -2.533637015      0.04803823518     -0.2179636306     
2295006570        0.02972332239     0.03707670979     -4.597616715      -3.146113458      
                  -4.597616715      -3.146113458      -0.1860986614     0.01562030367     
2380006480        0.02920032157     -0.05279787073    -0.5559658726     5.576071998       
                  -0.5559658726     5.576071998       0.1667686297      0.114096477       
2465006390        -0.08823745043    -0.01660299943    5.053040123       -2.215152036      
                  5.053040123       -2.215152036      -0.01956327505    -0.2596100938     
2550006300        0.01169210094     0.001539079588    -4.28901163       -3.484003652      
                  -4.28901163       -3.484003652      -0.1910076817     0.06075091477     
2635006210        0.02604241862     -0.04506745074    -0.8960548052     5.517679688       
                  -0.8960548052     5.517679688       0.2135125176      0.06405366196     
2720006120        -0.08280854213    -0.01094259986    5.128811969       -1.842935529      
                  5.128811969       -1.842935529      -0.09037369959    -0.2643951143     
2805006030        0.01742206618     0.0002441614635   -4.00423599       -3.73192557       
                  -4.00423599       -3.73192557       -0.1631543236     0.1234662576      
2890005940        0.02158931368     -0.03656342698    -1.236279492      5.394438615       
                  -1.236279492      5.394438615       0.2319323306      0.009008064632    
2975005850        -0.09507876608    -0.008535388989   5.16125058        -1.387207192      
                  5.16125058        -1.387207192      -0.1623363372     -0.2475179171     
3060005760        0.01819203511     0.01005216971     -3.70475335       -4.074766161      
                  -3.70475335       -4.074766161      -0.1193825951     0.1688906231      
3145005670        0.03632535038     -0.04474907512    -1.633056198      5.240893831       
                  -1.633056198      5.240893831       0.2316777928      -0.07162602043    
3230005580        -0.1021241145     -0.03310687474    5.268877925       -0.9837285221     
                  5.268877925       -0.9837285221     -0.2270686938     -0.2079618091     
3315005490        0.01176063858     0.03200141488     -3.432045202      -4.301160765      
                  -3.432045202      -4.301160765      -0.04603538013    0.2028035839      
3400005400        0.0611092648      -0.02888630724    -1.988550729      5.072020891       
                  -1.988550729      5.072020891       0.2011630831      -0.1449146069     
3485005310        -0.0979746657     -0.06385984205    5.369766607       -0.616762221      
                  5.369766607       -0.616762221      -0.2824734711     -0.1292773407     
3570005220        -0.01987547499    0.04942304161     -3.250511575      -4.491048783      
                  -3.250511575      -4.491048783      0.03325852013     0.2106973797      
3655005130        0.06921118969     0.003531889443    -2.185680795      4.93996697        
                  -2.185680795      4.93996697        0.1347910955      -0.2084103179     
3740005040        -0.07738372288    -0.09340034275    5.359801689       -0.2593529101     
                  5.359801689       -0.2593529101     -0.312090859      -0.03949412418    
3825004950        -0.05891936397    0.03735474321     -2.977247432      -4.626403832      
                  -2.977247432      -4.626403832      0.1133756829      0.1761807105      
3910004860        0.06420053769     0.03749555544     -2.607133594      4.717576454       
                  -2.607133594      4.717576454       0.05053606116     -0.2591941457     
3995004770        -0.03129491427    -0.1113566065     5.39220021        0.06336676134     
                  5.39220021        0.06336676134     -0.3053299076     0.06556547624     
4080004680        -0.08500164882    0.008350472274    -2.703411679      -4.797718172      
                  -2.703411679      -4.797718172      0.1907191518      0.1281556411      
4165004590        0.0397404072      0.07015548794     -2.870623828      4.579232212       
                  -2.870623828      4.579232212       -0.04645355213    -0.271458814      
4250004500        0.01138930919     -0.08857178883    5.479775594       0.3091775302      
                  5.479775594       0.3091775302      -0.2657432355     0.1756484438      
4335004410        -0.1015423806     -0.01937257868    -2.445976582      -4.906398647      
                  -2.445976582      -4.906398647      0.2298364349      0.04433992749     
4420004320        -0.0071228467     0.08410606635     -3.071899038      4.465400493       
                  -3.071899038      4.465400493       -0.1640596803     -0.2505159678     
4505004230        0.03811199685     -0.05718741327    5.429516245       0.4883351466      
                  5.429516245       0.4883351466      -0.1965855493     0.2588920829      
4590004140        -0.1002909251     -0.05181364194    -2.184863443      -4.94040974       
                  -2.184863443      -4.94040974       0.2296912496      -0.05768261324    
4675004050        -0.04484472605    0.07071244974     -3.168893833      4.347029406       
                  -3.168893833      4.347029406       -0.2553955836     -0.1910654023     
4760003960        0.05746584118     -0.01628440775    5.279913993       0.7239958351      
                  5.279913993       0.7239958351      -0.08612671395    0.3113756875      
4845003870        -0.07682011379    -0.06856879892    -1.932227996      -4.99224164       
                  -1.932227996      -4.99224164       0.2002199691      -0.15466947       
4930003780        -0.07647967531    0.04136089555     -3.352171807      4.164341894       
                  -3.352171807      4.164341894       -0.3195756682     -0.09952071303    
5015003690        0.05033023511     0.03718572768     5.148438894       0.9682843336      
                  5.148438894       0.9682843336      0.03550680838     0.3344736762      
5100003600        -0.05232999826    -0.05688215452    -1.760090557      -5.062886908      
                  -1.760090557      -5.062886908      0.1195339824      -0.2292223845     
5185003510        -0.09118112584    0.004740001613    -3.405507041      3.941497118       
                  -3.405507041      3.941497118       -0.3496275265     0.01139783696     
5270003420        0.01514107489     0.07164913607     5.015730965       1.195680729       
                  5.015730965       1.195680729       0.1499787831      0.2996261292      
5355003330        -0.04211621839    -0.02330061053    -1.644627694      -5.12378568       
                  -1.644627694      -5.12378568       -0.002229841238   -0.2789954792     
5440003240        -0.07209427917    -0.03875455004    -3.353222435      3.775905904       
                  -3.353222435      3.775905904       -0.3193572305     0.1321830647      
5525003150        -0.01779016424    0.06114271777     4.999180248       1.310960951       
                  4.999180248       1.310960951       0.2688427852      0.2013416994      
5610003060        -0.03854550707    0.02704296024     -1.587868037      -4.965914941      
                  -1.587868037      -4.965914941      -0.1364475482     -0.2676408768     
5695002970        -0.01457406454    -0.04302640357    -3.352478547      3.557819344       
                  -3.352478547      3.557819344       -0.2209851726     0.2529032694      
5780002880        -0.02580318391    0.02411413508     4.949514777       1.405331887       
                  4.949514777       1.405331887       0.3294163273      0.05800507796     
5865002790        -0.07606898996    0.07545416914     -1.487861408      -4.704470397      
                  -1.487861408      -4.704470397      -0.2723908151     -0.1851972688     
5950002700        0.03539821449     0.004794924385    -3.387218905      3.349144696       
                  -3.387218905      3.349144696       -0.08283920279    0.3328344366      
6035002610        -0.0189281898     -0.03859900148    4.73556584        1.302373651       
                  4.73556584        1.302373651       0.2985102089      -0.09741646347    
6120002520        -0.1440080556     0.07329129746     -1.369654195      -4.44798073       
                  -1.369654195      -4.44798073       -0.3585823818     -0.04550884702    
6205002430        0.07063174068     0.08770258128     -3.275579639      3.143569802       
                  -3.275579639      3.143569802       0.1017491167      0.3372378265      
6290002340        0.05993665148     -0.09002456178    4.511824914       1.16508993        
                  4.511824914       1.16508993        0.1949033499      -0.247918206      
6375002250        -0.2142416937     0.008334235101    -1.271079954      -4.155355671      
                  -1.271079954      -4.155355671      -0.376068601      0.1299588564      
6460002160        0.02917444856     0.2052382903      -3.031296929      2.945589774       
                  -3.031296929      2.945589774       0.2708925521      0.2722645657      
6545002070        0.1756121375      -0.059054187      4.108253507       1.067337107       
                  4.108253507       1.067337107       0.0285925509      -0.3199420248     
6630001980        -0.2063121546     -0.1106205843     -1.126768681      -3.84980444       
                  -1.126768681      -3.84980444       -0.2985656938     0.3022919615      
6715001890        -0.07181112406    0.2739736319      -2.730061609      2.628941854       
                  -2.730061609      2.628941854       0.383709792       0.1560292817      
6800001800        0.2651174829      0.05538378158     3.624719701       1.126240628       
                  3.624719701       1.126240628       -0.131364616      -0.3086508237     
6885001710        -0.1023925285     -0.2399893035     -0.8114662325     -3.502849808      
                  -0.8114662325     -3.502849808      -0.1878331664     0.3879059564      
6970001620        -0.2092876608     0.2328371174      -2.6404006        2.222030648       
                  -2.6404006        2.222030648       0.4232141715      0.0230657988      
7055001530        0.2626207569      0.2074021141      3.221004665       1.243301562       
                  3.221004665       1.243301562       -0.2569645941     -0.2714746888     
7140001440        0.08184958363     -0.2991907313     -0.5383811913     -3.228699421      
                  -0.5383811913     -3.228699421      -0.06343908597    0.4537336411      
7225001350        -0.2963979742     0.09579767482     -2.579559234      1.89598024        
                  -2.579559234      1.89598024        0.4526977274      -0.1034911573     
7310001260        0.1696136228      0.3471917541      2.863875491       1.163680192       
                  2.863875491       1.163680192       -0.3584691032     -0.1856958003     
7395001170        0.285237196       -0.2272310712     -0.2447401034     -2.965182155      
                  -0.2447401034     -2.965182155      0.07726108887     0.4816342898      
7480001080        -0.2982795047     -0.1111945675     -2.415948766      1.609322311       
                  -2.415948766      1.609322311       0.3947810577      -0.237204768      
7565000990        -0.0313208602     0.3997254881      2.614601911       1.166016153       
                  2.614601911       1.166016153       -0.424721716      -0.08436765466    
7650000900        0.4006690223      -0.05630404511    -0.05241687569    -2.609651068      
                  -0.05241687569    -2.609651068      0.2127609803      0.4386284601      
7735000810        -0.1609159773     -0.3063248195     -2.297618933      1.345111392       
                  -2.297618933      1.345111392       0.3175293218      -0.3462807322     
7820000720        -0.2072134164     0.316940627       2.276152476       1.242773932       
                  2.276152476       1.242773932       -0.4060478438     0.02486793118     
7905000630        0.4141683478      0.1388613371      0.09803357964     -2.30033758       
                  0.09803357964     -2.30033758       0.3244352732      0.3623377422      
7990000540        0.06650892366     -0.3905997358     -2.2164034        0.9244128923      
                  -2.2164034        0.9244128923      0.221607887       -0.4071238395     
8075000450        -0.350529723      0.1199431895      1.906020202       1.43481219        
                  1.906020202       1.43481219        -0.3875457335     0.1188079646      
8160000360        0.2970283891      0.313547094       0.2533959496      -2.19009191       
                  0.2533959496      -2.19009191       0.3990794435      0.2802900722      
8245000270        0.2575239921      -0.3367946655     -2.040029735      0.614464872       
                  -2.040029735      0.614464872       0.1143155479      -0.4441777949     
8330000180        -0.3662625947     -0.1325330923     1.636324082       1.500979719       
                  1.636324082       1.500979719       -0.3434133181     0.1934086887      
8415000090        0.0785392717      0.3928972026      0.3861071516      -1.997742316      
                  0.3861071516      -1.997742316      0.4356789946      0.1673861456      
8500000000        0.383451216       -0.1855101289     -1.832363427      0.4454691092      
                  -1.832363427      0.4454691092      -0.004509315232   -0.4600802221     
