! RsaToolbox (C) 2013 Rohde & Schwarz America
! 
! Number of points: 101
! Number of ports: 2
! Balanced ports?: 0
! 
! 
# Hz S RI R 50
9000              1.014923495       -0.0185711027     3.871618964e-05   5.453482761e-06   
                  3.871618964e-05   5.453482761e-06   1.024763856       -0.02642043574    
85008910          0.002652584353    0.1594366589      3.195585179       5.520859454       
                  3.195585179       5.520859454       -0.09221699124    -0.1153282332     
170008820         0.1424394929      -0.04433671676    3.194654114       -5.227842994      
                  3.194654114       -5.227842994      -0.02017007452    0.1718121848      
255008730         -0.1762811697     -0.0756404029     -6.062133606      -0.1700156792     
                  -6.062133606      -0.1700156792     0.07735186226     -0.02632641687    
340008640         -0.06358824273    0.1701707605      2.651558712       5.359477089       
                  2.651558712       5.359477089       -0.1266098302     -0.05334173992    
425008550         0.1597323116      -0.04654138056    3.393273834       -4.870418288      
                  3.393273834       -4.870418288      0.01650517964     0.103113699       
510008460         -0.1018189633     -0.1636419384     -5.909457494      -0.649993899      
                  -5.909457494      -0.649993899      0.0708158901      -0.07967458312    
595008370         -0.1073462133     0.1400937987      2.227634239       5.431211132       
                  2.227634239       5.431211132       -0.08346937987    -0.01199123702    
680008280         0.2045490431      0.03366445666     3.667566201       -4.57767427       
                  3.667566201       -4.57767427       0.09212761331     0.07533460668     
765008190         0.009372795848    -0.1640664387     -5.736109685      -1.1049128        
                  -5.736109685      -1.1049128        0.06009938121     -0.06037826652    
850008100         -0.1821742941     0.1117737504      1.869235347       5.528691382       
                  1.869235347       5.528691382       -0.07140296047    0.06507029518     
935008010         0.1460634896      0.123629381       3.950655324       -4.233254592      
                  3.950655324       -4.233254592      0.1023916606      0.0389239195      
1020007920        0.07568394626     -0.1542283764     -5.592594469      -1.451487478      
                  -5.592594469      -1.451487478      -0.004827296005   -0.07547504873    
1105007830        -0.2254327592     -0.008253029351   1.478475527       5.621676583       
                  1.478475527       5.621676583       -0.06300039188    0.07527030001     
1190007740        0.07135412158     0.140641481       4.201862534       -3.860398947      
                  4.201862534       -3.860398947      0.1240042113      -0.04257192122    
1275007650        0.1644424295      -0.1089672795     -5.471009699      -1.83456381       
                  -5.471009699      -1.83456381       -0.03004395293    -0.0889055418     
1360007560        -0.1637015494     -0.1006854282     1.042040779       5.64746144        
                  1.042040779       5.64746144        -0.005155790528   0.1018655272      
1445007470        0.0005488450923   0.1425411455      4.417546889       -3.544526339      
                  4.417546889       -3.544526339      0.1472881679      -0.08822734603    
1530007380        0.1847590232      -0.01156875995    -5.309132497      -2.19120551       
                  -5.309132497      -2.19120551       -0.06930198447    -0.06467177939    
1615007290        -0.09442636825    -0.1246107006     0.6155492061      5.607702601       
                  0.6155492061      5.607702601       0.02330937962     0.1418950368      
1700007200        -0.0885898963     0.09742893591     4.673075258       -3.243072588      
                  4.673075258       -3.243072588      0.1106268538      -0.133669593      
1785007110        0.1283971547      0.03183357357     -5.066528108      -2.534736569      
                  -5.066528108      -2.534736569      -0.1315603627     -0.06407988876    
1870007020        -0.0218570161     -0.1364787594     0.2236509893      5.610879275       
                  0.2236509893      5.610879275       0.0658752735      0.1320772453      
1955006930        -0.1070842124     0.02171600394     4.880772628       -2.887805481      
                  4.880772628       -2.887805481      0.08921631364     -0.1939220293     
2040006840        0.08318904595     0.03915144507     -4.82909381       -2.818997761      
                  -4.82909381       -2.818997761      -0.1543785873     -0.04165034131    
2125006750        0.03638976484     -0.09366715587    -0.1966580848     5.639452576       
                  -0.1966580848     5.639452576       0.1311003725      0.1369861983      
2210006660        -0.09285386174    -0.0008159197742  4.977961905       -2.532238739      
                  4.977961905       -2.532238739      0.04786562455     -0.2181937959     
2295006570        0.02987014167     0.03724708507     -4.598289821      -3.149101143      
                  -4.598289821      -3.149101143      -0.1863088491     0.01553336591     
2380006480        0.02926185473     -0.05297517375    -0.5604521072     5.578444657       
                  -0.5604521072     5.578444657       0.1668962386      0.1139625714      
2465006390        -0.08806074242    -0.01667066896    5.055110728       -2.213585374      
                  5.055110728       -2.213585374      -0.01956297863    -0.2594409296     
2550006300        0.01180352644     0.001491922686    -4.289125129      -3.486754448      
                  -4.289125129      -3.486754448      -0.1910029186     0.0604360575      
2635006210        0.02624020177     -0.04530188       -0.89842444       5.522036403       
                  -0.89842444       5.522036403       0.2136541944      0.06403303346     
2720006120        -0.08250286783    -0.01088794774    5.132314779       -1.842756889      
                  5.132314779       -1.842756889      -0.09082497421    -0.2643896997     
2805006030        0.01780768048     0.0004738163192   -4.002123753      -3.735918073      
                  -4.002123753      -3.735918073      -0.1631277046     0.1237053068      
2890005940        0.02196763343     -0.03642016304    -1.23938922       5.397276219       
                  -1.23938922       5.397276219       0.2317298973      0.009011902362    
2975005850        -0.09519729789    -0.008786363106   5.164744609       -1.386760351      
                  5.164744609       -1.386760351      -0.1620851368     -0.2473889648     
3060005760        0.01800084572     0.01041904594     -3.705947646      -4.079342283      
                  -3.705947646      -4.079342283      -0.1189914666     0.16896164        
3145005670        0.03651146231     -0.04477684914    -1.635979398      5.24380755        
                  -1.635979398      5.24380755        0.231385417       -0.07152300173    
3230005580        -0.1017127643     -0.03314759055    5.27409053        -0.9841237219     
                  5.27409053        -0.9841237219     -0.2270034868     -0.207762199      
3315005490        0.01121727773     0.03177287668     -3.433758053      -4.305837777      
                  -3.433758053      -4.305837777      -0.04624766556    0.2028501101      
3400005400        0.06130736892     -0.02878756106    -1.993809045      5.076934004       
                  -1.993809045      5.076934004       0.2014723002      -0.1450087895     
3485005310        -0.09795277615    -0.06377129599    5.376108766       -0.6144177394     
                  5.376108766       -0.6144177394     -0.2818396786     -0.1300060599     
3570005220        -0.02016775233    0.04941924694     -3.251261199      -4.498650803      
                  -3.251261199      -4.498650803      0.03366734091     0.2107261905      
3655005130        0.06907263909     0.003837418073    -2.191517426      4.945322161       
                  -2.191517426      4.945322161       0.1348733529      -0.2086570049     
3740005040        -0.07712028661    -0.0932704635     5.364410842       -0.2563734773     
                  5.364410842       -0.2563734773     -0.3119326999     -0.03936465737    
3825004950        -0.05882461308    0.03711400491     -2.979764819      -4.634351962      
                  -2.979764819      -4.634351962      0.1133706337      0.175938687       
3910004860        0.06404323        0.0375333937      -2.613471438      4.7239178         
                  -2.613471438      4.7239178         0.05044808686     -0.2592371833     
3995004770        -0.03099756898    -0.1116062974     5.400471305       0.0644275933      
                  5.400471305       0.0644275933      -0.305369923      0.0652825983      
4080004680        -0.08491597872    0.007938536051    -2.705928729      -4.804219402      
                  -2.705928729      -4.804219402      0.190859901       0.1282993587      
4165004590        0.0392467514      0.07055591805     -2.872525082      4.585455329       
                  -2.872525082      4.585455329       -0.04663321559    -0.2714811402     
4250004500        0.01162869819     -0.08790221772    5.487151153       0.3091482447      
                  5.487151153       0.3091482447      -0.2656518433     0.1753749415      
4335004410        -0.1015765953     -0.01985543858    -2.450188304      -4.913748522      
                  -2.450188304      -4.913748522      0.2295477331      0.04424792966     
4420004320        -0.007808790573   0.08379128382     -3.075649085      4.470890949       
                  -3.075649085      4.470890949       -0.1642505069     -0.2504532865     
4505004230        0.03802204561     -0.05698765868    5.437452065       0.4905707097      
                  5.437452065       0.4905707097      -0.1966843166     0.2593765049      
4590004140        -0.0997679577     -0.05161166912    -2.177958748      -4.951803602      
                  -2.177958748      -4.951803602      0.2295221948      -0.05739244789    
4675004050        -0.04464182645    0.0703529689      -3.174452485      4.354664457       
                  -3.174452485      4.354664457       -0.2552351996     -0.1912301316     
4760003960        0.05718799151     -0.01610775137    5.288962522       0.7252618483      
                  5.288962522       0.7252618483      -0.08622253394    0.3106713943      
4845003870        -0.0765281032     -0.06846213127    -1.933766187      -5.00160593       
                  -1.933766187      -5.00160593       0.2002638244      -0.1550281689     
4930003780        -0.07683038091    0.0407264377      -3.360852749      4.171098969       
                  -3.360852749      4.171098969       -0.3192699666     -0.09956180072    
5015003690        0.05007547473     0.03804859398     5.161433244       0.9658308944      
                  5.161433244       0.9658308944      0.03572867338     0.3347195578      
5100003600        -0.05198916937    -0.0562671648     -1.762434657      -5.073448067      
                  -1.762434657      -5.073448067      0.1194522749      -0.2290735619     
5185003510        -0.09121518749    0.004059814637    -3.413491333      3.948890832       
                  -3.413491333      3.948890832       -0.349498909      0.011634268       
5270003420        0.01466879252     0.07148376069     5.024824272       1.198091845       
                  5.024824272       1.198091845       0.1497113507      0.2997781765      
5355003330        -0.04230872809    -0.02250078687    -1.649130414      -5.136136353      
                  -1.649130414      -5.136136353      -0.002232969809   -0.2792812973     
5440003240        -0.07138933706    -0.03944427742    -3.359027929      3.78372239        
                  -3.359027929      3.78372239        -0.3193396909     0.1321885202      
5525003150        -0.01805254658    0.06086191161     5.010073194       1.312077761       
                  5.010073194       1.312077761       0.2687655671      0.2014379409      
5610003060        -0.03864937667    0.027774962       -1.591586385      -4.978366675      
                  -1.591586385      -4.978366675      -0.1365032505     -0.267840618      
5695002970        -0.01370082171    -0.04297547421    -3.359824218      3.565920024       
                  -3.359824218      3.565920024       -0.2212360655     0.2529548329      
5780002880        -0.02619253832    0.02363968275     4.96177578        1.407775259       
                  4.96177578        1.407775259       0.3293380364      0.05792357584     
5865002790        -0.07683350355    0.07585961101     -1.492465327      -4.715585372      
                  -1.492465327      -4.715585372      -0.2729206861     -0.1849365935     
5950002700        0.03604920954     0.00499724034     -3.393895699      3.35741333        
                  -3.393895699      3.35741333        -0.0827885696     0.3327298685      
6035002610        -0.01869982816    -0.0388893318     4.748019432       1.303897774       
                  4.748019432       1.303897774       0.2983174151      -0.09759425168    
6120002520        -0.1446342923     0.07346002622     -1.375040521      -4.458127469      
                  -1.375040521      -4.458127469      -0.3582944907     -0.04530840601    
6205002430        0.07120399323     0.08817142493     -3.281850576      3.152002774       
                  -3.281850576      3.152002774       0.1018341141      0.3372612397      
6290002340        0.06002871011     -0.09082152509    4.522925847       1.164882191       
                  4.522925847       1.164882191       0.1950382524      -0.2476851898     
6375002250        -0.2148862262     0.008406429525    -1.275177942      -4.162881114      
                  -1.275177942      -4.162881114      -0.376130218      0.1299536595      
6460002160        0.02956610443     0.2060814508      -3.035856201      2.952220505       
                  -3.035856201      2.952220505       0.270565046       0.272212786       
6545002070        0.1760849547      -0.05990492301    4.118447577       1.067564841       
                  4.118447577       1.067564841       0.02810706702     -0.3203085701     
6630001980        -0.207213517      -0.1106223858     -1.132061357      -3.855691477      
                  -1.132061357      -3.855691477      -0.2983119875     0.3022500192      
6715001890        -0.07167295986    0.2746608273      -2.733312157      2.635700183       
                  -2.733312157      2.635700183       0.3838995947      0.1558672436      
6800001800        0.2657514488      0.05515066279     3.631129288       1.126400118       
                  3.631129288       1.126400118       -0.1316705044     -0.308945619      
6885001710        -0.1030271399     -0.2406953433     -0.8188051152     -3.506280203      
                  -0.8188051152     -3.506280203      -0.1880607767     0.3879174545      
6970001620        -0.2095366247     0.2336078993      -2.643619698      2.226854974       
                  -2.643619698      2.226854974       0.4232205934      0.02313799063     
7055001530        0.2632202674      0.2074696999      3.225589239       1.243256786       
                  3.225589239       1.243256786       -0.2570435162     -0.2708866635     
7140001440        0.0817009948      -0.2995778606     -0.5407783814     -3.232950864      
                  -0.5407783814     -3.232950864      -0.06310854027    0.4538204238      
7225001350        -0.2974226808     0.09591971614     -2.586267729      1.895110652       
                  -2.586267729      1.895110652       0.4523880308      -0.1032030126     
7310001260        0.1700836159      0.3474840916      2.866451022       1.162736913       
                  2.866451022       1.162736913       -0.3589272033     -0.1855268234     
7395001170        0.2851724504      -0.2276622274     -0.2459045918     -2.968300202      
                  -0.2459045918     -2.968300202      0.07739719218     0.4816704523      
7480001080        -0.2987587266     -0.1108552551     -2.417650776      1.612690996       
                  -2.417650776      1.612690996       0.3949845735      -0.2371424128     
7565000990        -0.03107772243    0.3995984178      2.617901502       1.165828653       
                  2.617901502       1.165828653       -0.4248414249     -0.08447121019    
7650000900        0.4004137141      -0.05671946647    -0.05390423811    -2.611112986      
                  -0.05390423811    -2.611112986      0.2129574797      0.4386122032      
7735000810        -0.1606136812     -0.3069419274     -2.299092325      1.347511192       
                  -2.299092325      1.347511192       0.3175968328      -0.3463551256     
7820000720        -0.207213436      0.3172255157      2.278383972       1.242488411       
                  2.278383972       1.242488411       -0.4059796481     0.02514841983     
7905000630        0.4138947552      0.1396157798      0.0975202158      -2.301225297      
                  0.0975202158      -2.301225297      0.3243452307      0.362701161       
7990000540        0.06643118231     -0.3902708307     -2.216193289      0.9252075567      
                  -2.216193289      0.9252075567      0.2214775955      -0.406653944      
8075000450        -0.3508513287     0.1203026011      1.907804165       1.433988811       
                  1.907804165       1.433988811       -0.3881814347     0.1196298398      
8160000360        0.2972695669      0.3135674329      0.2518756566      -2.190819468      
                  0.2518756566      -2.190819468      0.3993289463      0.2797620063      
8245000270        0.2576210219      -0.337172577      -2.040966831      0.6149591855      
                  -2.040966831      0.6149591855      0.1144279064      -0.4438446382     
8330000180        -0.366555332      -0.1326298412     1.637386968       1.501074152       
                  1.637386968       1.501074152       -0.3435580343     0.1931634736      
8415000090        0.07852980789     0.3928105612      0.3848631517      -1.99772033       
                  0.3848631517      -1.99772033       0.4360950858      0.1674998464      
8500000000        0.3830554157      -0.1859337783     -1.832114417      0.4459258372      
                  -1.832114417      0.4459258372      -0.004301555367   -0.4600396702     
