! RsaToolbox (C) 2013 Rohde & Schwarz America
! 
! Number of points: 101
! Number of ports: 2
! Balanced ports?: 0
! 
! 
# Hz S RI R 50
9000              1.008792517       -0.01468318508    -9.62944523e-05   -0.0001289978359  
                  -9.62944523e-05   -0.0001289978359  1.018651252       -0.03330901791    
85008910          0.002389259004    0.1600591773      3.188095528       5.528701455       
                  3.188095528       5.528701455       -0.0919728525     -0.1152863704     
170008820         0.1421971496      -0.04495250487    3.202767451       -5.22257493       
                  3.202767451       -5.22257493       -0.01903895931    0.1715573249      
255008730         -0.1766168959     -0.0759893817     -6.066457557      -0.1771007973     
                  -6.066457557      -0.1771007973     0.07812501593     -0.02556555109    
340008640         -0.06342270371    0.1691844323      2.647084307       5.367660329       
                  2.647084307       5.367660329       -0.1257524684     -0.0544592235     
425008550         0.160323098       -0.04650367865    3.407055491       -4.869000588      
                  3.407055491       -4.869000588      0.01585215535     0.1031440321      
510008460         -0.101627524      -0.1636328786     -5.908258488      -0.6576755192     
                  -5.908258488      -0.6576755192     0.07095063052     -0.07962667641    
595008370         -0.1075963512     0.1400012137      2.221061773       5.436546287       
                  2.221061773       5.436546287       -0.08376832224    -0.01336947941    
680008280         0.204054823       0.03470556641     3.679462948       -4.57111958       
                  3.679462948       -4.57111958       0.09185082052     0.07531263989     
765008190         0.00925265309     -0.164747828      -5.73846429       -1.115966316      
                  -5.73846429       -1.115966316      0.05974030939     -0.05963525323    
850008100         -0.1826229014     0.1108799589      1.863861099       5.533319273       
                  1.863861099       5.533319273       -0.07143763027    0.06488721439     
935008010         0.1457873345      0.124230168       3.962233995       -4.22875915       
                  3.962233995       -4.22875915       0.1022210159      0.03825480613     
1020007920        0.07580543128     -0.1549102723     -5.594598175      -1.460518262      
                  -5.594598175      -1.460518262      -0.004543105061   -0.07573919675    
1105007830        -0.2253643379     -0.008083566704   1.469404978       5.62818827        
                  1.469404978       5.62818827        -0.0630252956     0.07514518334     
1190007740        0.07222768862     0.1406348982      4.204023887       -3.862208923      
                  4.204023887       -3.862208923      0.1238506022      -0.04188901191    
1275007650        0.1644218244      -0.1094190935     -5.471379817      -1.841997437      
                  -5.471379817      -1.841997437      -0.02937670707    -0.08862845512    
1360007560        -0.1643849479     -0.1001815647     1.036710656       5.652410845       
                  1.036710656       5.652410845       -0.005788778217   0.101490147       
1445007470        -0.0001575299656  0.1428443467      4.427167637       -3.538655478      
                  4.427167637       -3.538655478      0.1471276205      -0.08772900636    
1530007380        0.1852746727      -0.01159513408    -5.31208388       -2.201609242      
                  -5.31208388       -2.201609242      -0.06878476646    -0.06525594442    
1615007290        -0.0948335916     -0.1253071364     0.6047450586      5.609181269       
                  0.6047450586      5.609181269       0.02373316732     0.1425214865      
1700007200        -0.08910269743    0.09803761954     4.680922871       -3.238575033      
                  4.680922871       -3.238575033      0.1116150022      -0.1341374811     
1785007110        0.1288009281      0.03225154843     -5.068324782      -2.539427005      
                  -5.068324782      -2.539427005      -0.1319822625     -0.06433485       
1870007020        -0.02173238029    -0.1366465405     0.2183031753      5.613547113       
                  0.2183031753      5.613547113       0.06650349959     0.131058844       
1955006930        -0.1071828505     0.0215744985      4.883989671       -2.882464315      
                  4.883989671       -2.882464315      0.08971118551     -0.1936987079     
2040006840        0.08358856309     0.03871088546     -4.828957788      -2.821790912      
                  -4.828957788      -2.821790912      -0.154361771      -0.04261931337    
2125006750        0.03591605526     -0.09388784459    -0.2001787847     5.644256189       
                  -0.2001787847     5.644256189       0.1314049267      0.136566944       
2210006660        -0.0937146613     -0.00159102752    4.984085444       -2.525282535      
                  4.984085444       -2.525282535      0.04805617508     -0.218082798      
2295006570        0.02972464105     0.03774498854     -4.598866186      -3.15362652       
                  -4.598866186      -3.15362652       -0.1860420722     0.01549627821     
2380006480        0.02896462618     -0.05312558927    -0.5639288721     5.581665229       
                  -0.5639288721     5.581665229       0.1673777091      0.1131817618      
2465006390        -0.08887502768    -0.01620611127    5.058582194       -2.213687755      
                  5.058582194       -2.213687755      -0.01860660652    -0.259239446      
2550006300        0.01086341236     0.002743817182    -4.288593114      -3.495551119      
                  -4.288593114      -3.495551119      -0.1903649946     0.06120458809     
2635006210        0.02634525559     -0.04553093472    -0.9056530589     5.525596815       
                  -0.9056530589     5.525596815       0.2127638909      0.06454627908     
2720006120        -0.08235894476    -0.01272018772    5.137772673       -1.838745744      
                  5.137772673       -1.838745744      -0.09085343482    -0.2643253674     
2805006030        0.01573491227     0.0006187760431   -4.002627666      -3.743193467      
                  -4.002627666      -3.743193467      -0.1630534599     0.1241087185      
2890005940        0.02182883825     -0.03670226145    -1.242327027      5.404380363       
                  -1.242327027      5.404380363       0.2312787881      0.008568711309    
2975005850        -0.09626977522    -0.01008381183    5.173870289       -1.383436336      
                  5.173870289       -1.383436336      -0.1622986939     -0.2472292758     
3060005760        0.0168622257      0.01156903151     -3.71004699       -4.081840473      
                  -3.71004699       -4.081840473      -0.1191996469     0.1683697555      
3145005670        0.03735236339     -0.04485831421    -1.640319318      5.249805236       
                  -1.640319318      5.249805236       0.2321016303      -0.07070370146    
3230005580        -0.1012473447     -0.03404036114    5.278771112       -0.9821995443     
                  5.278771112       -0.9821995443     -0.2266259633     -0.2072022705     
3315005490        0.0118118126      0.03225002179     -3.436360533      -4.30906718       
                  -3.436360533      -4.30906718       -0.04594957108    0.2021466664      
3400005400        0.06190445521     -0.02804276089    -1.996802146      5.073954356       
                  -1.996802146      5.073954356       0.2021749071      -0.1450758321     
3485005310        -0.09786146004    -0.06443968232    5.379515933       -0.6144534235     
                  5.379515933       -0.6144534235     -0.2826478572     -0.1293072465     
3570005220        -0.01977749306    0.04916378968     -3.25014246       -4.509772629      
                  -3.25014246       -4.509772629      0.03241449644     0.2102560284      
3655005130        0.06829055855     0.003515293524    -2.192175533      4.950776873       
                  -2.192175533      4.950776873       0.134401941       -0.2095013178     
3740005040        -0.07796949657    -0.09262307682    5.369189998       -0.2526210275     
                  5.369189998       -0.2526210275     -0.3119449928     -0.0398097633     
3825004950        -0.05962364328    0.03790860718     -2.980636466      -4.645331604      
                  -2.980636466      -4.645331604      0.1132735888      0.1764441908      
3910004860        0.06395579386     0.03791766295     -2.622427892      4.724990673       
                  -2.622427892      4.724990673       0.05013677927     -0.2582222079     
3995004770        -0.02948731587    -0.1112446694     5.405562387       0.0705073725      
                  5.405562387       0.0705073725      -0.3045112609     0.06427210804     
4080004680        -0.08565379869    0.00710969301     -2.707588148      -4.811297313      
                  -2.707588148      -4.811297313      0.189937898       0.1286662438      
4165004590        0.03922742403     0.07058701111     -2.878098703      4.590784157       
                  -2.878098703      4.590784157       -0.04587559007    -0.2716616193     
4250004500        0.01080398999     -0.08754833799    5.495018679       0.3085548091      
                  5.495018679       0.3085548091      -0.2660025319     0.1759206551      
4335004410        -0.1017362102     -0.01997431599    -2.450229706      -4.922489148      
                  -2.450229706      -4.922489148      0.228656613       0.04455805901     
4420004320        -0.008743465053   0.08381061225     -3.083651321      4.479873857       
                  -3.083651321      4.479873857       -0.1634019002     -0.2507653559     
4505004230        0.03760111201     -0.05597722822    5.446834875       0.4863092278      
                  5.446834875       0.4863092278      -0.1967629138     0.2589016623      
4590004140        -0.09967678579    -0.05185766819    -2.182558283      -4.962402603      
                  -2.182558283      -4.962402603      0.228927554       -0.05774983978    
4675004050        -0.04521903547    0.06906800168     -3.183069516      4.361560471       
                  -3.183069516      4.361560471       -0.2545690665     -0.1910386275     
4760003960        0.05716501049     -0.0148252852     5.300591635       0.736795854       
                  5.300591635       0.736795854       -0.08615749283    0.3111854214      
4845003870        -0.07685320069    -0.06841769276    -1.937182661      -5.011797505      
                  -1.937182661      -5.011797505      0.2004585759      -0.1539545237     
4930003780        -0.07686673299    0.03986795127     -3.364188484      4.185770563       
                  -3.364188484      4.185770563       -0.3192458707     -0.09938371244    
5015003690        0.04900664837     0.03719810212     5.170771765       0.9659563412      
                  5.170771765       0.9659563412      0.0354552621      0.3347391817      
5100003600        -0.05291917121    -0.05529045765    -1.765273138      -5.092749349      
                  -1.765273138      -5.092749349      0.1194993791      -0.2292954552     
5185003510        -0.09030589102    0.004442216995    -3.420580934      3.960673057       
                  -3.420580934      3.960673057       -0.3503922604     0.01155799206     
5270003420        0.01384477646     0.07155327467     5.037656507       1.201684873       
                  5.037656507       1.201684873       0.1484481451      0.2987758854      
5355003330        -0.04156033557    -0.02240968733    -1.647587467      -5.153662642      
                  -1.647587467      -5.153662642      -0.002029669365   -0.278549246      
5440003240        -0.07131100051    -0.03946229719    -3.370021212      3.796343186       
                  -3.370021212      3.796343186       -0.3189919511     0.1322106479      
5525003150        -0.01854127401    0.05943030522     5.024532919       1.316265045       
                  5.024532919       1.316265045       0.2684130157      0.2015190028      
5610003060        -0.0383500429     0.02813921575     -1.597725706      -4.995296968      
                  -1.597725706      -4.995296968      -0.137104838      -0.2674519491     
5695002970        -0.01331107929    -0.04326821521    -3.367386617      3.573645869       
                  -3.367386617      3.573645869       -0.2213993051     0.2530148146      
5780002880        -0.02699833393    0.02261474283     4.978485633       1.416240248       
                  4.978485633       1.416240248       0.3285251825      0.05788479033     
5865002790        -0.07772294527    0.07636493589     -1.495579272      -4.72858868       
                  -1.495579272      -4.72858868       -0.2725343401     -0.1855117233     
5950002700        0.03716617311     0.005729293197    -3.402373916      3.368745323       
                  -3.402373916      3.368745323       -0.08277922496    0.332330854       
6035002610        -0.01912794015    -0.04065443922    4.764577974       1.306979798       
                  4.764577974       1.306979798       0.2992834469      -0.09793570199    
6120002520        -0.1449812468     0.07376819826     -1.385567587      -4.477012195      
                  -1.385567587      -4.477012195      -0.3584261884     -0.04552888265    
6205002430        0.07178378701     0.08798771596     -3.293845992      3.169866253       
                  -3.293845992      3.169866253       0.1024173891      0.3384704336      
6290002340        0.06234805519     -0.09217613077    4.544186143       1.164334288       
                  4.544186143       1.164334288       0.195153094       -0.2489566883     
6375002250        -0.2169637381     0.009027162221    -1.290111325      -4.169676316      
                  -1.290111325      -4.169676316      -0.3770076042     0.129562612       
6460002160        0.02938655012     0.2072310251      -3.023283449      2.956869596       
                  -3.023283449      2.956869596       0.269421697       0.272804002       
6545002070        0.1758709922      -0.05856423574    4.100497349       1.064412342       
                  4.100497349       1.064412342       0.02757906946     -0.3193241806     
6630001980        -0.2060463447     -0.1097687685     -1.125402381      -3.836976166      
                  -1.125402381      -3.836976166      -0.2964902003     0.3005952309      
6715001890        -0.07013787598    0.2723447856      -2.709137305      2.628558721       
                  -2.709137305      2.628558721       0.3802304647      0.1526023412      
6800001800        0.2647965406      0.05042987367     3.620990896       1.090383556       
                  3.620990896       1.090383556       -0.1314528273     -0.3072722128     
6885001710        -0.1037962765     -0.2424442187     -0.8546988976     -3.489239619      
                  -0.8546988976     -3.489239619      -0.1845627271     0.3831847147      
6970001620        -0.2061110752     0.2339716672      -2.621334688      2.244446616       
                  -2.621334688      2.244446616       0.4213873921      0.02142345869     
7055001530        0.2629611952      0.2067317245      3.223402059       1.239368651       
                  3.223402059       1.239368651       -0.2554142401     -0.2712338871     
7140001440        0.08159599859     -0.2997042193     -0.5257320072     -3.22167981       
                  -0.5257320072     -3.22167981       -0.06754172185    0.4480725089      
7225001350        -0.2939131252     0.09250997965     -2.557722809      1.88146455        
                  -2.557722809      1.88146455        0.447304365       -0.1054551886     
7310001260        0.1722006454      0.338503411       2.839946683       1.137356544       
                  2.839946683       1.137356544       -0.3522497749     -0.1853777744     
7395001170        0.2845923441      -0.2295696996     -0.2701207026     -2.94541021       
                  -0.2701207026     -2.94541021       0.08249391984     0.47657139        
7480001080        -0.2973034172     -0.106957504      -2.406918852      1.6310195         
                  -2.406918852      1.6310195         0.394674267       -0.2383340536     
7565000990        -0.03042048243    0.4025267116      2.630796263       1.164538039       
                  2.630796263       1.164538039       -0.4275132518     -0.08339937097    
7650000900        0.3996949094      -0.05655307168    -0.05096112864    -2.619857421      
                  -0.05096112864    -2.619857421      0.2108049076      0.4376553319      
7735000810        -0.1600403042     -0.307059754      -2.300229174      1.345166938       
                  -2.300229174      1.345166938       0.3179095946      -0.3456304615     
7820000720        -0.205739734      0.3165735663      2.278513161       1.234735146       
                  2.278513161       1.234735146       -0.404548102      0.02632760124     
7905000630        0.4159952842      0.1382581773      0.09063064047     -2.303302341      
                  0.09063064047     -2.303302341      0.3239392151      0.3612723046      
7990000540        0.06524222075     -0.3916701289     -2.217868891      0.9309907151      
                  -2.217868891      0.9309907151      0.2241656552      -0.407638484      
8075000450        -0.3507309922     0.1197424774      1.906706504       1.433497356       
                  1.906706504       1.433497356       -0.387173933      0.1169575784      
8160000360        0.2967494202      0.3136297906      0.2527142603      -2.184341355      
                  0.2527142603      -2.184341355      0.3979973707      0.2804971743      
8245000270        0.2566399445      -0.3337719296     -2.023920366      0.6160925938      
                  -2.023920366      0.6160925938      0.1142487375      -0.4398279072     
8330000180        -0.3601891378     -0.129576395      1.620452197       1.484205738       
                  1.620452197       1.484205738       -0.3378900373     0.1902959641      
8415000090        0.07834365376     0.391823813       0.3956599975      -1.984499292      
                  0.3956599975      -1.984499292      0.4382422649      0.170773111       
8500000000        0.3834768163      -0.1822150748     -1.827460738      0.4358857716      
                  -1.827460738      0.4358857716      0.0001840597615   -0.4610198241     
