! RsaToolbox (C) 2013 Rohde & Schwarz America
! 
! Number of points: 101
! Number of ports: 2
! Balanced ports?: 0
! 
! 
# Hz S RI R 50
9000              1.011154244       -0.01941688034    8.986385824e-05   -2.613143448e-05  
                  8.986385824e-05   -2.613143448e-05  1.017569638       -0.02650257841    
85008910          0.002252058765    0.1588461466      3.194684418       5.508023709       
                  3.194684418       5.508023709       -0.0923009548     -0.1155880703     
170008820         0.1422874918      -0.04410701696    3.187767457       -5.226070098      
                  3.187767457       -5.226070098      -0.02027445651    0.1713681952      
255008730         -0.1760595311     -0.07566290065    -6.060001038      -0.1651488956     
                  -6.060001038      -0.1651488956     0.07741771928     -0.0266631908     
340008640         -0.06356399793    0.169643777       2.654670156       5.354107387       
                  2.654670156       5.354107387       -0.1264783038     -0.05361471322    
425008550         0.1592999746      -0.04633930201    3.387653284       -4.870422286      
                  3.387653284       -4.870422286      0.01673662108     0.1029255521      
510008460         -0.1016735122     -0.1633399572     -5.906505503      -0.6461426907     
                  -5.906505503      -0.6461426907     0.07085029731     -0.07968297816    
595008370         -0.1074846932     0.1395850949      2.231250546       5.425166968       
                  2.231250546       5.425166968       -0.08362367396    -0.01208538096    
680008280         0.204403139       0.0337809523      3.661846057       -4.578582163      
                  3.661846057       -4.578582163      0.09204078268     0.07516792482     
765008190         0.009401306613    -0.1635379891     -5.733436096      -1.100633045      
                  -5.733436096      -1.100633045      0.06016590487     -0.06058523736    
850008100         -0.1817689956     0.1114645944      1.873512734       5.523877238       
                  1.873512734       5.523877238       -0.07161133948    0.06505932653     
935008010         0.1454732748      0.1234591173      3.944670409       -4.233210142      
                  3.944670409       -4.233210142      0.1022596817      0.03903894322     
1020007920        0.07555478312     -0.1538325568     -5.590008475      -1.444997444      
                  -5.590008475      -1.444997444      -0.004766713731   -0.07551698414    
1105007830        -0.225218901      -0.008254050766   1.483756055       5.616379232       
                  1.483756055       5.616379232       -0.06307673018    0.07522765524     
1190007740        0.07136160261     0.1402328817      4.193526737       -3.861776413      
                  4.193526737       -3.861776413      0.1241514409      -0.04240836616    
1275007650        0.1643608554      -0.1087698242     -5.469158381      -1.82715021       
                  -5.469158381      -1.82715021       -0.02998121372    -0.08921164388    
1360007560        -0.1632554136     -0.1005517324     1.047098309       5.642602115       
                  1.047098309       5.642602115       -0.005318262927   0.1018581333      
1445007470        0.000566040501    0.1418124583      4.408780784       -3.544404439      
                  4.408780784       -3.544404439      0.1470658964      -0.08830174627    
1530007380        0.1844717287      -0.01133011477    -5.30555595       -2.183910632      
                  -5.30555595       -2.183910632      -0.06917670044    -0.06463222327    
1615007290        -0.09414727561    -0.1238653699     0.6236206054      5.598317186       
                  0.6236206054      5.598317186       0.02323763864     0.1420682562      
1700007200        -0.08838474559    0.09727873558     4.664707651       -3.245860608      
                  4.664707651       -3.245860608      0.1108603064      -0.1333420005     
1785007110        0.1279532374      0.03168486887     -5.064654211      -2.525056013      
                  -5.064654211      -2.525056013      -0.1318346312     -0.06406834782    
1870007020        -0.0217162219     -0.1357384639     0.2285557009      5.60642646        
                  0.2285557009      5.60642646        0.06574392373     0.1319224036      
1955006930        -0.1066748799     0.02143015259     4.872695808       -2.891538661      
                  4.872695808       -2.891538661      0.08928153806     -0.1937540027     
2040006840        0.08280525858     0.03889048173     -4.828780367      -2.807961601      
                  -4.828780367      -2.807961601      -0.1547426177     -0.0414241888     
2125006750        0.03613432903     -0.09289612789    -0.1874519305     5.63512841        
                  -0.1874519305     5.63512841        0.1309389046      0.1369370628      
2210006660        -0.09218254261    -0.0007485324212  4.968409144       -2.538061005      
                  4.968409144       -2.538061005      0.04803525466     -0.2180916077     
2295006570        0.02940660549     0.03648133894     -4.596029282      -3.138072506      
                  -4.596029282      -3.138072506      -0.1861141166     0.01534050227     
2380006480        0.02880750382     -0.05244427514    -0.5508845902     5.571535077       
                  -0.5508845902     5.571535077       0.1670187185      0.1141527599      
2465006390        -0.08755781607    -0.01620620736    5.045909376       -2.218244506      
                  5.045909376       -2.218244506      -0.0197187804     -0.2593844337     
2550006300        0.01161905766     0.001081906072    -4.287767001      -3.477811624      
                  -4.287767001      -3.477811624      -0.1910027423     0.06064525855     
2635006210        0.02545683656     -0.04472657287    -0.8901478123     5.514041502       
                  -0.8901478123     5.514041502       0.2135841789      0.06409653177     
2720006120        -0.0822533079     -0.01043538657    5.120478635       -1.846673625      
                  5.120478635       -1.846673625      -0.09087018543    -0.264486434      
2805006030        0.01788949248     -0.0001008489561  -4.002092757      -3.723706377      
                  -4.002092757      -3.723706377      -0.1630255101     0.1234483315      
2890005940        0.02110884405     -0.0367178145     -1.228984966      5.388987765       
                  -1.228984966      5.388987765       0.2318538944      0.008882422102    
2975005850        -0.09477955256    -0.007644492349   5.153485115       -1.389349769      
                  5.153485115       -1.389349769      -0.1623354375     -0.2473094315     
3060005760        0.01881529658     0.009770978569    -3.702992281      -4.06647758       
                  -3.702992281      -4.06647758       -0.1190966343     0.1687148728      
3145005670        0.03571281899     -0.04481674413    -1.626026301      5.233868086       
                  -1.626026301      5.233868086       0.2316941175      -0.07151559852    
3230005580        -0.101967405      -0.03239666541    5.260469685       -0.9858451218     
                  5.260469685       -0.9858451218     -0.226894418      -0.207762307      
3315005490        0.0116820433      0.03186473194     -3.431252106      -4.291913557      
                  -3.431252106      -4.291913557      -0.04605588277    0.2026778794      
3400005400        0.06109637972     -0.02975496286    -1.980055057      5.067424587       
                  -1.980055057      5.067424587       0.2014771811      -0.1451428681     
3485005310        -0.09848709688    -0.06344306053    5.361899048       -0.6220469286     
                  5.361899048       -0.6220469286     -0.2824857173     -0.1295486398     
3570005220        -0.01976108721    0.04986649137     -3.250372256      -4.480332886      
                  -3.250372256      -4.480332886      0.03352208473     0.2109091927      
3655005130        0.06895369427     0.003317775274    -2.175946978      4.933900098       
                  -2.175946978      4.933900098       0.1343640638      -0.2087569494     
3740005040        -0.07807832326    -0.0933571575     5.349790073       -0.2652280511     
                  5.349790073       -0.2652280511     -0.3121044664     -0.03959432186    
3825004950        -0.05868307966    0.03780488968     -2.978499864      -4.61105272       
                  -2.978499864      -4.61105272       0.1136408794      0.1760864487      
3910004860        0.06451692461     0.03668896724     -2.593768588      4.711599074       
                  -2.593768588      4.711599074       0.05034851185     -0.2589754098     
3995004770        -0.03179346906    -0.1117081928     5.381600907       0.05529644665     
                  5.381600907       0.05529644665     -0.3052712878     0.06522379139     
4080004680        -0.08490093715    0.009011649103    -2.70161593       -4.782331251      
                  -2.70161593       -4.782331251      0.1906706727      0.1283201443      
4165004590        0.0405864104      0.06990453756     -2.857010988      4.572731806       
                  -2.857010988      4.572731806       -0.04644158581    -0.2715020333     
4250004500        0.01083651849     -0.08906770127    5.466768625       0.3034336466      
                  5.466768625       0.3034336466      -0.2656970398     0.1754767239      
4335004410        -0.102259868      -0.01891208977    -2.44504596       -4.891778057      
                  -2.44504596       -4.891778057      0.2297388398      0.04444997613     
4420004320        -0.00639701779    0.08396534643     -3.059759464      4.456973776       
                  -3.059759464      4.456973776       -0.1639766246     -0.2508036069     
4505004230        0.03798501351     -0.0580784281     5.414919468       0.4808460067      
                  5.414919468       0.4808460067      -0.1967349439     0.2589358121      
4590004140        -0.1014302612     -0.0513638948     -2.18030158       -4.92522784       
                  -2.18030158       -4.92522784       0.2296333536      -0.05756455882    
4675004050        -0.04394433477    0.07152179324     -3.154178035      4.33807359        
                  -3.154178035      4.33807359        -0.2552676162     -0.1911949565     
4760003960        0.05772401716     -0.01752771918    5.263713462       0.7139563954      
                  5.263713462       0.7139563954      -0.08688385916    0.3110524855      
4845003870        -0.07789620776    -0.06840530816    -1.932605557      -4.973803427      
                  -1.932605557      -4.973803427      0.2003693886      -0.154783881      
4930003780        -0.07598979598    0.04226180001     -3.335392401      4.153555584       
                  -3.335392401      4.153555584       -0.3193662105     -0.099636095      
5015003690        0.05110960241     0.03672782089     5.135064913       0.9542243287      
                  5.135064913       0.9542243287      0.03555699693     0.3345216235      
5100003600        -0.05335782935    -0.05719671031    -1.7598615        -5.042102634      
                  -1.7598615        -5.042102634      0.1195047268      -0.229330184      
5185003510        -0.09137295295    0.005601247891    -3.387512752      3.930620096       
                  -3.387512752      3.930620096       -0.3496346848     0.01153661626     
5270003420        0.016328417       0.07118608234     4.997665983       1.185108264       
                  4.997665983       1.185108264       0.1498897545      0.299731151       
5355003330        -0.04307303845    -0.02427699042    -1.644885386      -5.098109624      
                  -1.644885386      -5.098109624      -0.002210309385   -0.2790429674     
5440003240        -0.07278784988    -0.0376669289     -3.333668562      3.764112721       
                  -3.333668562      3.764112721       -0.3194341079     0.1320596347      
5525003150        -0.01665509952    0.06136671911     4.978984392       1.300294778       
                  4.978984392       1.300294778       0.2689455947      0.2013976393      
5610003060        -0.03858021359    0.02529388366     -1.587782376      -4.939938409      
                  -1.587782376      -4.939938409      -0.136913271      -0.2675610783     
5695002970        -0.01580760669    -0.04217892604    -3.333507173      3.545904764       
                  -3.333507173      3.545904764       -0.2214073886     0.2526822444      
5780002880        -0.02468659478    0.02504012684     4.928222272       1.392474342       
                  4.928222272       1.392474342       0.3292633429      0.05793577886     
5865002790        -0.07560010952    0.0738639117      -1.486468263      -4.679084358      
                  -1.486468263      -4.679084358      -0.272668382      -0.1851844177     
5950002700        0.03389287773     0.004980210758    -3.367092775      3.337787697       
                  -3.367092775      3.337787697       -0.08281671975    0.3330179675      
6035002610        -0.01792434107    -0.03673008468    4.713127267       1.28951761        
                  4.713127267       1.28951761        0.2984658399      -0.09754421691    
6120002520        -0.1428598964     0.07221118999     -1.366856031      -4.425509263      
                  -1.366856031      -4.425509263      -0.3585579499     -0.04547109222    
6205002430        0.06917843396     0.08715542079     -3.257322428      3.133121734       
                  -3.257322428      3.133121734       0.1017521494      0.3374919052      
6290002340        0.05983508086     -0.08819250816    4.488686227       1.15578398        
                  4.488686227       1.15578398        0.1949441711      -0.2480060283     
6375002250        -0.2128474248     0.007824792671    -1.266981977      -4.136271424      
                  -1.266981977      -4.136271424      -0.376142193      0.1299729994      
6460002160        0.02847930656     0.2043393064      -3.01773837       2.934016899       
                  -3.01773837       2.934016899       0.270778448       0.2723233397      
6545002070        0.1748971613      -0.05790991903    4.089215085       1.06128219        
                  4.089215085       1.06128219        0.02872172549     -0.3201221306     
6630001980        -0.2048061077     -0.1102364692     -1.121645066      -3.834230675      
                  -1.121645066      -3.834230675      -0.2985703934     0.3023230246      
6715001890        -0.07214408758    0.2727507358      -2.719676864      2.619027162       
                  -2.719676864      2.619027162       0.3839259393      0.1561349943      
6800001800        0.2638761755      0.05644425558     3.609564879       1.122575362       
                  3.609564879       1.122575362       -0.1313626362     -0.3088396118     
6885001710        -0.1014229456     -0.2394266177     -0.810991853      -3.489984551      
                  -0.810991853      -3.489984551      -0.1881529651     0.3880074792      
6970001620        -0.2091164877     0.2318029439      -2.632446432      2.214681146       
                  -2.632446432      2.214681146       0.4232376444      0.02330978936     
7055001530        0.261252169       0.207633081       3.210296421       1.240873649       
                  3.210296421       1.240873649       -0.2570374279     -0.2715858249     
7140001440        0.08231826303     -0.2984037511     -0.5349260305     -3.221100488      
                  -0.5349260305     -3.221100488      -0.06321726881    0.4539245103      
7225001350        -0.2958436119     0.09513796559     -2.574216379      1.889434532       
                  -2.574216379      1.889434532       0.4526361885      -0.1036351535     
7310001260        0.1688994666      0.3468396855      2.856490647       1.16231948        
                  2.856490647       1.16231948        -0.3585699245     -0.1849794912     
7395001170        0.2851679207      -0.2261882875     -0.2421163937     -2.958940865      
                  -0.2421163937     -2.958940865      0.07732324918     0.4821865997      
7480001080        -0.2977673908     -0.1114763467     -2.411311972      1.604641701       
                  -2.411311972      1.604641701       0.394978025       -0.2372510586     
7565000990        -0.03198537879    0.3989982076      2.60849046        1.165257645       
                  2.60849046        1.165257645       -0.4247420211     -0.08415618581    
7650000900        0.4002687301      -0.05572051677    -0.05090410436    -2.605279172      
                  -0.05090410436    -2.605279172      0.2124883186      0.4389266099      
7735000810        -0.1603582031     -0.3065978443     -2.29468271       1.341425985       
                  -2.29468271       1.341425985       0.3174358994      -0.3464828222     
7820000720        -0.2084874364     0.3155511091      2.272074874       1.242519874       
                  2.272074874       1.242519874       -0.4061621476     0.02489640473     
7905000630        0.4137680365      0.1393889721      0.09941631121     -2.297729103      
                  0.09941631121     -2.297729103      0.3243436829      0.3622452304      
7990000540        0.06681320949     -0.3903373092     -2.213541981      0.9210369844      
                  -2.213541981      0.9210369844      0.2214929611      -0.4070058974     
8075000450        -0.3505600978     0.1193516938      1.902517811       1.434910753       
                  1.902517811       1.434910753       -0.3879155388     0.1188083149      
8160000360        0.2965276558      0.3137314671      0.2546187133      -2.187901321      
                  0.2546187133      -2.187901321      0.3995479095      0.2801646207      
8245000270        0.257948456       -0.3366788254     -2.039018355      0.6122593451      
                  -2.039018355      0.6122593451      0.1150970551      -0.4442456892     
8330000180        -0.3659293899     -0.1326666397     1.633844851       1.500327606       
                  1.633844851       1.500327606       -0.3431260957     0.1935765441      
8415000090        0.07808119129     0.3928009417      0.3869579084      -1.995206592      
                  0.3869579084      -1.995206592      0.435617068       0.1672612425      
8500000000        0.382954631       -0.185318747      -1.831515951      0.4438431033      
                  -1.831515951      0.4438431033      -0.004449110598   -0.4603001844     
