! RsaToolbox (C) 2013 Rohde & Schwarz America
! 
! Number of points: 101
! Number of ports: 2
! Balanced ports?: 0
! 
! 
# Hz S RI R 50
9000              1.00241409        -0.01437927446    7.52579092e-05    -4.1005359e-06    
                  7.52579092e-05    -4.1005359e-06    1.010996814       -0.02351367397    
85008910          9.606600089e-05   0.1538266134      3.177859922       5.44110814        
                  3.177859922       5.44110814        -0.09253989832    -0.1159793544     
170008820         0.1386511281      -0.0405549995     3.155944173       -5.188902416      
                  3.155944173       -5.188902416      -0.02072971681    0.1717796191      
255008730         -0.1722941845     -0.07457916991    -6.022203228      -0.154041575      
                  -6.022203228      -0.154041575      0.07760040356     -0.02656200194    
340008640         -0.06354988297    0.1653707072      2.646086963       5.315666937       
                  2.646086963       5.315666937       -0.1267880723     -0.05396641539    
425008550         0.1553855836      -0.04516590747    3.355154191       -4.848567106      
                  3.355154191       -4.848567106      0.01656122247     0.1029596296      
510008460         -0.09912536925    -0.1604181471     -5.875086775      -0.6224765147     
                  -5.875086775      -0.6224765147     0.07087460363     -0.07978341101    
595008370         -0.1054271912     0.1358364444      2.232715493       5.386679657       
                  2.232715493       5.386679657       -0.08385803712    -0.01223724344    
680008280         0.2005018798      0.03333050278     3.625083164       -4.566319885      
                  3.625083164       -4.566319885      0.09213991999     0.07547498644     
765008190         0.01053433537     -0.1594489635     -5.701863751      -1.07349832       
                  -5.701863751      -1.07349832       0.06026901751     -0.06071363077    
850008100         -0.178691729      0.1091006006      1.888347447       5.483873554       
                  1.888347447       5.483873554       -0.07182190134    0.06502577612     
935008010         0.1421165046      0.1212209255      3.905467646       -4.225561133      
                  3.905467646       -4.225561133      0.1021198997      0.03894638559     
1020007920        0.07443780103     -0.1497056291     -5.562016279      -1.41433932       
                  -5.562016279      -1.41433932       -0.004852162541   -0.07582868732    
1105007830        -0.2214184212     -0.008797219938   1.507754817       5.57408764        
                  1.507754817       5.57408764        -0.06318645366    0.07525081594     
1190007740        0.06916215519     0.1361188963      4.150963616       -3.852840944      
                  4.150963616       -3.852840944      0.1243188699      -0.04248182734    
1275007650        0.1613558547      -0.1054624527     -5.446605622      -1.784120519      
                  -5.446605622      -1.784120519      -0.03017759873    -0.08919293499    
1360007560        -0.1594081512     -0.09884378208    1.075170178       5.599640826       
                  1.075170178       5.599640826       -0.005656729017   0.101917636       
1445007470        0.0007519029061   0.136720736       4.361103307       -3.542546213      
                  4.361103307       -3.542546213      0.1472040458      -0.08832361497    
1530007380        0.1796801866      -0.00996662367    -5.287730359      -2.132000418      
                  -5.287730359      -2.132000418      -0.06940282915    -0.06470242627    
1615007290        -0.09064863379    -0.1187399311     0.6613807992      5.551446348       
                  0.6613807992      5.551446348       0.02308089172     0.142288045       
1700007200        -0.08509758826    0.09218288855     4.605313127       -3.256127571      
                  4.605313127       -3.256127571      0.110916807       -0.1335276176     
1785007110        0.1217073091      0.03017916964     -5.043789605      -2.46282833       
                  -5.043789605      -2.46282833       -0.1321343763     -0.06415860706    
1870007020        -0.02121635888    -0.128806771      0.2744517323      5.55595829        
                  0.2744517323      5.55595829        0.06564721546     0.1322842389      
1955006930        -0.1006092211     0.01831672657     4.804627802       -2.911820147      
                  4.804627802       -2.911820147      0.08930691028     -0.1939935048     
2040006840        0.07675173801     0.0335018317      -4.809003841      -2.735618183      
                  -4.809003841      -2.735618183      -0.1550215043     -0.0417229248     
2125006750        0.0330072441      -0.08574105223    -0.1273501642     5.582537561       
                  -0.1273501642     5.582537561       0.1309702395      0.1370829455      
2210006660        -0.08373154108    -0.0005725712659  4.887527806       -2.565019095      
                  4.887527806       -2.565019095      0.04803137698     -0.2183227572     
2295006570        0.02638956282     0.02768678875     -4.577068318      -3.051652204      
                  -4.577068318      -3.051652204      -0.1864442996     0.01517854468     
2380006480        0.02138455221     -0.04673887554    -0.4814196286     5.512217245       
                  -0.4814196286     5.512217245       0.1668489231      0.1141329589      
2465006390        -0.07895037798    -0.01152755834    4.953260512       -2.255537704      
                  4.953260512       -2.255537704      -0.01965210526    -0.2599221468     
2550006300        0.01290333491     -0.009524681699   -4.26805377       -3.381791963      
                  -4.26805377       -3.381791963      -0.1912365162     0.06034195409     
2635006210        0.01431101386     -0.0429129772     -0.7944172975     5.446654567       
                  -0.7944172975     5.446654567       0.2136056719      0.06418690156     
2720006120        -0.07591404464    -0.001120084369   5.0210799         -1.891462661      
                  5.0210799         -1.891462661      -0.09065877268    -0.2649237855     
2805006030        0.02417310763     -0.009876436612   -3.989065044      -3.611142494      
                  -3.989065044      -3.611142494      -0.1633144114     0.1232541335      
2890005940        0.008489012095    -0.04103619563    -1.110272038      5.315071818       
                  -1.110272038      5.315071818       0.2323373603      0.0089927333      
2975005850        -0.09325318223    0.005119437832    5.044638208       -1.439791394      
                  5.044638208       -1.439791394      -0.1623805478     -0.248016358      
3060005760        0.03004065798     0.00379825299     -3.701984315      -3.936968608      
                  -3.701984315      -3.936968608      -0.1190641036     0.1686537889      
3145005670        0.02559515995     -0.05469872047    -1.495522569      5.162022717       
                  -1.495522569      5.162022717       0.2321393949      -0.07152314604    
3230005580        -0.1062230463     -0.01971391518    5.145024463       -1.049124588      
                  5.145024463       -1.049124588      -0.2268241409     -0.2083288225     
3315005490        0.02646478333     0.03219025079     -3.447197981      -4.135969925      
                  -3.447197981      -4.135969925      -0.04608299584    0.2028343621      
3400005400        0.05582708793     -0.04550526764    -1.814917458      4.994292369       
                  -1.814917458      4.994292369       0.2019806642      -0.1449911927     
3485005310        -0.1102695527     -0.05260735364    5.226621808       -0.7159672497     
                  5.226621808       -0.7159672497     -0.2821408777     -0.1299851343     
3570005220        -0.003945862607   0.05867107794     -3.286304233      -4.283087055      
                  -3.286304233      -4.283087055      0.03346759406     0.211084542       
3655005130        0.07211198103     -0.01655504216    -1.97432665       4.856256659       
                  -1.97432665       4.856256659       0.1353259172      -0.2086665921     
3740005040        -0.09620504941    -0.08887998089    5.196525416       -0.3990025016     
                  5.196525416       -0.3990025016     -0.3119424745     -0.03988644551    
3825004950        -0.04647657964    0.05812769734     -3.04640424       -4.347587653      
                  -3.04640424       -4.347587653      0.1138155788      0.1766854182      
3910004860        0.0803850364      0.01680779959     -2.329672412      4.638524607       
                  -2.329672412      4.638524607       0.0512816612      -0.2590458398     
3995004770        -0.05654312358    -0.1185547947     5.17721856        -0.1463571403     
                  5.17721856        -0.1463571403     -0.3053704516     0.06539717721     
4080004680        -0.08321839203    0.03937397913     -2.783768683      -4.464587493      
                  -2.783768683      -4.464587493      0.1912331151      0.1285356434      
4165004590        0.06783464616     0.05662386648     -2.571404191      4.483312439       
                  -2.571404191      4.483312439       -0.04606283922    -0.2722061607     
4250004500        -0.01293599115    -0.1107120237     5.217205928       0.06433851073     
                  5.217205928       0.06433851073     -0.2657292839     0.1756978848      
4335004410        -0.1160517126     0.01496428741     -2.54282204       -4.517973139      
                  -2.54282204       -4.517973139      0.2304664255      0.04481318444     
4420004320        0.03011815923     0.08331532427     -2.695701303      4.361952293       
                  -2.695701303      4.361952293       -0.1637498529     -0.2510556871     
4505004230        0.0224378832      -0.09457733155    5.108047247       0.1795639897      
                  5.108047247       0.1795639897      -0.1968876627     0.2591643484      
4590004140        -0.1323602963     -0.02230690961    -2.297591833      -4.490169182      
                  -2.297591833      -4.490169182      0.2298118686      -0.05749590929    
4675004050        -0.005040830331   0.08951256509     -2.710903358      4.21514274        
                  -2.710903358      4.21514274        -0.2555352187     -0.1915422151     
4760003960        0.05948598457     -0.06244786652    4.92643416        0.3743746687      
                  4.92643416        0.3743746687      -0.08676435474    0.3114477549      
4845003870        -0.1234994375     -0.0531913037     -2.065704243      -4.466899316      
                  -2.065704243      -4.466899316      0.2005761132      -0.154872135      
4930003780        -0.04453202164    0.08138881698     -2.815237787      4.000214491       
                  -2.815237787      4.000214491       -0.3198624836     -0.09994926571    
5015003690        0.07453562969     -0.009495593173   4.764375569       0.5785815957      
                  4.764375569       0.5785815957      0.03542436591     0.3349579766      
5100003600        -0.1079890258     -0.06414879346    -1.910209892      -4.427583159      
                  -1.910209892      -4.427583159      0.1196974644      -0.2293169622     
5185003510        -0.0781343653     0.05903289578     -2.830178958      3.748359403       
                  -2.830178958      3.748359403       -0.3500371893     0.01124401996     
5270003420        0.05907856037     0.03610157685     4.598141246       0.7835281581      
                  4.598141246       0.7835281581      0.1495544272      0.3001862089      
5355003330        -0.09384907925    -0.05785066538    -1.803750504      -4.377590434      
                  -1.803750504      -4.377590434      -0.002147511141   -0.2793156857     
5440003240        -0.08293539881    0.01727426448     -2.789997408      3.563787108       
                  -2.789997408      3.563787108       -0.3198739644     0.1319866284      
5525003150        0.03821148334     0.04685766877     4.528594821       0.8716893061      
                  4.528594821       0.8716893061      0.2690194047      0.2017819234      
5610003060        -0.06931789415    -0.02624433544    -1.716662706      -4.227557435      
                  -1.716662706      -4.227557435      -0.1365900293     -0.268127794      
5695002970        -0.04846572312    0.004782885483    -2.780301343      3.335315377       
                  -2.780301343      3.335315377       -0.2215162723     0.2529949105      
5780002880        0.03376332254     0.03713788766     4.408127758       0.9309621798      
                  4.408127758       0.9309621798      0.3297422805      0.05836556082     
5865002790        -0.08064163589    0.01611784458     -1.570898608      -4.019583624      
                  -1.570898608      -4.019583624      -0.2721760102     -0.1857636451     
5950002700        -0.01458549225    0.034045022       -2.799576397      3.124273948       
                  -2.799576397      3.124273948       -0.08303348987    0.33329238        
6035002610        0.02807561798     7.944353276e-05   4.168644494       0.8666854263      
                  4.168644494       0.8666854263      0.2989893986      -0.09712631028    
6120002520        -0.1230202702     0.02027256208     -1.418195254      -3.819216111      
                  -1.418195254      -3.819216111      -0.3583998955     -0.04581953869    
6205002430        0.01526777141     0.091246497       -2.723899644      2.92653872        
                  -2.723899644      2.92653872        0.1021272594      0.3378806064      
6290002340        0.08289662573     -0.03787140704    3.959448524       0.801060115       
                  3.959448524       0.801060115       0.1956959908      -0.2480090312     
6375002250        -0.1771333659     -0.02795138721    -1.285984169      -3.621101021      
                  -1.285984169      -3.621101021      -0.3762376088     0.1295804982      
6460002160        -0.0155780429     0.187204776       -2.572628804      2.742590605       
                  -2.572628804      2.742590605       0.2710431868      0.2726211971      
6545002070        0.1732442324      -0.009011724357   3.642020403       0.782835024       
                  3.642020403       0.782835024       0.02913114985     -0.3203324547     
6630001980        -0.1625040168     -0.1259308053     -1.126615055      -3.396999786      
                  -1.126615055      -3.396999786      -0.2991825621     0.3021979136      
6715001890        -0.1000277773     0.243519368       -2.369407844      2.453406749       
                  -2.369407844      2.453406749       0.384144921       0.156493475       
6800001800        0.2447054358      0.09298437426     3.264516705       0.8878205138      
                  3.264516705       0.8878205138      -0.131280422      -0.3090670227     
6885001710        -0.06290598842    -0.2349417437     -0.8250896137     -3.139635308      
                  -0.8250896137     -3.139635308      -0.18842122       0.3883725028      
6970001620        -0.2201076291     0.1993932472      -2.35323099       2.092808581       
                  -2.35323099       2.092808581       0.4236512476      0.02386120477     
7055001530        0.2360803752      0.2267829003      2.970385061       1.054616455       
                  2.970385061       1.054616455       -0.2572260264     -0.2715316397     
7140001440        0.1041615096      -0.2833570777     -0.5534490798     -2.987940942      
                  -0.5534490798     -2.987940942      -0.06364194085    0.4542972495      
7225001350        -0.2933420333     0.06908938166     -2.366989456      1.808296381       
                  -2.366989456      1.808296381       0.4529493515      -0.1031478552     
7310001260        0.1479186298      0.3506398491      2.698738041       1.044302038       
                  2.698738041       1.044302038       -0.3589190236     -0.1851810128     
7395001170        0.2951336916      -0.2075344048     -0.2670100632     -2.780184906      
                  -0.2670100632     -2.780184906      0.07694891081     0.4824905766      
7480001080        -0.2847886009     -0.1318697544     -2.233349808      1.533616006       
                  -2.233349808      1.533616006       0.3951357392      -0.2369686562     
7565000990        -0.05192777878    0.3942621013      2.464812715       1.062315596       
                  2.464812715       1.062315596       -0.4254625482     -0.08466188808    
7650000900        0.4010486691      -0.0404685078     -0.07003599503    -2.488102499      
                  -0.07003599503    -2.488102499      0.212689531       0.4394045984      
7735000810        -0.1483062862     -0.3130288161     -2.19337999       1.297131653       
                  -2.19337999       1.297131653       0.3176361059      -0.3463644106     
7820000720        -0.2183261883     0.3080698937      2.183399406       1.179114786       
                  2.183399406       1.179114786       -0.4067516896     0.02469287532     
7905000630        0.4097788258      0.1486985201      0.08877679825     -2.222464746      
                  0.08877679825     -2.222464746      0.3243829026      0.3629262831      
7990000540        0.0780028994      -0.390646234      -2.13003319       0.8905176849      
                  -2.13003319       0.8905176849      0.2218174315      -0.4075473081     
8075000450        -0.3552195084     0.1089297375      1.835622139       1.38137639        
                  1.835622139       1.38137639        -0.388468984      0.1187355685      
8160000360        0.2898095029      0.3198309849      0.2435297172      -2.120664679      
                  0.2435297172      -2.120664679      0.3996034004      0.2803630146      
8245000270        0.2648701444      -0.3327915541     -1.98369997       0.598701832       
                  -1.98369997       0.598701832       0.1144897164      -0.4445627669     
8330000180        -0.364228179      -0.1422347532     1.587313875       1.459365277       
                  1.587313875       1.459365277       -0.3435103407     0.1932263257      
8415000090        0.07066124212     0.3947043664      0.3762685097      -1.946082285      
                  0.3762685097      -1.946082285      0.4361911696      0.1674671293      
8500000000        0.3864515852      -0.1805962651     -1.794826839      0.4352934932      
                  -1.794826839      0.4352934932      -0.005172942251   -0.4609354757     
