! RsaToolbox (C) 2013 Rohde & Schwarz America
! 
! Number of points: 101
! Number of ports: 2
! Balanced ports?: 0
! 
! 
# Hz S RI R 50
9000              0.9859873583      -0.009333499695   7.198669769e-05   -1.25150327e-05   
                  7.198669769e-05   -1.25150327e-05   0.9980394545      -0.0182376885     
85008910          -0.04532609608    0.04094889148     2.512779984       4.113049793       
                  2.512779984       4.113049793       -0.09237645292    -0.1167853483     
170008820         0.06528144166     0.03347215023     2.484190841       -4.30758543       
                  2.484190841       -4.30758543       -0.02111667609    0.1719101245      
255008730         -0.09187010338    -0.0503862089     -4.988230966      0.07220660257     
                  -4.988230966      0.07220660257     0.07785566667     -0.02671449366    
340008640         -0.06945783937    0.08027275423     2.389430126       4.330193309       
                  2.389430126       4.330193309       -0.1270916698     -0.0544360542     
425008550         0.08026789593     -0.01155137771    2.636020396       -4.202888779      
                  2.636020396       -4.202888779      0.01625368362     0.102986608       
510008460         -0.04059338682    -0.1066317611     -4.942277592      -0.2590291976     
                  -4.942277592      -0.2590291976     0.07100067362     -0.07998675845    
595008370         -0.06961577391    0.05587868218     2.086526256       4.508198816       
                  2.086526256       4.508198816       -0.08420455289    -0.01245564374    
680008280         0.1285935485      0.04083932892     2.829706003       -4.04436995       
                  2.829706003       -4.04436995       0.09207564737     0.07580444675     
765008190         0.03788889282     -0.07728675483    -4.920210554      -0.7280933322     
                  -4.920210554      -0.7280933322     0.06049590324     -0.06087952916    
850008100         -0.1321678992     0.05624719354     1.901557858       4.536375347       
                  1.901557858       4.536375347       -0.07219126392    0.06488538361     
935008010         0.07156614008     0.08709870976     3.121120884       -3.791750761      
                  3.121120884       -3.791750761      0.1022378177      0.03901934735     
1020007920        0.0613337872      -0.07136124284    -4.874559483      -1.004340052      
                  -4.874559483      -1.004340052      -0.00493572077    -0.07624607263    
1105007830        -0.1588381654     -0.03327915316    1.66221975        4.523530005       
                  1.66221975        4.523530005       -0.0636988793     0.07527500502     
1190007740        0.0280602418      0.05701944199     3.441124092       -3.491135831      
                  3.441124092       -3.491135831      0.1243833564      -0.0423090482     
1275007650        0.1120829526      -0.03893831754    -4.711901729      -1.147859755      
                  -4.711901729      -1.147859755      -0.03033092947    -0.08940210734    
1360007560        -0.07611916535    -0.06914342671    1.305268443       4.620673712       
                  1.305268443       4.620673712       -0.00599216832    0.1021639252      
1445007470        0.009555442482    0.03302990698     3.558645496       -3.262422894      
                  3.558645496       -3.262422894      0.1475298064      -0.08823670027    
1530007380        0.07266813002     0.02240262572     -4.502642357      -1.253684674      
                  -4.502642357      -1.253684674      -0.06975050634    -0.06495634421    
1615007290        -0.02011069847    -0.01236840195    1.020463662       4.551010768       
                  1.020463662       4.551010768       0.02263619425     0.14262861        
1700007200        -0.003198909994   -0.01408751769    3.454315869       -3.110058353      
                  3.454315869       -3.110058353      0.1111763309      -0.1336022958     
1785007110        -0.01140477592    -0.01215736941    -4.36487879       -1.529121132      
                  -4.36487879       -1.529121132      -0.1325997482     -0.06455130495    
1870007020        -0.01716821178    0.01758382113     0.8206820465      4.514113675       
                  0.8206820465      4.514113675       0.0652963412      0.1326840556      
1955006930        0.03124683046     -0.03027343704    3.635107599       -2.939317554      
                  3.635107599       -2.939317554      0.08957642848     -0.1943346303     
2040006840        -0.0172828515     -0.07238786079    -4.29519885       -1.791125071      
                  -4.29519885       -1.791125071      -0.1555663073     -0.04205236702    
2125006750        -0.04495474673    0.04692992504     0.5983894677      4.583638025       
                  0.5983894677      4.583638025       0.1308677167      0.1374261482      
2210006660        0.06923333546     0.02127413403     3.678712895       -2.728820326      
                  3.678712895       -2.728820326      0.04829788019     -0.2188423697     
2295006570        -0.007855334143   -0.1274810798     -4.11464247       -1.912279787      
                  -4.11464247       -1.912279787      -0.1869405739     0.0148205248      
2380006480        -0.1093622651     0.03211171176     0.3245073484      4.594823127       
                  0.3245073484      4.594823127       0.1669685521      0.1142792144      
2465006390        0.0554268627      0.08637644425     3.681807273       -2.544527231      
                  3.681807273       -2.544527231      -0.01944927118    -0.2606119639     
2550006300        0.04989093547     -0.1575862266     -3.919616916      -2.240504924      
                  -3.919616916      -2.240504924      -0.1916308422     0.06036167155     
2635006210        -0.1568535548     -0.03162722004    0.2215962183      4.436304555       
                  0.2215962183      4.436304555       0.2138889048      0.06416354717     
2720006120        0.004974126299    0.1583304029      3.686983787       -2.298258583      
                  3.686983787       -2.298258583      -0.09065464184    -0.2656572343     
2805006030        0.1382493644      -0.1347405499     -3.718734224      -2.248720402      
                  -3.718734224      -2.248720402      -0.1636236475     0.1228788254      
2890005940        -0.1608601644     -0.1163632839     0.04484620202     4.258330862       
                  0.04484620202     4.258330862       0.2329303611      0.008879419171    
2975005850        -0.09048153226    0.1854061113      3.728767792       -1.883464599      
                  3.728767792       -1.883464599      -0.1620370408     -0.2490807806     
3060005760        0.1990912373      -0.05520260344    -3.494859831      -2.432653084      
                  -3.494859831      -2.432653084      -0.1193096378     0.1684795137      
3145005670        -0.09622268942    -0.1970458013     -0.3004305307     4.165522262       
                  -0.3004305307     4.165522262       0.2328835459      -0.07176235779    
3230005580        -0.1829169981     0.1419970322      3.823208435       -1.555751538      
                  3.823208435       -1.555751538      -0.2267238301     -0.209160449      
3315005490        0.2194969667      0.05618160355     -3.266706718      -2.452267912      
                  -3.266706718      -2.452267912      -0.04597483823    0.2028806256      
3400005400        0.002602703788    -0.2361418316     -0.5277629861     3.977623865       
                  -0.5277629861     3.977623865       0.2029746526      -0.1451483033     
3485005310        -0.261267357      0.06531640939     3.760201448       -1.327442635      
                  3.760201448       -1.327442635      -0.2818808457     -0.1307283316     
3570005220        0.1699918362      0.1686773401      -3.071878523      -2.488896094      
                  -3.071878523      -2.488896094      0.03383389801     0.2116076145      
3655005130        0.1032687754      -0.2202150829     -0.6492114575     3.779266757       
                  -0.6492114575     3.779266757       0.1363340232      -0.2084650053     
3740005040        -0.2868674523     -0.04673514884    3.647894695       -1.09245534       
                  3.647894695       -1.09245534       -0.3116717364     -0.04018476967    
3825004950        0.0683342267      0.238767488       -2.778566259      -2.482212288      
                  -2.778566259      -2.482212288      0.1141461933      0.1778700384      
3910004860        0.2023994116      -0.158145425      -0.8853137143     3.559679547       
                  -0.8853137143     3.559679547       0.05252461145     -0.2586581665     
3995004770        -0.2556600053     -0.1649655882     3.497049442       -0.8841933503     
                  3.497049442       -0.8841933503     -0.3056001258     0.0654782203      
4080004680        -0.05822784298    0.2534494418      -2.501200977      -2.56730861       
                  -2.501200977      -2.56730861       0.1926726098      0.1290586335      
4165004590        0.2489487463      -0.05006433276    -1.109675638      3.423469379       
                  -1.109675638      3.423469379       -0.04573545562    -0.2737754541     
4250004500        -0.173758788      -0.2372581169     3.482408062       -0.6526248494     
                  3.482408062       -0.6526248494     -0.2653946569     0.1762729639      
4335004410        -0.1816700207     0.2140989292      -2.26565588       -2.645869064      
                  -2.26565588       -2.645869064      0.2316377317      0.04491243423     
4420004320        0.2362416083      0.06492556963     -1.250509335      3.266806188       
                  -1.250509335      3.266806188       -0.1635928453     -0.2518259712     
4505004230        -0.0685796236     -0.2737693453     3.372065483       -0.495992203      
                  3.372065483       -0.495992203      -0.1973193272     0.2596067816      
4590004140        -0.2693719        0.1270151402      -2.018449867      -2.641547151      
                  -2.018449867      -2.641547151      0.2304878176      -0.05734842425    
4675004050        0.1808038513      0.159633077       -1.324430588      3.078078335       
                  -1.324430588      3.078078335       -0.2558333929     -0.1921277104     
4760003960        0.05420674314     -0.2600547827     3.238733897       -0.2987223804     
                  3.238733897       -0.2987223804     -0.0874535698     0.3118527605      
4845003870        -0.2999146312     0.01929318332     -1.776690889      -2.651818545      
                  -1.776690889      -2.651818545      0.2009749437      -0.1547405941     
4930003780        0.08230628917     0.2220209557      -1.471234955      2.865133711       
                  -1.471234955      2.865133711       -0.3206437244     -0.1004576608     
5015003690        0.1512158999      -0.1879218515     3.124730337       -0.07945620302    
                  3.124730337       -0.07945620302    0.03502298281     0.3358970412      
5100003600        -0.2849268281     -0.07929291887    -1.598729892      -2.647708655      
                  -1.598729892      -2.647708655      0.1199810612      -0.2296272737     
5185003510        -0.0279882828     0.2353973324      -1.558747265      2.635130649       
                  -1.558747265      2.635130649       -0.3510696767     0.01072593115     
5270003420        0.1981232664      -0.08445372342    3.03840458        0.1605342815      
                  3.03840458        0.1605342815      0.1489828199      0.3011454137      
5355003330        -0.2365618132     -0.149235946      -1.454811008      -2.624708408      
                  -1.454811008      -2.624708408      -0.001723722037   -0.2801362129     
5440003240        -0.1110049754     0.19458623        -1.607963605      2.494150246       
                  -1.607963605      2.494150246       -0.3210127457     0.1315335803      
5525003150        0.2045235905      0.005612695074    2.972978442       0.2799024852      
                  2.972978442       0.2799024852      0.2690846506      0.2027082023      
5610003060        -0.1545561335     -0.1704525189     -1.345475086      -2.578624554      
                  -1.345475086      -2.578624554      -0.1361154625     -0.2689635056     
5695002970        -0.1462525594     0.1467464781      -1.651644501      2.316205815       
                  -1.651644501      2.316205815       -0.222561542      0.2528127137      
5780002880        0.1872908591      0.07794799759     2.881178225       0.3858262129      
                  2.881178225       0.3858262129      0.3303177789      0.05943237647     
5865002790        -0.09336185418    -0.1523908174     -1.186097545      -2.516401319      
                  -1.186097545      -2.516401319      -0.2716237073     -0.1867559883     
5950002700        -0.1565733554     0.114066438       -1.698296807      2.155337431       
                  -1.698296807      2.155337431       -0.08378586132    0.3339149035      
6035002610        0.1419824702      0.1048905838      2.719004696       0.4220570319      
                  2.719004696       0.4220570319      0.3003740527      -0.09593222874    
6120002520        -0.05817514924    -0.1356249572     -1.031542596      -2.434928208      
                  -1.031542596      -2.434928208      -0.3580759557     -0.04678794103    
6205002430        -0.1440455505     0.09784462291     -1.681933298      2.02198712        
                  -1.681933298      2.02198712        0.1024221196      0.3391528587      
6290002340        0.1359587855      0.1078069517      2.587347596       0.4395411185      
                  2.587347596       0.4395411185      0.1976588665      -0.247780365      
6375002250        -0.0537687641     -0.1422231625     -0.915187793      -2.359117146      
                  -0.915187793      -2.359117146      -0.3763800802     0.1284706998      
6460002160        -0.1584906023     0.1254968386      -1.63372065       1.905792527       
                  -1.63372065       1.905792527       0.2715378475      0.2735099931      
6545002070        0.1583381865      0.1434548081      2.412284331       0.4580324139      
                  2.412284331       0.4580324139      0.03034086321     -0.32095761       
6630001980        -0.008216839098   -0.1751137813     -0.796382947      -2.253572724      
                  -0.796382947      -2.253572724      -0.299772796      0.3023723485      
6715001890        -0.2004895688     0.1313510266      -1.551739323      1.716770134       
                  -1.551739323      1.716770134       0.3845482066      0.157559379       
6800001800        0.1714357186      0.2173141623      2.20880735        0.5391308733      
                  2.20880735        0.5391308733      -0.1308897354     -0.3094483154     
6885001710        0.08836393493     -0.2134800498     -0.5924229201     -2.121037904      
                  -0.5924229201     -2.121037904      -0.1891873188     0.388907271       
6970001620        -0.2619946287     0.06110858773     -1.5900998        1.488105321       
                  -1.5900998        1.488105321       0.4241002231      0.02494461599     
7055001530        0.1272639058      0.3044758987      2.07020145        0.6597212007      
                  2.07020145        0.6597212007      -0.2573946891     -0.2719850582     
7140001440        0.216136687       -0.2077877407     -0.4379571198     -2.093689008      
                  -0.4379571198     -2.093689008      -0.06447480907    0.4550753928      
7225001350        -0.2766409708     -0.06377591921    -1.640322829      1.323028726       
                  -1.640322829      1.323028726       0.4534751684      -0.1023334823     
7310001260        0.03358949107     0.3720681878      1.955570987       0.6825907315      
                  1.955570987       0.6825907315      -0.3594895473     -0.185718775      
7395001170        0.3539714991      -0.1017252741     -0.242450224      -1.984833494      
                  -0.242450224      -1.984833494      0.07614122263     0.4832021989      
7480001080        -0.2139933021     -0.2360286381     -1.578092762      1.123149949       
                  -1.578092762      1.123149949       0.3954219256      -0.2367948769     
7565000990        -0.1611454323     0.3652760177      1.787334304       0.7292653141      
                  1.787334304       0.7292653141      -0.4264392943     -0.08530904828    
7650000900        0.4102227041      0.06232343399     -0.1025826846     -1.850075283      
                  -0.1025826846     -1.850075283      0.2119408596      0.4401765279      
7735000810        -0.06022701892    -0.3619584691     -1.636406095      0.9989093499      
                  -1.636406095      0.9989093499      0.3181141454      -0.3467821513     
7820000720        -0.2950699291     0.2489886831      1.65835806        0.865256455       
                  1.65835806        0.865256455       -0.4078143933     0.02410253552     
7905000630        0.3825230986      0.2281651417      0.03271603932     -1.724342668      
                  0.03271603932     -1.724342668      0.3240341069      0.363801434       
7990000540        0.1647601714      -0.3958570588     -1.626497705      0.6931993338      
                  -1.626497705      0.6931993338      0.2221412811      -0.4085628519     
8075000450        -0.3946115602     0.02922589502     1.420601627       1.064244435       
                  1.420601627       1.064244435       -0.3896698534     0.118351241       
8160000360        0.2362273549      0.379044664       0.1714536816      -1.662823899      
                  0.1714536816      -1.662823899      0.3998829983      0.2807575852      
8245000270        0.3300667631      -0.3070119556     -1.576862341      0.5033634117      
                  -1.576862341      0.5033634117      0.1147366634      -0.4454526158     
8330000180        -0.3630382244     -0.2150934235     1.277208779       1.146249547       
                  1.277208779       1.146249547       -0.3440763        0.1931044503      
8415000090        0.007288985867    0.4199095327      0.2841840344      -1.572223557      
                  0.2841840344      -1.572223557      0.4369962404      0.1676237976      
8500000000        0.4262955433      -0.139723713      -1.479128059      0.3885288912      
                  -1.479128059      0.3885288912      -0.003672750143   -0.4623683333     
