! RsaToolbox (C) 2013 Rohde & Schwarz America
! 
! Number of points: 101
! Number of ports: 2
! Balanced ports?: 0
! 
! 
# Hz S RI R 50
9000              1.018245188       -0.009008734702   -3.804349872e-06  -4.086624079e-05  
                  -3.804349872e-06  -4.086624079e-05  1.024765739       -0.02568415976    
85008910          0.00234108019     0.1592176365      3.192791689       5.52621931        
                  3.192791689       5.52621931        -0.09162238949    -0.1163033112     
170008820         0.1426482361      -0.04485098517    3.201559631       -5.22571572       
                  3.201559631       -5.22571572       -0.02051408844    0.1712128064      
255008730         -0.176558411      -0.0755571547     -6.065187191      -0.1711055499     
                  -6.065187191      -0.1711055499     0.07762747427     -0.02677217615    
340008640         -0.06356674831    0.1698888841      2.649367663       5.363597309       
                  2.649367663       5.363597309       -0.1262090219     -0.05343550414    
425008550         0.1599190957      -0.04670814875    3.39806478        -4.870183648      
                  3.39806478        -4.870183648      0.01667640758     0.1027482574      
510008460         -0.1020700826     -0.1638256369     -5.912278343      -0.654162455      
                  -5.912278343      -0.654162455      0.0701268656      -0.07926152273    
595008370         -0.1074757956     0.1400261997      2.224089883       5.43438878        
                  2.224089883       5.43438878        -0.08339137071    -0.01217728388    
680008280         0.2047427825      0.0340236155      3.675726894       -4.577477149      
                  3.675726894       -4.577477149      0.09236932454     0.07536358213     
765008190         0.009738111296    -0.1642538657     -5.737381955      -1.110112912      
                  -5.737381955      -1.110112912      0.0599579005      -0.06034133152    
850008100         -0.1817216283     0.1116682849      1.865782661       5.529162706       
                  1.865782661       5.529162706       -0.0716320919     0.06493616815     
935008010         0.1459553943      0.1237740797      3.958640117       -4.229730397      
                  3.958640117       -4.229730397      0.1020484999      0.03916588307     
1020007920        0.07589733514     -0.1542906208     -5.593692713      -1.456751827      
                  -5.593692713      -1.456751827      -0.004726726858   -0.07560606972    
1105007830        -0.2254437869     -0.007972711978   1.479737356       5.625637867       
                  1.479737356       5.625637867       -0.06261296994    0.07495185058     
1190007740        0.0716496315      0.1405463315      4.199448609       -3.861491906      
                  4.199448609       -3.861491906      0.1243422079      -0.04296510725    
1275007650        0.1643684479      -0.109097782      -5.473418453      -1.837241467      
                  -5.473418453      -1.837241467      -0.03033434159    -0.08899916795    
1360007560        -0.1638183192     -0.100908987      1.039170041       5.647721681       
                  1.039170041       5.647721681       -0.00531404138    0.1014936099      
1445007470        0.0004132551473   0.1424900791      4.416780068       -3.541410981      
                  4.416780068       -3.541410981      0.1468756721      -0.08793579585    
1530007380        0.185228397       -0.01120760444    -5.310155248      -2.19430018       
                  -5.310155248      -2.19430018       -0.06860881358    -0.06487345608    
1615007290        -0.09437577075    -0.1246324647     0.6151032801      5.607994004       
                  0.6151032801      5.607994004       0.02327059546     0.1416422162      
1700007200        -0.08911627613    0.09781539766     4.678174613       -3.243305978      
                  4.678174613       -3.243305978      0.1106260068      -0.1337355043     
1785007110        0.1288551813      0.03194213768     -5.064701356      -2.537618471      
                  -5.064701356      -2.537618471      -0.1316264649     -0.06414768162    
1870007020        -0.02173104372    -0.1367977243     0.2186594618      5.613875171       
                  0.2186594618      5.613875171       0.06596935289     0.1320743108      
1955006930        -0.107477482      0.02207994661     4.886100723       -2.886888918      
                  4.886100723       -2.886888918      0.08880202542     -0.1933376655     
2040006840        0.08400407083     0.03962209037     -4.830013924      -2.821312093      
                  -4.830013924      -2.821312093      -0.1547246832     -0.04126039016    
2125006750        0.03646192632     -0.09383024291    -0.2000947216     5.641115681       
                  -0.2000947216     5.641115681       0.1311684698      0.1368879756      
2210006660        -0.0928112611     -0.00107277391    4.980266741       -2.527731597      
                  4.980266741       -2.527731597      0.04767298134     -0.2178868061     
2295006570        0.02999843803     0.03776861453     -4.599638488      -3.148354025      
                  -4.599638488      -3.148354025      -0.1858116361     0.01540357384     
2380006480        0.02951053449     -0.05317065742    -0.5608526093     5.580443172       
                  -0.5608526093     5.580443172       0.1671821934      0.1138717743      
2465006390        -0.08863584599    -0.01680779828    5.058977648       -2.211500181      
                  5.058977648       -2.211500181      -0.01985238108    -0.2593037645     
2550006300        0.01163484576     0.002202535071    -4.290970321      -3.491732341      
                  -4.290970321      -3.491732341      -0.190592692      0.06080572541     
2635006210        0.02620114041     -0.04494933391    -0.9015293363     5.523458057       
                  -0.9015293363     5.523458057       0.2131672071      0.06385335835     
2720006120        -0.08293907777    -0.011371465      5.133467251       -1.842631355      
                  5.133467251       -1.842631355      -0.09075898458    -0.2643908847     
2805006030        0.01760448498     0.0006975808427   -4.007344679      -3.736700359      
                  -4.007344679      -3.736700359      -0.1631301773     0.1232157822      
2890005940        0.02236761286     -0.03656247951    -1.243922985      5.398118548       
                  -1.243922985      5.398118548       0.2322647757      0.00883797779     
2975005850        -0.0954341795     -0.008460254997   5.167306566       -1.384100374      
                  5.167306566       -1.384100374      -0.1618614925     -0.2470934171     
3060005760        0.01845112646     0.01035343641     -3.708696955      -4.081253468      
                  -3.708696955      -4.081253468      -0.1188075395     0.1690548037      
3145005670        0.03687978594     -0.0446287405     -1.638307646      5.24661762        
                  -1.638307646      5.24661762        0.2313017868      -0.07148834028    
3230005580        -0.1017114411     -0.03404090939    5.279621054       -0.9832044793     
                  5.279621054       -0.9832044793     -0.2273974373     -0.2072466398     
3315005490        0.01148242805     0.03187414293     -3.43433445       -4.310005687      
                  -3.43433445       -4.310005687      -0.04552254101    0.2022978938      
3400005400        0.06092606484     -0.02834918815    -1.995339484      5.081707221       
                  -1.995339484      5.081707221       0.2015799656      -0.1452714616     
3485005310        -0.09722160391    -0.06394059061    5.380499485       -0.6142742581     
                  5.380499485       -0.6142742581     -0.2820946325     -0.1291907183     
3570005220        -0.0205453563     0.04929176281     -3.2568702        -4.500638277      
                  -3.2568702        -4.500638277      0.03330402048     0.2107223095      
3655005130        0.0694616662      0.004206360764    -2.193260452      4.949758432       
                  -2.193260452      4.949758432       0.1340340503      -0.2092679236     
3740005040        -0.0764530081     -0.0931165173     5.3728999         -0.2570860183     
                  5.3728999         -0.2570860183     -0.3122391291     -0.03922338198    
3825004950        -0.05976601822    0.03699419706     -2.982379024      -4.637335362      
                  -2.982379024      -4.637335362      0.1132863695      0.1766001866      
3910004860        0.06343114989     0.03798934615     -2.615309993      4.727865166       
                  -2.615309993      4.727865166       0.05051243655     -0.2591901669     
3995004770        -0.03093075333    -0.1107498064     5.4043705         0.06467676659     
                  5.4043705         0.06467676659     -0.305462916      0.06503584952     
4080004680        -0.0851284492     0.006893896949    -2.710784834      -4.810929008      
                  -2.710784834      -4.810929008      0.1904537949      0.1279633809      
4165004590        0.03874840456     0.07027514081     -2.875756493      4.590200565       
                  -2.875756493      4.590200565       -0.04647053339    -0.2717962009     
4250004500        0.01228943155     -0.0884485199     5.493419837       0.306268353       
                  5.493419837       0.306268353       -0.26579932       0.1754960789      
4335004410        -0.1009947058     -0.01979665797    -2.452850818      -4.916928599      
                  -2.452850818      -4.916928599      0.2303058171      0.04387290787     
4420004320        -0.007384523792   0.08371408838     -3.079691243      4.475979796       
                  -3.079691243      4.475979796       -0.1634903553     -0.2509857633     
4505004230        0.03802290723     -0.05658925944    5.444478029       0.4907271265      
                  5.444478029       0.4907271265      -0.1966045839     0.2591511743      
4590004140        -0.09960602658    -0.05194834336    -2.186247619      -4.956974148      
                  -2.186247619      -4.956974148      0.2298891902      -0.05755609264    
4675004050        -0.04547281292    0.07043674223     -3.179200265      4.359668206       
                  -3.179200265      4.359668206       -0.2549793648     -0.1912331931     
4760003960        0.05675184946     -0.01588960224    5.295288864       0.726588933       
                  5.295288864       0.726588933       -0.08546824617    0.3111547174      
4845003870        -0.07622570986    -0.06881279425    -1.937584731      -5.009752579      
                  -1.937584731      -5.009752579      0.2002281618      -0.1550266774     
4930003780        -0.07614659657    0.04018457068     -3.365006795      4.179409779       
                  -3.365006795      4.179409779       -0.3194246469     -0.09929268091    
5015003690        0.04973525025     0.037856816       5.171502599       0.9662698649      
                  5.171502599       0.9662698649      0.03566847995     0.33437568        
5100003600        -0.05173036048    -0.05591480194    -1.762441276      -5.083361567      
                  -1.762441276      -5.083361567      0.1190055689      -0.2291620656     
5185003510        -0.09012579637    0.003821571804    -3.418353663      3.956916436       
                  -3.418353663      3.956916436       -0.3494270346     0.01213431241     
5270003420        0.01439183903     0.07167141228     5.033680747       1.199233116       
                  5.033680747       1.199233116       0.1499485335      0.2992141168      
5355003330        -0.04207541993    -0.0218697188     -1.652702322      -5.144740871      
                  -1.652702322      -5.144740871      -0.00225746984    -0.2789504796     
5440003240        -0.07122116863    -0.04014582056    -3.36365364       3.790860847       
                  -3.36365364       3.790860847       -0.3197854839     0.1315640678      
5525003150        -0.01881893466    0.06078193028     5.019983055       1.315270705       
                  5.019983055       1.315270705       0.2687903567      0.2014791788      
5610003060        -0.03915500995    0.02813258725     -1.596158362      -4.984742422      
                  -1.596158362      -4.984742422      -0.1367245721     -0.2670598744     
5695002970        -0.01309228878    -0.04329162262    -3.365463146      3.573755364       
                  -3.365463146      3.573755364       -0.220820984      0.2529928628      
5780002880        -0.02613778881    0.02328609491     4.971034392       1.409130469       
                  4.971034392       1.409130469       0.3295860049      0.05737600577     
5865002790        -0.07683214015    0.07676302434     -1.49663258       -4.7223798        
                  -1.49663258       -4.7223798        -0.2721688142     -0.1849857673     
5950002700        0.03668763155     0.005446097429    -3.399891548      3.364114499       
                  -3.399891548      3.364114499       -0.08277139368    0.3328962295      
6035002610        -0.01842104047    -0.03981100665    4.757756571       1.303487514       
                  4.757756571       1.303487514       0.297889021       -0.09772500547    
6120002520        -0.1452934659     0.07374808423     -1.380010457      -4.464300779      
                  -1.380010457      -4.464300779      -0.3584453764     -0.04527424603    
6205002430        0.07145795986     0.08874840769     -3.286287957      3.157570299       
                  -3.286287957      3.157570299       0.1017608586      0.3372410544      
6290002340        0.06062376088     -0.09138496603    4.531548549       1.164124405       
                  4.531548549       1.164124405       0.1946142607      -0.2479305367     
6375002250        -0.2161805777     0.008630625656    -1.280509597      -4.168408686      
                  -1.280509597      -4.168408686      -0.3759155315     0.1298348349      
6460002160        0.02983769073     0.2068725399      -3.039239658      2.958858789       
                  -3.039239658      2.958858789       0.2703759513      0.2721350655      
6545002070        0.176715538       -0.06027378082    4.125818482       1.065947334       
                  4.125818482       1.065947334       0.02887899178     -0.3204899536     
6630001980        -0.2073662346     -0.1112419905     -1.136288658      -3.861964575      
                  -1.136288658      -3.861964575      -0.2983646508     0.302471861       
6715001890        -0.07228500347    0.2752839714      -2.734714665      2.640112953       
                  -2.734714665      2.640112953       0.3836750498      0.1557432833      
6800001800        0.2661674776      0.05507102666     3.636255721       1.125700743       
                  3.636255721       1.125700743       -0.1315971751     -0.3084429036     
6885001710        -0.1035149101     -0.2406250356     -0.8211672006     -3.509819111      
                  -0.8211672006     -3.509819111      -0.1876692892     0.3877669519      
6970001620        -0.2100402877     0.2339561798      -2.645035808      2.229926235       
                  -2.645035808      2.229926235       0.4227524877      0.02298060942     
7055001530        0.2632301175      0.2073016623      3.228380559       1.242910013       
                  3.228380559       1.242910013       -0.2566095825     -0.27095691       
7140001440        0.08147717256     -0.2996175861     -0.5424583466     -3.234354221      
                  -0.5424583466     -3.234354221      -0.06332547963    0.4537557552      
7225001350        -0.2969879453     0.09627841958     -2.582220506      1.901549383       
                  -2.582220506      1.901549383       0.4522708903      -0.1035797877     
7310001260        0.17052022        0.3470308031      2.867509463       1.160958299       
                  2.867509463       1.160958299       -0.3585971171     -0.1850437811     
7395001170        0.2848683947      -0.227811681      -0.248303557      -2.970131628      
                  -0.248303557      -2.970131628      0.07751063208     0.4818330957      
7480001080        -0.2988558066     -0.1107325896     -2.419160601      1.61569805        
                  -2.419160601      1.61569805        0.3954016901      -0.2376769008     
7565000990        -0.03059719418    0.4001355908      2.618616935       1.163377704       
                  2.618616935       1.163377704       -0.4249834152     -0.08488203642    
7650000900        0.400852305       -0.05616332545    -0.05529932592    -2.611947713      
                  -0.05529932592    -2.611947713      0.2125168614      0.4391204396      
7735000810        -0.1610501896     -0.3060286931     -2.299468209      1.349396784       
                  -2.299468209      1.349396784       0.3170918854      -0.346278837      
7820000720        -0.2075427659     0.3184553005      2.280325756       1.241141935       
                  2.280325756       1.241141935       -0.4057739901     0.02431831393     
7905000630        0.4144090343      0.1385643388      0.09563393335     -2.302068612      
                  0.09563393335     -2.302068612      0.325054022       0.3622326876      
7990000540        0.06607316356     -0.3902493335     -2.216313337      0.9268934108      
                  -2.216313337      0.9268934108      0.221566921       -0.4071429597     
8075000450        -0.3514238051     0.1203792957      1.909788644       1.433715236       
                  1.909788644       1.433715236       -0.3879941859     0.1191771002      
8160000360        0.2970980036      0.3136988605      0.2503670619      -2.19174411       
                  0.2503670619      -2.19174411       0.3992560199      0.279759044       
8245000270        0.2578828622      -0.3371737702     -2.040569062      0.6169000958      
                  -2.040569062      0.6169000958      0.1149110998      -0.4442417306     
8330000180        -0.3666479202     -0.1319598923     1.638764176       1.499159522       
                  1.638764176       1.499159522       -0.3434231984     0.1932757114      
8415000090        0.07898312274     0.3925540146      0.3847578829      -1.999272229      
                  0.3847578829      -1.999272229      0.4354252433      0.1667771913      
8500000000        0.3835408527      -0.1866910034     -1.832392033      0.447454492       
                  -1.832392033      0.447454492       -0.004845269189   -0.4600029456     
