! RsaToolbox (C) 2013 Rohde & Schwarz America
! 
! Number of points: 101
! Number of ports: 2
! Balanced ports?: 0
! 
! 
# Hz S RI R 50
9000              0.9949926954      -0.01256631989    8.506316555e-05   -3.266321837e-06  
                  8.506316555e-05   -3.266321837e-06  1.005699444       -0.02077443001    
85008910          -0.006208525889   0.1394742908      3.096026139       5.268011728       
                  3.096026139       5.268011728       -0.09237759773    -0.1164191909     
170008820         0.1279799558      -0.03065858581    3.090019575       -5.077483355      
                  3.090019575       -5.077483355      -0.02086524732    0.1718421792      
255008730         -0.1630740715     -0.07067394667    -5.930131837      -0.1355797526     
                  -5.930131837      -0.1355797526     0.07774802866     -0.0266467256     
340008640         -0.06340241765    0.15410251        2.615248377       5.219372112       
                  2.615248377       5.219372112       -0.1269747128     -0.05414878648    
425008550         0.1452586886      -0.04193540265    3.284742026       -4.78213953       
                  3.284742026       -4.78213953       0.01638827753     0.1029827839      
510008460         -0.09280425306    -0.152917518      -5.787827344      -0.5817266231     
                  -5.787827344      -0.5817266231     0.07087328444     -0.07984558472    
595008370         -0.09974290854    0.1258189793      2.214183708       5.289485357       
                  2.214183708       5.289485357       -0.08406990732    -0.01225426415    
680008280         0.1913101201      0.03259751864     3.540458512       -4.529129192      
                  3.540458512       -4.529129192      0.09210374817     0.07559113744     
765008190         0.01286743004     -0.1482286526     -5.612939133      -1.033756385      
                  -5.612939133      -1.033756385      0.06035742124     -0.06078635082    
850008100         -0.1716499158     0.1035914501      1.911216026       5.39096029        
                  1.911216026       5.39096029        -0.07201982021    0.06498596171     
935008010         0.1338388924      0.115402005       3.823792901       -4.189761197      
                  3.823792901       -4.189761197      0.1021555979      0.03901551366     
1020007920        0.07149906493     -0.1395078407     -5.48429166       -1.362316541      
                  -5.48429166       -1.362316541      -0.004913520977   -0.07598347522    
1105007830        -0.213263683      -0.01085350842    1.570829529       5.459186933       
                  1.570829529       5.459186933       -0.06343582917    0.07525037504     
1190007740        0.0645888963      0.1260686231      4.064967801       -3.811964809      
                  4.064967801       -3.811964809      0.1244140729      -0.04239053946    
1275007650        0.154680308       -0.09838928538    -5.384793025      -1.703689356      
                  -5.384793025      -1.703689356      -0.03020874454    -0.08920413518    
1360007560        -0.150535988      -0.09472209508    1.12435755        5.504430695       
                  1.12435755        5.504430695       -0.005833500858   0.1020168591      
1445007470        0.001829335328    0.1246335306      4.263756113       -3.513827119      
                  4.263756113       -3.513827119      0.1473862819      -0.08825087732    
1530007380        0.1684138836      -0.007040135497   -5.229633339      -2.016112756      
                  -5.229633339      -2.016112756      -0.06955537278    -0.06477193095    
1615007290        -0.08218235516    -0.1052523272     0.7252177994      5.425286293       
                  0.7252177994      5.425286293       0.02289694838     0.1424869283      
1700007200        -0.07624829292    0.08042839749     4.470904571       -3.25546008       
                  4.470904571       -3.25546008       0.1110726281      -0.1335700007     
1785007110        0.1061935229      0.02510071026     -4.976996564      -2.33579662       
                  -4.976996564      -2.33579662       -0.1323097718     -0.06434029197    
1870007020        -0.02115653705    -0.1105701784     0.3625169315      5.429479392       
                  0.3625169315      5.429479392       0.06552442282     0.1325203154      
1955006930        -0.08397948121    0.0122685304      4.648620655       -2.93713229       
                  4.648620655       -2.93713229       0.08943335161     -0.1941389796     
2040006840        0.06287794189     0.01774663415     -4.7450671        -2.578022187      
                  -4.7450671        -2.578022187      -0.1553037129     -0.04188713207    
2125006750        0.02217565353     -0.06764702916    -0.00291736423    5.451637678       
                  -0.00291736423    5.451637678       0.130840956       0.1372593701      
2210006660        -0.06042312012    0.003343478357    4.697052785       -2.616871364      
                  4.697052785       -2.616871364      0.04819663733     -0.2185192669     
2295006570        0.02083112007     0.002273082212    -4.517258462      -2.850149957      
                  -4.517258462      -2.850149957      -0.1866884388     0.01502363483     
2380006480        -0.002495303767   -0.03262560871    -0.3143097467     5.355753513       
                  -0.3143097467     5.355753513       0.1669175582      0.1141883034      
2465006390        -0.05458195659    0.007290053989    4.716398029       -2.340416451      
                  4.716398029       -2.340416451      -0.01945345       -0.2602675791     
2550006300        0.01973414727     -0.03938105128    -4.210172161      -3.145457492      
                  -4.210172161      -3.145457492      -0.1915237894     0.06039571586     
2635006210        -0.02246088522    -0.04172865316    -0.5448255287     5.256745283       
                  -0.5448255287     5.256745283       0.2137663583      0.06420759609     
2720006120        -0.05954369862    0.03201849476     4.750599317       -2.007991607      
                  4.750599317       -2.007991607      -0.09059502242    -0.2653439043     
2805006030        0.04857513102     -0.03775329508    -3.954153155      -3.306885587      
                  -3.954153155      -3.306885587      -0.1634861032     0.1231037507      
2890005940        -0.03417777463    -0.06177860224    -0.7739642831     5.082297919       
                  -0.7739642831     5.082297919       0.2325924315      0.008939751122    
2975005850        -0.09248451535    0.04915421683     4.731640943       -1.584686752      
                  4.731640943       -1.584686752      -0.1621945232     -0.2485917204     
3060005760        0.07190838351     -0.01104896531    -3.69667527       -3.557362771      
                  -3.69667527       -3.557362771      -0.1192417031     0.1685212143      
3145005670        -0.005717557417   -0.09276795613    -1.13421604       4.940816721       
                  -1.13421604       4.940816721       0.2325066905      -0.0717130808     
3230005580        -0.126075241      0.02228739202     4.816581664       -1.229316515      
                  4.816581664       -1.229316515      -0.2268623218     -0.2087384081     
3315005490        0.0815576082      0.04052561996     -3.477335596      -3.642140132      
                  -3.477335596      -3.642140132      -0.04607210813    0.2027994943      
3400005400        0.04170595836     -0.1053498303     -1.35341683       4.741062646       
                  -1.35341683       4.741062646       0.2024372634      -0.1451320127     
3485005310        -0.1581079541     -0.01670564434    4.799097102       -0.980731275      
                  4.799097102       -0.980731275      -0.2819699608     -0.1304965522     
3570005220        0.05393594317     0.09938133848     -3.327798274      -3.649364207      
                  -3.327798274      -3.649364207      0.03364994402     0.2112951214      
3655005130        0.08696692211     -0.08852655654    -1.423462301      4.552765604       
                  -1.423462301      4.552765604       0.1355205258      -0.2088067421     
3740005040        -0.165372683      -0.07629935137    4.68403269        -0.748328966      
                  4.68403269        -0.748328966      -0.3118137102     -0.04007167616    
3825004950        -0.005375825843   0.1338202812      -3.079189195      -3.573484057      
                  -3.079189195      -3.573484057      0.1139853167      0.1769509814      
3910004860        0.1344292806      -0.0517207617     -1.654778679      4.298798349       
                  -1.654778679      4.298798349       0.05159609932     -0.2591251677     
3995004770        -0.1397324684     -0.1424531065     4.518682662       -0.5818936328     
                  4.518682662       -0.5818936328     -0.3054760574     0.06540910419     
4080004680        -0.07800032777    0.1358196943      -2.797372239      -3.592211606      
                  -2.797372239      -3.592211606      0.1918248734      0.1287986389      
4165004590        0.1500473976      0.01399196948     -1.851249279      4.119080899       
                  -1.851249279      4.119080899       -0.04586589765    -0.2727617997     
4250004500        -0.08371456272    -0.1719834052     4.471964986       -0.3855286357     
                  4.471964986       -0.3855286357     -0.2656754576     0.1758721326      
4335004410        -0.1516342284     0.1073059484      -2.544467465      -3.614097067      
                  -2.544467465      -3.614097067      0.2308836778      0.04492266431     
4420004320        0.1266599642      0.07904949992     -1.939937911      3.952324318       
                  -1.939937911      3.952324318       -0.1636521939     -0.2513714105     
4505004230        -0.018082591      -0.1820813306     4.318992705       -0.2651613974     
                  4.318992705       -0.2651613974     -0.1970559023     0.2593655581      
4590004140        -0.2022441116     0.04777352466     -2.290883665      -3.569861895      
                  -2.290883665      -3.569861895      0.2301173532      -0.05741371224    
4675004050        0.08441738411     0.1267926502      -1.953818731      3.754025789       
                  -1.953818731      3.754025789       -0.2556524188     -0.1918004947     
4760003960        0.06017065604     -0.1594950986     4.140358703       -0.0729401791     
                  4.140358703       -0.0729401791     -0.08708982102    0.3116240859      
4845003870        -0.2128683588     -0.01959492812    -2.042125477      -3.538210289      
                  -2.042125477      -3.538210289      0.2008107207      -0.1545953571     
4930003780        0.01757037639     0.1536027016      -2.061583734      3.510168495       
                  -2.061583734      3.510168495       -0.3202508029     -0.1001345546     
5015003690        0.1154313685      -0.09820304775    3.981617384       0.1389766166      
                  3.981617384       0.1389766166      0.03511886242     0.3353613971      
5100003600        -0.1995747086     -0.07366459203    -1.857884032      -3.480453725      
                  -1.857884032      -3.480453725      0.1199043349      -0.2294850733     
5185003510        -0.05359407079    0.1492707985      -2.108418939      3.250570537       
                  -2.108418939      3.250570537       -0.3505480746     0.01105797671     
5270003420        0.1310386333      -0.02531177803    3.830219999       0.365738922       
                  3.830219999       0.365738922       0.149267434       0.3005638678      
5355003330        -0.1685044291     -0.1070264841     -1.721232733      -3.420606826      
                  -1.721232733      -3.420606826      -0.001930818307   -0.2797257989     
5440003240        -0.09784342385    0.1075110178      -2.118618345      3.078134366       
                  -2.118618345      3.078134366       -0.3203670372     0.1318133579      
5525003150        0.1246194826      0.02504264681     3.74631952        0.4724496462      
                  3.74631952        0.4724496462      0.2690208622      0.2022433386      
5610003060        -0.1133899431     -0.1020444187     -1.610998824      -3.324327462      
                  -1.610998824      -3.324327462      -0.1364426113     -0.268470583      
5695002970        -0.0987189328     0.07797108806     -2.135209085      2.861148442       
                  -2.135209085      2.861148442       -0.2220356342     0.2528803269      
5780002880        0.1147366462      0.05752515098     3.621998306       0.5612621433      
                  3.621998306       0.5612621433      0.3299709813      0.05878401207     
5865002790        -0.08750714911    -0.07082120786    -1.443728583      -3.19844327       
                  -1.443728583      -3.19844327       -0.2718881501     -0.1861881327     
5950002700        -0.08746701964    0.07622606971     -2.168130866      2.666944839       
                  -2.168130866      2.666944839       -0.0833681272     0.3335416292      
6035002610        0.08839139178     0.05344009357     3.41468916        0.559256957       
                  3.41468916        0.559256957       0.2996131523      -0.09674272902    
6120002520        -0.09118219683    -0.05918660596    -1.281056837      -3.069083718      
                  -1.281056837      -3.069083718      -0.3582334803     -0.04622844858    
6205002430        -0.06559602829    0.09567458128     -2.131629933      2.505296589       
                  -2.131629933      2.505296589       0.1023633176      0.3383778802      
6290002340        0.111687611       0.03572934066     3.247163792       0.5483007111      
                  3.247163792       0.5483007111      0.1965002619      -0.2479307681     
6375002250        -0.1172859218     -0.08570362256    -1.152841784      -2.948449189      
                  -1.152841784      -2.948449189      -0.3762920947     0.1290907932      
6460002160        -0.0867957661     0.1579600423      -2.044103271      2.357083045       
                  -2.044103271      2.357083045       0.2713061171      0.2729983671      
6545002070        0.1677321075      0.0673655438      3.010327553       0.5587507928      
                  3.010327553       0.5587507928      0.02966628966     -0.3206449546     
6630001980        -0.08757520843    -0.1518842174     -1.008083925      -2.79169197       
                  -1.008083925      -2.79169197       -0.299310325      0.3023689164      
6715001890        -0.1499421713     0.1901721129      -1.914331101      2.115862467       
                  -1.914331101      2.115862467       0.3843790583      0.1570330407      
6800001800        0.2104254077      0.1547114658      2.732990595       0.6594471115      
                  2.732990595       0.6594471115      -0.1311223891     -0.309200917      
6885001710        0.009678342442    -0.2264867521     -0.7525085138     -2.61085008       
                  -0.7525085138     -2.61085008       -0.188781836      0.3885987848      
6970001620        -0.2415129487     0.1349742179      -1.942380491      1.826623575       
                  -1.942380491      1.826623575       0.4239482222      0.02433998675     
7055001530        0.1857847281      0.2648616655      2.535712809       0.8126809706      
                  2.535712809       0.8126809706      -0.2572927683     -0.271728873      
7140001440        0.1546545909      -0.2512397079     -0.5386890233     -2.555876341      
                  -0.5386890233     -2.555876341      -0.06403204667    0.4547800718      
7225001350        -0.2878948741     0.01002985945     -1.999804104      1.612284747       
                  -1.999804104      1.612284747       0.4532450221      -0.102833094      
7310001260        0.0991178163      0.3614145787      2.368839011       0.8419369726      
                  2.368839011       0.8419369726      -0.3592392601     -0.1854127228     
7395001170        0.3212564269      -0.1636320496     -0.2893119655     -2.415602298      
                  -0.2893119655     -2.415602298      0.07660631902     0.4829178986      
7480001080        -0.2557901259     -0.1783554859     -1.911004661      1.369043682       
                  -1.911004661      1.369043682       0.3952458425      -0.2368869026     
7565000990        -0.09932462279    0.3837770127      2.161730048       0.879493165       
                  2.161730048       0.879493165       -0.4258628866     -0.08492278002    
7650000900        0.4058248879      -0.0009016750243  -0.1080583574     -2.220734232      
                  -0.1080583574     -2.220734232      0.212330288       0.4397817853      
7735000810        -0.1162288244     -0.3327394045     -1.956078117      1.194214607       
                  -1.956078117      1.194214607       0.3181532913      -0.3465158538     
7820000720        -0.248578016      0.2871395785      1.97563569        1.030748168       
                  1.97563569        1.030748168       -0.4072100795     0.02445713923     
7905000630        0.4013474924      0.1756653088      0.05219240138     -2.03904606       
                  0.05219240138     -2.03904606       0.3241399718      0.363370989       
7990000540        0.1084948213      -0.3937341445     -1.929114797      0.8291218108      
                  -1.929114797      0.8291218108      0.2219852537      -0.4080110422     
8075000450        -0.3701414258     0.08168519893     1.68562015        1.247470457       
                  1.68562015        1.247470457       -0.3891061685     0.1185853763      
8160000360        0.2724718558      0.3400078467      0.2030327002      -1.954671656      
                  0.2030327002      -1.954671656      0.3997315305      0.2804939627      
8245000270        0.2855494553      -0.3250453377     -1.841194966      0.5773981563      
                  -1.841194966      0.5773981563      0.1146654314      -0.4449592561     
8330000180        -0.3648586977     -0.1653251183     1.488089321       1.339200705       
                  1.488089321       1.339200705       -0.3439633761     0.1931898156      
8415000090        0.05108800448     0.4028654018      0.3349272505      -1.821494826      
                  0.3349272505      -1.821494826      0.4366530752      0.1674838991      
8500000000        0.397783359       -0.1691330811     -1.697040365      0.4280983482      
                  -1.697040365      0.4280983482      -0.003890917517   -0.461675498      
