! RsaToolbox (C) 2013 Rohde & Schwarz America
! 
! Number of points: 101
! Number of ports: 2
! Balanced ports?: 0
! 
! 
# Hz S RI R 50
9000              1.005789676       -0.01674224996    7.541349215e-05   2.267643966e-05   
                  7.541349215e-05   2.267643966e-05   1.0147605         -0.0234597075     
85008910          0.001178157258    0.1564221924      3.18761537        5.470648221       
                  3.18761537        5.470648221       -0.09219408135    -0.1157799523     
170008820         0.1404588091      -0.04234154913    3.169957275       -5.208417857      
                  3.169957275       -5.208417857      -0.02056862216    0.1716661433      
255008730         -0.1741145698     -0.07510188702    -6.040397569      -0.1576688031     
                  -6.040397569      -0.1576688031     0.07776241003     -0.02662353606    
340008640         -0.06353077745    0.1675771879      2.651802863       5.333584317       
                  2.651802863       5.333584317       -0.1266362426     -0.05384097733    
425008550         0.1572586495      -0.04582070461    3.369048774       -4.860116917      
                  3.369048774       -4.860116917      0.01657240826     0.1028443696      
510008460         -0.1003744242     -0.1618713629     -5.889648978      -0.6300505121     
                  -5.889648978      -0.6300505121     0.07075839544     -0.07975495446    
595008370         -0.1063361729     0.137776606       2.233594709       5.404356033       
                  2.233594709       5.404356033       -0.08384137106    -0.01214904392    
680008280         0.2023467464      0.03361075908     3.640900242       -4.573700927      
                  3.640900242       -4.573700927      0.09209127675     0.07542587849     
765008190         0.01007225548     -0.1615516479     -5.717504707      -1.084757756      
                  -5.717504707      -1.084757756      0.06025473012     -0.06065038128    
850008100         -0.1802378556     0.1102759337      1.883370207       5.502956356       
                  1.883370207       5.502956356       -0.07177519361    0.06499071948     
935008010         0.1437716671      0.1222989811      3.923498776       -4.23069962       
                  3.923498776       -4.23069962       0.1020702012      0.03893690198     
1020007920        0.07496151682     -0.1516941446     -5.575330486      -1.425576751      
                  -5.575330486      -1.425576751      -0.004877726248   -0.07564908523    
1105007830        -0.223249773      -0.008540495971   1.498814101       5.593300343       
                  1.498814101       5.593300343       -0.06313657139    0.07524417153     
1190007740        0.07027530093     0.1381370863      4.168773712       -3.858339324      
                  4.168773712       -3.858339324      0.1243751692      -0.04248676376    
1275007650        0.1628258443      -0.1069618717     -5.457492096      -1.803605584      
                  -5.457492096      -1.803605584      -0.0301240985     -0.08921249923    
1360007560        -0.1613453152     -0.09968843364    1.062957311       5.620117177       
                  1.062957311       5.620117177       -0.005618982606   0.1017813751      
1445007470        0.0006017568424   0.1391975649      4.38231219        -3.543920281      
                  4.38231219        -3.543920281      0.1471536095      -0.08840564923    
1530007380        0.1820787039      -0.01052450757    -5.297562905      -2.155864178      
                  -5.297562905      -2.155864178      -0.06934230596    -0.06462224688    
1615007290        -0.09229569512    -0.1212987182     0.6440975832      5.575308251       
                  0.6440975832      5.575308251       0.02314059194     0.142181262       
1700007200        -0.0869091953     0.09455014206     4.63465645        -3.251626163      
                  4.63465645        -3.251626163      0.1108941136      -0.1334384187     
1785007110        0.1247350287      0.03102081744     -5.054188437      -2.491871384      
                  -5.054188437      -2.491871384      -0.131978886      -0.06418350755    
1870007020        -0.02139599691    -0.1322108227     0.2533882142      5.580082436       
                  0.2533882142      5.580082436       0.0657106291      0.1322869572      
1955006930        -0.103698228      0.01975815065     4.837932973       -2.902802696      
                  4.837932973       -2.902802696      0.08925271093     -0.1939323158     
2040006840        0.07960158335     0.03639228972     -4.818896429      -2.770692183      
                  -4.818896429      -2.770692183      -0.1548444272     -0.04170099311    
2125006750        0.03470493382     -0.08923455215    -0.1565058994     5.608284112       
                  -0.1565058994     5.608284112       0.1309618321      0.1369834637      
2210006660        -0.0879591136     -0.0009581459491  4.927404054       -2.551598731      
                  4.927404054       -2.551598731      0.04803267802     -0.2181457291     
2295006570        0.02771300672     0.03215657212     -4.586090979      -3.093792129      
                  -4.586090979      -3.093792129      -0.1862910029     0.01522434862     
2380006480        0.02518025179     -0.04950420122    -0.5163504466     5.540762796       
                  -0.5163504466     5.540762796       0.1668680156      0.1140766275      
2465006390        -0.0833537768     -0.01417819666    4.998649084       -2.236026577      
                  4.998649084       -2.236026577      -0.01957325471    -0.2597604282     
2550006300        0.01198891897     -0.004208371384   -4.276993765      -3.428508584      
                  -4.276993765      -3.428508584      -0.1911081019     0.06057413599     
2635006210        0.02014272383     -0.043715792      -0.8436277603     5.47974713        
                  -0.8436277603     5.47974713        0.2135692594      0.06422712508     
2720006120        -0.07906113931    -0.006196005176   5.071187166       -1.867947818      
                  5.071187166       -1.867947818      -0.09052833684    -0.2648450781     
2805006030        0.02058395273     -0.004917756573   -3.99382757       -3.668697897      
                  -3.99382757       -3.668697897      -0.1632161928     0.1232612971      
2890005940        0.01501137946     -0.03838561952    -1.171784389      5.350862723       
                  -1.171784389      5.350862723       0.232249513       0.008996023635    
2975005850        -0.09382635153    -0.001699759641   5.098278549       -1.412195351      
                  5.098278549       -1.412195351      -0.1622535416     -0.248035518      
3060005760        0.02382036214     0.006694659063    -3.69853576       -4.002451439      
                  -3.69853576       -4.002451439      -0.1191086724     0.1686157368      
3145005670        0.03080758701     -0.04912560258    -1.564271309      5.195492788       
                  -1.564271309      5.195492788       0.2319851232      -0.07162997659    
3230005580        -0.1035724904     -0.02664182919    5.201433029       -1.013054026      
                  5.201433029       -1.013054026      -0.2269141946     -0.2083036452     
3315005490        0.01834688564     0.03156644589     -3.433786555      -4.21646913       
                  -3.433786555      -4.21646913       -0.04607065995    0.2028446702      
3400005400        0.05838099518     -0.03652538122    -1.902422756      5.028754405       
                  -1.902422756      5.028754405       0.2017755407      -0.1450428454     
3485005310        -0.1034189079     -0.05844485136    5.294284337       -0.6628129559     
                  5.294284337       -0.6628129559     -0.2820959457     -0.1299928459     
3570005220        -0.01292209348    0.05311450823     -3.262142383      -4.387452797      
                  -3.262142383      -4.387452797      0.03361444136     0.2109427951      
3655005130        0.06995824009     -0.005279525136   -2.082577652      4.893014803       
                  -2.082577652      4.893014803       0.1351124467      -0.2086871231     
3740005040        -0.08553264825    -0.0911125986     5.274134965       -0.3238725406     
                  5.274134965       -0.3238725406     -0.3120428789     -0.03968726927    
3825004950        -0.05337435915    0.04574990356     -3.005357317      -4.492084911      
                  -3.005357317      -4.492084911      0.1136564045      0.1763883073      
3910004860        0.07068976163     0.02860168356     -2.476656846      4.674974073       
                  -2.476656846      4.674974073       0.05082842733     -0.2590805539     
3995004770        -0.04167370402    -0.1141740639     5.287135419       -0.03170147222    
                  5.287135419       -0.03170147222    -0.3054040295     0.0652947885      
4080004680        -0.08394478934    0.0207575507      -2.73422801       -4.646014112      
                  -2.73422801       -4.646014112      0.1910976394      0.1283325332      
4165004590        0.05121661385     0.06455532861     -2.73765827       4.526378534       
                  -2.73765827       4.526378534       -0.04618232927    -0.2719887964     
4250004500        0.001475893377    -0.09727947277    5.357133885       0.2041685656      
                  5.357133885       0.2041685656      -0.2657686566     0.1756976587      
4335004410        -0.1073452613     -0.005793044343   -2.485390948      -4.733369604      
                  -2.485390948      -4.733369604      0.2302105984      0.04474105012     
4420004320        0.007796240791    0.08359431792     -2.905175583      4.414107338       
                  -2.905175583      4.414107338       -0.1638592329     -0.2509761378     
4505004230        0.03189265584     -0.07215322437    5.285543412       0.353334112       
                  5.285543412       0.353334112       -0.1967853363     0.2590967002      
4590004140        -0.1131817648     -0.04029326768    -2.23177893       -4.744506777      
                  -2.23177893       -4.744506777      0.2297412809      -0.05752665855    
4675004050        -0.02901590054    0.07840281107     -2.964988459      4.288539247       
                  -2.964988459      4.288539247       -0.2554496482     -0.1914045718     
4760003960        0.05837603226     -0.03468109353    5.123885043       0.569198613       
                  5.123885043       0.569198613       -0.08661286442    0.3113005573      
4845003870        -0.09558093999    -0.06276079611    -1.994298379      -4.762674936      
                  -1.994298379      -4.762674936      0.2004487949      -0.154868974      
4930003780        -0.06387805766    0.05760859751     -3.108512767      4.096059861       
                  -3.108512767      4.096059861       -0.3197702596     -0.09979869348    
5015003690        0.0603403018      0.01875220236     4.983980548       0.7928313941      
                  4.983980548       0.7928313941      0.03539600964     0.3348058613      
5100003600        -0.07494906729    -0.06018496501    -1.837928568      -4.781266367      
                  -1.837928568      -4.781266367      0.1197271929      -0.2294035608     
5185003510        -0.08638536874    0.02725679075     -3.13885798       3.862187478       
                  -3.13885798       3.862187478       -0.3498881311     0.01130809505     
5270003420        0.03349052177     0.05734821379     4.832429869       1.004649645       
                  4.832429869       1.004649645       0.1496278904      0.3000317208      
5355003330        -0.06376369592    -0.0382528828     -1.73732538       -4.781811472      
                  -1.73732538       -4.781811472      -0.002084204968   -0.279219909      
5440003240        -0.07728724482    -0.01526001744    -3.086489245      3.685557673       
                  -3.086489245      3.685557673       -0.3196569286     0.1319436296      
5525003150        0.005842593689    0.05562091813     4.789998034       1.100089134       
                  4.789998034       1.100089134       0.2689410327      0.2016309327      
5610003060        -0.05108008245    0.003758486233    -1.667313483      -4.618888154      
                  -1.667313483      -4.618888154      -0.1366140884     -0.267927083      
5695002970        -0.02991126068    -0.0226454518     -3.075489581      3.462420021       
                  -3.075489581      3.462420021       -0.2214623488     0.2528979178      
5780002880        -3.252420409e-05  0.03020180106     4.704350613       1.16806977        
                  4.704350613       1.16806977        0.3296615229      0.05817832897     
5865002790        -0.07731487942    0.04979181077     -1.543150574      -4.376472789      
                  -1.543150574      -4.376472789      -0.2721780207     -0.1855917445     
5950002700        0.01321530296     0.01712048324     -3.099505149      3.25229068        
                  -3.099505149      3.25229068        -0.08295575657    0.3331891047      
6035002610        0.001713374275    -0.02087353946    4.47143232        1.076553939       
                  4.47143232        1.076553939       0.2987743986      -0.09723482769    
6120002520        -0.1341949572     0.05070298305     -1.404949281      -4.146738206      
                  -1.404949281      -4.146738206      -0.3584301537     -0.04566939431    
6205002430        0.04621807472     0.08860374542     -3.005904729      3.047577015       
                  -3.005904729      3.047577015       0.1020794862      0.337769696       
6290002340        0.06964507792     -0.06679174265    4.249979561       0.978643049       
                  4.249979561       0.978643049       0.1954108971      -0.2477280453     
6375002250        -0.1977168701     -0.00669308022    -1.283065851      -3.900713482      
                  -1.283065851      -3.900713482      -0.3761605174     0.1295984571      
6460002160        0.01005538402     0.196686221       -2.811463285      2.851752032       
                  -2.811463285      2.851752032       0.2709843799      0.2725517498      
6545002070        0.1737550219      -0.03722121796    3.885794021       0.9254994331      
                  3.885794021       0.9254994331      0.02906988418     -0.3202300233     
6630001980        -0.1868940946     -0.1163028447     -1.1278259        -3.633984332      
                  -1.1278259        -3.633984332      -0.2988921206     0.302246217       
6715001890        -0.08345253452    0.2601355132      -2.559028956      2.545032158       
                  -2.559028956      2.545032158       0.3840117651      0.1564053169      
6800001800        0.2554983996      0.07160595274     3.453912329       1.011910962       
                  3.453912329       1.011910962       -0.1313563676     -0.3088847291     
6885001710        -0.08544593496    -0.2368976388     -0.818236779      -3.330303537      
                  -0.818236779      -3.330303537      -0.1881007921     0.3881371129      
6970001620        -0.2132175784     0.218043742       -2.506360492      2.158049078       
                  -2.506360492      2.158049078       0.4235007139      0.02367272299     
7055001530        0.250271967       0.215341776       3.10177996        1.157929725       
                  3.10177996        1.157929725       -0.2570954125     -0.2715067553     
7140001440        0.09135352542     -0.2912402086     -0.5402402824     -3.115004212      
                  -0.5402402824     -3.115004212      -0.06357921091    0.4541579797      
7225001350        -0.2942029176     0.0841503947      -2.482359251      1.85045706        
                  -2.482359251      1.85045706        0.4528410508      -0.1032029653     
7310001260        0.1596180855      0.3477692285      2.783860723       1.1122306         
                  2.783860723       1.1122306         -0.3586677053     -0.184759927      
7395001170        0.2888293661      -0.2177943048     -0.2495046686     -2.878253703      
                  -0.2495046686     -2.878253703      0.077033482       0.4824188469      
7480001080        -0.2918775436     -0.1199135476     -2.333131994      1.570187682       
                  -2.333131994      1.570187682       0.3949621725      -0.2370921797     
7565000990        -0.04050052047    0.3965146181      2.542483889       1.122268004       
                  2.542483889       1.122268004       -0.4251890343     -0.08462944802    
7650000900        0.400166484       -0.04878720186    -0.05570308165    -2.552179361      
                  -0.05570308165    -2.552179361      0.2128299865      0.4389915134      
7735000810        -0.1548625272     -0.3091132254     -2.250667897      1.317508834       
                  -2.250667897      1.317508834       0.3174609708      -0.346342935      
7820000720        -0.2121590195     0.3124236606      2.229462987       1.216969367       
                  2.229462987       1.216969367       -0.406293348      0.02492160551     
7905000630        0.4116608738      0.1434252857      0.09834384877     -2.263046852      
                  0.09834384877     -2.263046852      0.3243838558      0.362765681       
7990000540        0.07177931471     -0.3900976504     -2.176901893      0.9029357747      
                  -2.176901893      0.9029357747      0.2217966596      -0.4073291335     
8075000450        -0.352300682      0.1144717443      1.869393991       1.413910964       
                  1.869393991       1.413910964       -0.3883634103     0.1187200107      
8160000360        0.2933949898      0.3160425082      0.2530385282      -2.157311         
                  0.2530385282      -2.157311         0.3995276507      0.2802403619      
8245000270        0.2608804264      -0.3346383659     -2.014365184      0.6032173731      
                  -2.014365184      0.6032173731      0.1144803753      -0.444331595      
8330000180        -0.3649762139     -0.1367007997     1.611458437       1.482496058       
                  1.611458437       1.482496058       -0.3431974747     0.1929642644      
8415000090        0.07447803787     0.3933176489      0.3849882815      -1.972632653      
                  0.3849882815      -1.972632653      0.4359920607      0.1673871265      
8500000000        0.3844557198      -0.1831522858     -1.815627417      0.4377242057      
                  -1.815627417      0.4377242057      -0.004213482526   -0.460810777      
