! RsaToolbox (C) 2013 Rohde & Schwarz America
! 
! Number of points: 101
! Number of ports: 2
! Balanced ports?: 0
! 
! 
# Hz S RI R 50
9000              0.9933693667      -0.01138474252    7.37176469e-05    -2.896238411e-05  
                  7.37176469e-05    -2.896238411e-05  1.0048534         -0.01961658568    
85008910          -0.01160778556    0.1281078872      3.009213693       5.084088787       
                  3.009213693       5.084088787       -0.09229346601    -0.1163324797     
170008820         0.1203433176      -0.02293117481    3.026358908       -4.989068098      
                  3.026358908       -4.989068098      -0.02097817657    0.1718519612      
255008730         -0.1568900817     -0.06971892402    -5.838875039      -0.1054591155     
                  -5.838875039      -0.1054591155     0.07775770152     -0.02663657016    
340008640         -0.06445349505    0.14684732        2.599627784       5.124258453       
                  2.599627784       5.124258453       -0.1270058817     -0.05425577419    
425008550         0.1389022444      -0.03886823197    3.222739018       -4.727918046      
                  3.222739018       -4.727918046      0.01633395012     0.1029458017      
510008460         -0.08772347586    -0.1491544502     -5.707310184      -0.5349099782     
                  -5.707310184      -0.5349099782     0.07094823927     -0.07990427888    
595008370         -0.09627022992    0.1184998026      2.202563179       5.214848954       
                  2.202563179       5.214848954       -0.08414948778    -0.01234740637    
680008280         0.1856753232      0.03388289443     3.456035719       -4.494987739      
                  3.456035719       -4.494987739      0.09212896815     0.07569104111     
765008190         0.01501128445     -0.139988988      -5.541043402      -1.003895183      
                  -5.541043402      -1.003895183      0.06037714642     -0.06079236744    
850008100         -0.1687139619     0.09878063737     1.935390751       5.298649759       
                  1.935390751       5.298649759       -0.07205468928    0.06496709164     
935008010         0.1282534709      0.1123896355      3.757283354       -4.162538065      
                  3.757283354       -4.162538065      0.1021860713      0.03900538726     
1020007920        0.06990403235     -0.1323787884     -5.425490932      -1.327606669      
                  -5.425490932      -1.327606669      -0.004923651336   -0.07602741098    
1105007830        -0.2093029271     -0.01446816935    1.61853345        5.342166358       
                  1.61853345        5.342166358       -0.06352061435    0.07524011085     
1190007740        0.06109092153     0.1191814756      4.009192714       -3.776415071      
                  4.009192714       -3.776415071      0.1242922539      -0.04232425503    
1275007650        0.1513342355      -0.09333554873    -5.333214634      -1.640409433      
                  -5.333214634      -1.640409433      -0.03023171366    -0.08937279151    
1360007560        -0.1447701871     -0.09310738128    1.159707173       5.427575229       
                  1.159707173       5.427575229       -0.005874859078   0.1020698512      
1445007470        0.002141067219    0.1164456748      4.199831924       -3.485269154      
                  4.199831924       -3.485269154      0.1474132367      -0.08824630542    
1530007380        0.1613616583      -0.004038384692   -5.171805089      -1.919964352      
                  -5.171805089      -1.919964352      -0.0695827726     -0.0648230975     
1615007290        -0.07513208477    -0.09576268978    0.7577899469      5.325918061       
                  0.7577899469      5.325918061       0.02281167706     0.1425524072      
1700007200        -0.07034712557    0.07205125911     4.375857229       -3.245034875      
                  4.375857229       -3.245034875      0.1110720439      -0.1335072423     
1785007110        0.09488829785     0.02168545083     -4.917675194      -2.250756202      
                  -4.917675194      -2.250756202      -0.1324373713     -0.06436661203    
1870007020        -0.02091915766    -0.09744939886    0.4144885082      5.335303999       
                  0.4144885082      5.335303999       0.06539982734     0.1325978293      
1955006930        -0.07185186127    0.007863864694    4.539395276       -2.940644157      
                  4.539395276       -2.940644157      0.08947627864     -0.1942184817     
2040006840        0.05324676409     0.006927602089    -4.690310207      -2.482282402      
                  -4.690310207      -2.482282402      -0.1554014815     -0.04198717745    
2125006750        0.01447685193     -0.05489048907    0.06847238964     5.356336899       
                  0.06847238964     5.356336899       0.1308039543      0.1373550413      
2210006660        -0.04448707534    0.00610978632     4.573232821       -2.636870464      
                  4.573232821       -2.636870464      0.04817759525     -0.218634889      
2295006570        0.0171909324      -0.01471953684    -4.466662067      -2.728247938      
                  -4.466662067      -2.728247938      -0.1868739321     0.01495170678     
2380006480        -0.01858695634    -0.02316655398    -0.2166180848     5.247417548       
                  -0.2166180848     5.247417548       0.1668877589      0.1142183632      
2465006390        -0.03875543076    0.01946659927     4.56720843        -2.379903432      
                  4.56720843        -2.379903432      -0.01946750494    -0.2603817884     
2550006300        0.02414129417     -0.05798830038    -4.162460124      -3.009340607      
                  -4.162460124      -3.009340607      -0.1915222411     0.06025465153     
2635006210        -0.04549570899    -0.04077747001    -0.4107107488     5.128510321       
                  -0.4107107488     5.128510321       0.213756173       0.06420091264     
2720006120        -0.04954385438    0.05177913925     4.590883407       -2.059259673      
                  4.590883407       -2.059259673      -0.090592382      -0.2654757978     
2805006030        0.06303385197     -0.05408941444    -3.918809014      -3.138538861      
                  -3.918809014      -3.138538861      -0.1636097933     0.1231507253      
2890005940        -0.05718730476    -0.07256310689    -0.6157770553     4.944603078       
                  -0.6157770553     4.944603078       0.2326692693      0.008900347533    
2975005850        -0.09201655623    0.07343517391     4.558509412       -1.646211959      
                  4.558509412       -1.646211959      -0.1621571691     -0.2486818711     
3060005760        0.09498075835     -0.01868672229    -3.674983776      -3.35369962       
                  -3.674983776      -3.35369962       -0.1193167436     0.1685457285      
3145005670        -0.02222865929    -0.1126248012     -0.9650935949     4.807714064       
                  -0.9650935949     4.807714064       0.2324906987      -0.07171833869    
3230005580        -0.1369643996     0.0449025486      4.633666273       -1.304137772      
                  4.633666273       -1.304137772      -0.2269241297     -0.2088449888     
3315005490        0.1092016367      0.04489397658     -3.45880848       -3.400816046      
                  -3.45880848       -3.400816046      -0.04603014784    0.2027611462      
3400005400        0.03459166708     -0.132539299      -1.168657423      4.59935255        
                  -1.168657423      4.59935255        0.2025578598      -0.1451507912     
3485005310        -0.1798084017     5.931378731e-05   4.590319316       -1.070030379      
                  4.590319316       -1.070030379      -0.2820273034     -0.1305062026     
3570005220        0.07897007912     0.1163701757      -3.298754693      -3.386552876      
                  -3.298754693      -3.386552876      0.03369433952     0.211259682       
3655005130        0.09202544443     -0.1175842202     -1.232190464      4.397168398       
                  -1.232190464      4.397168398       0.1358709611      -0.2086594003     
3740005040        -0.1936076299     -0.07053701823    4.455380337       -0.8511246314     
                  4.455380337       -0.8511246314     -0.3118397748     -0.04006209002    
3825004950        0.010328958       0.1602481206      -3.037574354      -3.307373688      
                  -3.037574354      -3.307373688      0.1140378442      0.1771834462      
3910004860        0.1519685081      -0.07598813636    -1.453853257      4.142384543       
                  -1.453853257      4.142384543       0.05193225603     -0.258999573      
3995004770        -0.1671092502     -0.1491286533     4.283359799       -0.6782782197     
                  4.283359799       -0.6782782197     -0.305558709      0.06537704235     
4080004680        -0.0749874529     0.1648257269      -2.751500335      -3.337045842      
                  -2.751500335      -3.337045842      0.1920245644      0.1287969563      
4165004590        0.1747932227      -0.0003361339974  -1.655685586      3.970217723       
                  -1.655685586      3.970217723       -0.04581776297    -0.2729893244     
4250004500        -0.1050285867     -0.189047131      4.236563458       -0.4749889184     
                  4.236563458       -0.4749889184     -0.2656317508     0.1759972686      
4335004410        -0.1605364353     0.1336148945      -2.498434882      -3.367412921      
                  -2.498434882      -3.367412921      0.2310198034      0.04486156085     
4420004320        0.1538210044      0.07660761893     -1.754268177      3.799791722       
                  -1.754268177      3.799791722       -0.1635695609     -0.2515468202     
4505004230        -0.0300041677     -0.2054956888     4.088602669       -0.3432625001     
                  4.088602669       -0.3432625001     -0.1969407061     0.2594289347      
4590004140        -0.219704478      0.0666822065      -2.244240071      -3.335765317      
                  -2.244240071      -3.335765317      0.2301896931      -0.05733625618    
4675004050        0.1080128061      0.1358853868      -1.782870797      3.599487268       
                  -1.782870797      3.599487268       -0.2556899614     -0.1919178526     
4760003960        0.05951786965     -0.1846647024     3.92047168        -0.148445569      
                  3.92047168        -0.148445569      -0.08721081204    0.3116493454      
4845003870        -0.2350255531     -0.01053536008    -1.993970517      -3.311683418      
                  -1.993970517      -3.311683418      0.200795737       -0.1547548121     
4930003780        0.03304220625     0.1711090187      -1.901736207      3.360449796       
                  -1.901736207      3.360449796       -0.3202743155     -0.1002117079     
5015003690        0.1250833221      -0.1205224012     3.770996648       0.06702640474     
                  3.770996648       0.06702640474     0.03511203963     0.3354415845      
5100003600        -0.2214699765     -0.07572574605    -1.807978809      -3.262792566      
                  -1.807978809      -3.262792566      0.1198835939      -0.2295063419     
5185003510        -0.04749666688    0.1712869         -1.957395757      3.103876546       
                  -1.957395757      3.103876546       -0.3506456998     0.01062340404     
5270003420        0.148472702       -0.04012412212    3.631849655       0.2985543343      
                  3.631849655       0.2985543343      0.1493024554      0.3006931055      
5355003330        -0.1858499532     -0.1184062098     -1.666845097      -3.208374601      
                  -1.666845097      -3.208374601      -0.001892405872   -0.2798070601     
5440003240        -0.1015236866     0.1296777955      -1.977610372      2.937829398       
                  -1.977610372      2.937829398       -0.3205206742     0.1317168897      
5525003150        0.1450509525      0.02029733103     3.551717567       0.4098484755      
                  3.551717567       0.4098484755      0.2690499551      0.2023521736      
5610003060        -0.1236829691     -0.1198774791     -1.555320948      -3.127403432      
                  -1.555320948      -3.127403432      -0.1363327139     -0.2685954003     
5695002970        -0.1109395604     0.09532960496     -2.003462293      2.729729601       
                  -2.003462293      2.729729601       -0.2221047118     0.2528748664      
5780002880        0.1331117019      0.0628300615      3.435540776       0.5052624777      
                  3.435540776       0.5052624777      0.3300778718      0.05892740394     
5865002790        -0.08873692189    -0.09138333838    -1.388108233      -3.020632713      
                  -1.388108233      -3.020632713      -0.2719216629     -0.186304261      
5950002700        -0.1048570721     0.08572844366     -2.041476779      2.543731857       
                  -2.041476779      2.543731857       -0.08342882821    0.3336531994      
6035002610        0.1018640962      0.06633645822     3.240418419       0.5153962035      
                  3.240418419       0.5153962035      0.2997902191      -0.09667701065    
6120002520        -0.0828184496     -0.07845744709    -1.225657828      -2.903010958      
                  -1.225657828      -2.903010958      -0.3582519837     -0.04637962745    
6205002430        -0.08513313419    0.09618008575     -2.010514975      2.389369473       
                  -2.010514975      2.389369473       0.1024265638      0.3385264427      
6290002340        0.117838333       0.05374047159     3.080044685       0.5125985268      
                  3.080044685       0.5125985268      0.196795731       -0.2480581522     
6375002250        -0.1017240424     -0.09969558119    -1.100294747      -2.797014333      
                  -1.100294747      -2.797014333      -0.3763332424     0.1289142683      
6460002160        -0.1045143238     0.1500613767      -1.933627788      2.249394596       
                  -1.933627788      2.249394596       0.2713763286      0.2731397962      
6545002070        0.165513103       0.08607388076     2.860380219       0.526076585       
                  2.860380219       0.526076585       0.02981522388     -0.3207243736     
6630001980        -0.06815528096    -0.1577618011     -0.9616572888     -2.65367716       
                  -0.9616572888     -2.65367716       -0.299441261      0.3023851203      
6715001890        -0.1624001845     0.1758684575      -1.817123743      2.020508558       
                  -1.817123743      2.020508558       0.3844308484      0.1571861776      
6800001800        0.2009164985      0.1702540748      2.601639894       0.6224846612      
                  2.601639894       0.6224846612      -0.1310822244     -0.3092606592     
6885001710        0.02910407701     -0.2235851091     -0.7182804612     -2.484085498      
                  -0.7182804612     -2.484085498      -0.1888790374     0.3888819096      
6970001620        -0.246825285      0.1171645451      -1.848917273      1.746533001       
                  -1.848917273      1.746533001       0.4239315576      0.0245205665      
7055001530        0.1717006151      0.2745651547      2.420450257       0.7673138366      
                  2.420450257       0.7673138366      -0.2573670926     -0.2718036186     
7140001440        0.1692979549      -0.241261713      -0.5206876143     -2.440110584      
                  -0.5206876143     -2.440110584      -0.06416842297    0.4548975023      
7225001350        -0.2855933974     -0.007687749334   -1.905666349      1.545782329       
                  -1.905666349      1.545782329       0.4532184192      -0.1026882987     
7310001260        0.08368285069     0.3642027096      2.269406022       0.7959749046      
                  2.269406022       0.7959749046      -0.3592817966     -0.185480042      
7395001170        0.3290448884      -0.1495040766     -0.2845776369     -2.311101675      
                  -0.2845776369     -2.311101675      0.07647014173     0.4829875704      
7480001080        -0.2462999428     -0.1921288639     -1.8260684        1.313409743       
                  -1.8260684        1.313409743       0.3953147054      -0.2368584179     
7565000990        -0.113839016      0.3798431791      2.072230889       0.8373634891      
                  2.072230889       0.8373634891      -0.4259136107     -0.08498104577    
7650000900        0.4071736168      0.01319487135     -0.1120016712     -2.133172668      
                  -0.1120016712     -2.133172668      0.2122349626      0.4398841471      
7735000810        -0.1041990588     -0.3396283552     -1.879325609      1.152776965       
                  -1.879325609      1.152776965       0.3178968272      -0.3465809314     
7820000720        -0.2591008386     0.2790904553      1.903104535       0.9879521875      
                  1.903104535       0.9879521875      -0.4073353458     0.02439566641     
7905000630        0.3977382217      0.1866959502      0.04370342568     -1.969352087      
                  0.04370342568     -1.969352087      0.3241199717      0.3635222297      
7990000540        0.1204517251      -0.3946729714     -1.858942117      0.8016475502      
                  -1.858942117      0.8016475502      0.2220246945      -0.4081903433     
8075000450        -0.3758779778     0.07064953677     1.627088906       1.202641621       
                  1.627088906       1.202641621       -0.3892868799     0.1185928872      
8160000360        0.2651673831      0.3483374058      0.1922529713      -1.889950695      
                  0.1922529713      -1.889950695      0.3996076766      0.2806908721      
8245000270        0.2944749547      -0.3216710075     -1.784901451      0.565330208       
                  -1.784901451      0.565330208       0.1146699584      -0.4451106714     
8330000180        -0.3647744698     -0.1754544823     1.444690936       1.295218122       
                  1.444690936       1.295218122       -0.3439250914     0.1931539594      
8415000090        0.04262758001     0.4064400546      0.3213605036      -1.770263046      
                  0.3213605036      -1.770263046      0.4367804582      0.1675441554      
8500000000        0.4030643805      -0.1638920878     -1.654682246      0.4232468978      
                  -1.654682246      0.4232468978      -0.003912216482   -0.4618152506     
