! RsaToolbox (C) 2013 Rohde & Schwarz America
! 
! Number of points: 101
! Number of ports: 2
! Balanced ports?: 0
! 
! 
# Hz S RI R 50
9000              0.981998802       -0.008764622633   7.16624368e-05    -1.315534637e-05  
                  7.16624368e-05    -1.315534637e-05  0.9950665482      -0.01684240266    
85008910          -0.06973671518    -0.02689168467    2.182823342       3.512845855       
                  2.182823342       3.512845855       -0.09233900046    -0.117053473      
170008820         0.02450246823     0.07362009575     2.130058605       -3.812586876      
                  2.130058605       -3.812586876      -0.02126693691    0.1718710812      
255008730         -0.03639869442    -0.02901958501    -4.383385374      0.1494438535      
                  -4.383385374      0.1494438535      0.0779421571      -0.02674613983    
340008640         -0.06947896225    0.02727109422     2.198817299       3.790900479       
                  2.198817299       3.790900479       -0.1271351682     -0.05455419907    
425008550         0.03274091517     0.008505178275    2.243689912       -3.786581767      
                  2.243689912       -3.786581767      0.01619295281     0.103015865       
510008460         -0.004053568373   -0.06964928542    -4.389508268      -0.1231534552     
                  -4.389508268      -0.1231534552     0.07106001925     -0.08005896813    
595008370         -0.04908870766    0.009474584541    1.965249351       3.977943307       
                  1.965249351       3.977943307       -0.08434947039    -0.01250332371    
680008280         0.0699448852      0.04299834169     2.358049045       -3.600703956      
                  2.358049045       -3.600703956      0.09213695912     0.07586776315     
765008190         0.0547199392      -0.02430490139    -4.367421966      -0.5067929509     
                  -4.367421966      -0.5067929509     0.06054115555     -0.06097782932    
850008100         -0.08962970356    0.01666354597     1.782494558       3.924613378       
                  1.782494558       3.924613378       -0.07231425378    0.06492224527     
935008010         0.02687397608     0.06162677932     2.66771765        -3.473728438      
                  2.66771765        -3.473728438      0.1022995441      0.03900840496     
1020007920        0.04109019369     -0.01165111193    -4.349959352      -0.6759638274     
                  -4.349959352      -0.6759638274     -0.004983019471   -0.07642244335    
1105007830        -0.1002652828     -0.04432025628    1.62408986        3.915187272       
                  1.62408986        3.915187272       -0.06379427459    0.07526175826     
1190007740        0.008508252721    -0.01396263467    2.872346937       -3.295820836      
                  2.872346937       -3.295820836      0.1244261055      -0.04228623276    
1275007650        0.07129026604     0.004200498921    -4.257359706      -0.8203007977     
                  -4.257359706      -0.8203007977     -0.03042558117    -0.08950394592    
1360007560        -0.02076249165    -0.04679103022    1.371937397       4.065602083       
                  1.371937397       4.065602083       -0.006040225632   0.1022896606      
1445007470        0.02724708691     -0.04153796151    2.969255193       -3.152659746      
                  2.969255193       -3.152659746      0.1475553323      -0.0882521618     
1530007380        0.0169297184      0.04178553521     -4.066839776      -0.89232254       
                  -4.066839776      -0.89232254       -0.06985242426    -0.06505175039    
1615007290        0.02090902806     0.04707358968     1.202895869       3.959985235       
                  1.202895869       3.959985235       0.02263079751     0.1427304794      
1700007200        0.03515520865     -0.06739815178    2.873643473       -2.998704181      
                  2.873643473       -2.998704181      0.1112225905      -0.1337153627     
1785007110        -0.07396590235    -0.02911420634    -4.00331613       -1.101692262      
                  -4.00331613       -1.101692262      -0.1327744496     -0.06460438843    
1870007020        -0.01021608168    0.08361648742     1.030705148       3.993251525       
                  1.030705148       3.993251525       0.06530443314     0.1327468993      
1955006930        0.09354611959     -0.05975389723    3.019597079       -2.89034872       
                  3.019597079       -2.89034872       0.0896217017      -0.1944686706     
2040006840        -0.07426238772    -0.1316702579     -3.94400148       -1.231659171      
                  -3.94400148       -1.231659171      -0.1557955961     -0.04210079004    
2125006750        -0.07420486624    0.1109089065      0.8996339615      4.049579488       
                  0.8996339615      4.049579488       0.1308555243      0.1374978592      
2210006660        0.1508562039      0.02491049855     2.992221662       -2.735489373      
                  2.992221662       -2.735489373      0.04831784383     -0.2190104119     
2295006570        -0.02922686575    -0.2042620789     -3.816176343      -1.320772756      
                  -3.816176343      -1.320772756      -0.1871367813     0.01485572099     
2380006480        -0.1700329406     0.07684386427     0.6996731172      4.054860022       
                  0.6996731172      4.054860022       0.1670832096      0.1142424423      
2465006390        0.133935534       0.1304114416      2.949805179       -2.576644711      
                  2.949805179       -2.576644711      -0.01945858547    -0.260868888      
2550006300        0.06929075985     -0.2358078398     -3.688420692      -1.599754817      
                  -3.688420692      -1.599754817      -0.1917198449     0.06042696794     
2635006210        -0.2256982451     -0.01606997342    0.5616297602      3.910828924       
                  0.5616297602      3.910828924       0.2140527061      0.06409954748     
2720006120        0.05051981983     0.2249162009      3.038693591       -2.35415338       
                  3.038693591       -2.35415338       -0.09047128457    -0.2660015204     
2805006030        0.1850929366      -0.1954072406     -3.4841662        -1.625870031      
                  -3.4841662        -1.625870031      -0.1636979194     0.1228867393      
2890005940        -0.2254413378     -0.1325141789     0.3714805631      3.767533409       
                  0.3714805631      3.767533409       0.2330804768      0.00869785622     
2975005850        -0.08333579866    0.2594707888      3.144228408       -1.969992814      
                  3.144228408       -1.969992814      -0.1622059035     -0.2492758775     
3060005760        0.259440609       -0.08489705275    -3.288669687      -1.869756192      
                  -3.288669687      -1.869756192      -0.1192968272     0.1684482105      
3145005670        -0.1466253793     -0.2402074757     0.0380992235      3.703978306       
                  0.0380992235      3.703978306       0.2330382428      -0.07195158365    
3230005580        -0.2066962056     0.204414674       3.286338761       -1.645525541      
                  3.286338761       -1.645525541      -0.226752157      -0.209272833      
3315005490        0.2801500846      0.05216498244     -3.052487213      -1.94225857       
                  -3.052487213      -1.94225857       -0.04587209985    0.2029541722      
3400005400        -0.02357028136    -0.2905870689     -0.2305445959     3.559350954       
                  -0.2305445959     3.559350954       0.2031442278      -0.1453001121     
3485005310        -0.302548716      0.1072504726      3.260910749       -1.397810205      
                  3.260910749       -1.397810205      -0.2818779476     -0.1308225889     
3570005220        0.2220037958      0.186867983       -2.856831018      -2.032194787      
                  -2.856831018      -2.032194787      0.03397266323     0.2117687558      
3655005130        0.1014605667      -0.2745304121     -0.3912457782     3.395636538       
                  -0.3912457782     3.395636538       0.136598538       -0.2084856523     
3740005040        -0.3343555749     -0.02814300359    3.193725019       -1.155846462      
                  3.193725019       -1.155846462      -0.311752527      -0.04018036483    
3825004950        0.1039989002      0.2718965451      -2.574091825      -2.086053006      
                  -2.574091825      -2.086053006      0.1145185489      0.1783302546      
3910004860        0.2219735194      -0.2030055583     -0.6388663176     3.211397645       
                  -0.6388663176     3.211397645       0.05301171695     -0.2586921604     
3995004770        -0.301345108      -0.1669194567     3.077724433       -0.9279355422     
                  3.077724433       -0.9279355422     -0.3056494103     0.06568131897     
4080004680        -0.03980475349    0.3013084691      -2.289098228      -2.149141513      
                  -2.289098228      -2.149141513      0.1931948808      0.1288690679      
4165004590        0.2847223373      -0.08133164799    -0.8606743553     3.092235235       
                  -0.8606743553     3.092235235       -0.04592221057    -0.2745091886     
4250004500        -0.2122901071     -0.2580873064     3.072348289       -0.6958466897     
                  3.072348289       -0.6958466897     -0.2651748536     0.1764919676      
4335004410        -0.1869223522     0.2555693348      -2.102556817      -2.294513409      
                  -2.102556817      -2.294513409      0.2320287589      0.04479461384     
4420004320        0.2775046899      0.05432033041     -1.027192537      2.961059993       
                  -1.027192537      2.961059993       -0.1636809579     -0.251994061      
4505004230        -0.09187296205    -0.3061245735     2.998446166       -0.5298327361     
                  2.998446166       -0.5298327361     -0.1972309256     0.2598196281      
4590004140        -0.2901109797     0.159654078       -1.863673784      -2.310509109      
                  -1.863673784      -2.310509109      0.2306429622      -0.05738783235    
4675004050        0.2191572961      0.1677607194      -1.119352808      2.782974036       
                  -1.119352808      2.782974036       -0.255992583      -0.1922316845     
4760003960        0.0477016499      -0.2975451042     2.887180443       -0.3342520566     
                  2.887180443       -0.3342520566     -0.08752360965    0.3120237096      
4845003870        -0.3304265096     0.03726495812     -1.63331679       -2.336537123      
                  -1.63331679       -2.336537123      0.201031507       -0.1549297398     
4930003780        0.1086973957      0.2449632828      -1.281807597      2.598682833       
                  -1.281807597      2.598682833       -0.3209131902     -0.1005674395     
5015003690        0.1611306836      -0.2225785575     2.795710943       -0.1189011353     
                  2.795710943       -0.1189011353     0.03511688974     0.3361963117      
5100003600        -0.316009003      -0.0781909872     -1.467889852      -2.357660849      
                  -1.467889852      -2.357660849      0.1199886831      -0.2297893349     
5185003510        -0.01607139878    0.2666198594      -1.381929923      2.384681096       
                  -1.381929923      2.384681096       -0.3513093958     0.01069574154     
5270003420        0.2213289191      -0.1080230662     2.739100261       0.1194526109      
                  2.739100261       0.1194526109      0.1486965567      0.3013655266      
5355003330        -0.2627955978     -0.1621011094     -1.324189901      -2.348357268      
                  -1.324189901      -2.348357268      -0.001715697606   -0.2803349733     
5440003240        -0.1139893475     0.227565638       -1.443173227      2.257688008       
                  -1.443173227      2.257688008       -0.3212843484     0.131523643       
5525003150        0.2335173055      -0.00337085052    2.684389498       0.2401842731      
                  2.684389498       0.2401842731      0.2691919244      0.2028622824      
5610003060        -0.1717921802     -0.1942488659     -1.219858162      -2.318659443      
                  -1.219858162      -2.318659443      -0.1359732806     -0.2692243129     
5695002970        -0.1629390495     0.173336003       -1.491725105      2.096972234       
                  -1.491725105      2.096972234       -0.2227896332     0.252745905       
5780002880        0.2143735666      0.08394929174     2.607567808       0.3471341707      
                  2.607567808       0.3471341707      0.3304448383      0.05975555231     
5865002790        -0.09765997936    -0.1832706589     -1.063441856      -2.271235086      
                  -1.063441856      -2.271235086      -0.2719074799     -0.1868750772     
5950002700        -0.1820446855     0.1294305533      -1.540203286      1.950791797       
                  -1.540203286      1.950791797       -0.08399833238    0.334110134       
6035002610        0.1630170585      0.1233819095      2.458984578       0.3913280364      
                  2.458984578       0.3913280364      0.3007825677      -0.0956177217     
6120002520        -0.0472097554     -0.164771107      -0.9223789071     -2.208585844      
                  -0.9223789071     -2.208585844      -0.3579637246     -0.04703586896    
6205002430        -0.1735318115     0.09997373204     -1.531396074      1.829530885       
                  -1.531396074      1.829530885       0.1024395284      0.3394641255      
6290002340        0.1461258071      0.1348210677      2.341351706       0.4155056313      
                  2.341351706       0.4155056313      0.1981446918      -0.2477865328     
6375002250        -0.03019823865    -0.1644577545     -0.8118046699     -2.146638387      
                  -0.8118046699     -2.146638387      -0.3764335832     0.1281731554      
6460002160        -0.1867678295     0.1136234233      -1.493793653      1.722680202       
                  -1.493793653      1.722680202       0.2715624926      0.2737055076      
6545002070        0.1555229958      0.1727645304      2.187995732       0.4358103236      
                  2.187995732       0.4358103236      0.03058435839     -0.3210378356     
6630001980        0.02234967578     -0.1847824357     -0.7033168236     -2.057588283      
                  -0.7033168236     -2.057588283      -0.3001211511     0.3022718599      
6715001890        -0.2212794676     0.1080921926      -1.424142253      1.551207623       
                  -1.424142253      1.551207623       0.3845873585      0.1577625203      
6800001800        0.1562684528      0.2428927181      2.003093186       0.5078464813      
                  2.003093186       0.5078464813      -0.130767398      -0.3095146317     
6885001710        0.1204707005      -0.2084195847     -0.5161796969     -1.935041498      
                  -0.5161796969     -1.935041498      -0.1894467924     0.3889191295      
6970001620        -0.2704046809     0.03134277639     -1.466057053      1.347256796       
                  -1.466057053      1.347256796       0.4241931662      0.02516315507     
7055001530        0.1005852594      0.3229718804      1.863627368       0.6122370614      
                  1.863627368       0.6122370614      -0.2573701029     -0.2720945144     
7140001440        0.2446210207      -0.1872378485     -0.3758851807     -1.897358432      
                  -0.3758851807     -1.897358432      -0.06473446058    0.4552247428      
7225001350        -0.2714863841     -0.09481594621    -1.509158887      1.195592033       
                  -1.509158887      1.195592033       0.4535106624      -0.102157397      
7310001260        0.005900797374    0.3762260566      1.787891542       0.6365725938      
                  1.787891542       0.6365725938      -0.3596704512     -0.1857451        
7395001170        0.3674407985      -0.07506727936    -0.2076129558     -1.816768538      
                  -0.2076129558     -1.816768538      0.07603403457     0.4833020918      
7480001080        -0.1963376205     -0.2594129887     -1.458135171      1.017695066       
                  -1.458135171      1.017695066       0.395544612       -0.2367377434     
7565000990        -0.1907328986     0.3559283137      1.616064857       0.6783972051      
                  1.616064857       0.6783972051      -0.4265991168     -0.08539687449    
7650000900        0.4113569922      0.09006375607     -0.08581076464    -1.701983248      
                  -0.08581076464    -1.701983248      0.2118678723      0.4403373517      
7735000810        -0.03400526254    -0.3738070693     -1.510746931      0.9071232966      
                  -1.510746931      0.9071232966      0.318166694       -0.346888165      
7820000720        -0.3151051198     0.2305646824      1.522881914       0.8084105967      
                  1.522881914       0.8084105967      -0.4080536113     0.02399608637     
7905000630        0.3722639135      0.2527690186      0.03673362284     -1.588973822      
                  0.03673362284     -1.588973822      0.3240069077      0.3639371412      
7990000540        0.19119303        -0.3949937188     -1.502621161      0.6265856929      
                  -1.502621161      0.6265856929      0.222199546       -0.4087508986     
8075000450        -0.4044447995     0.003559376315    1.301912081       0.9938063457      
                  1.301912081       0.9938063457      -0.3899694086     0.1182621127      
8160000360        0.217563178       0.3970151885      0.1686747603      -1.535059372      
                  0.1686747603      -1.535059372      0.3999245567      0.2807871925      
8245000270        0.3527006967      -0.2962696788     -1.455516526      0.4574008436      
                  -1.455516526      0.4574008436      0.1147022628      -0.4456037194     
8330000180        -0.3601215821     -0.2433622601     1.158322339       1.057968059       
                  1.158322339       1.057968059       -0.3441741882     0.1930897779      
8415000090        -0.01880391671    0.4283745192      0.2697290947      -1.440202068      
                  0.2697290947      -1.440202068      0.4370727232      0.1676246872      
8500000000        0.4432099701      -0.1207131605     -1.35892256       0.3539839554      
                  -1.35892256       0.3539839554      -0.003524999902   -0.4626760855     
