! RsaToolbox (C) 2013 Rohde & Schwarz America
! 
! Number of points: 101
! Number of ports: 2
! Balanced ports?: 0
! 
! 
# Hz S RI R 50
9000              1.018118007       -0.02415614891    0.0001034355157   -2.444111171e-05  
                  0.0001034355157   -2.444111171e-05  1.027867698       -0.02509885007    
85008910          0.002680948421    0.1595957169      3.19361681        5.523626014       
                  3.19361681        5.523626014       -0.09213911211    -0.1149972299     
170008820         0.1428615601      -0.04429757902    3.196565881       -5.228373751      
                  3.196565881       -5.228373751      -0.02003901247    0.1716789902      
255008730         -0.1762083241     -0.07577418895    -6.065887583      -0.1718950194     
                  -6.065887583      -0.1718950194     0.07764886365     -0.02647917109    
340008640         -0.0633272955     0.1704243799      2.65151967        5.361823243       
                  2.65151967        5.361823243       -0.1265250784     -0.05360480244    
425008550         0.1597473494      -0.04690417361    3.395085208       -4.871380269      
                  3.395085208       -4.871380269      0.01659483751     0.10305004        
510008460         -0.1022025226     -0.1637300548     -5.912623464      -0.6520690934     
                  -5.912623464      -0.6520690934     0.07058863851     -0.07920658754    
595008370         -0.1074863675     0.1400307149      2.2275762         5.434374598       
                  2.2275762         5.434374598       -0.08375744914    -0.011803069      
680008280         0.2044851513      0.03363425909     3.670026754       -4.578193466      
                  3.670026754       -4.578193466      0.09222699164     0.07541313944     
765008190         0.009195404514    -0.164136501      -5.736367381      -1.109131221      
                  -5.736367381      -1.109131221      0.05946244188     -0.0607618842     
850008100         -0.1820652437     0.1114950694      1.873055011       5.527458306       
                  1.873055011       5.527458306       -0.0715185339     0.06536674518     
935008010         0.1457184384      0.1234255736      3.954195351       -4.232306754      
                  3.954195351       -4.232306754      0.1015995105      0.03886924398     
1020007920        0.07565535495     -0.154309586      -5.593404686      -1.453774374      
                  -5.593404686      -1.453774374      -0.004960714789   -0.07502724206    
1105007830        -0.2257657957     -0.00813134006    1.477597032       5.623995799       
                  1.477597032       5.623995799       -0.06297747605    0.07549674815     
1190007740        0.0715479141      0.1406859683      4.202057767       -3.860342561      
                  4.202057767       -3.860342561      0.1245878284      -0.04293939172    
1275007650        0.1645011354      -0.1086515216     -5.473571173      -1.83826697       
                  -5.473571173      -1.83826697       -0.03022314832    -0.08887839067    
1360007560        -0.1637798353     -0.101078095      1.040278967       5.650199083       
                  1.040278967       5.650199083       -0.005142588493   0.1017875254      
1445007470        0.0003759059227   0.1423804378      4.42065615        -3.540088686      
                  4.42065615        -3.540088686      0.1470480541      -0.0888552806     
1530007380        0.1849711358      -0.0114780288     -5.310419727      -2.192431946      
                  -5.310419727      -2.192431946      -0.06943651493    -0.0644552363     
1615007290        -0.09456153939    -0.1245372553     0.6169888387      5.609354765       
                  0.6169888387      5.609354765       0.02344424328     0.1427257565      
1700007200        -0.08901854839    0.09783773183     4.676669111       -3.242097566      
                  4.676669111       -3.242097566      0.1110648176      -0.1333636181     
1785007110        0.1289561961      0.03164951559     -5.067158482      -2.534331138      
                  -5.067158482      -2.534331138      -0.1315698072     -0.06381254771    
1870007020        -0.02186834412    -0.1366509135     0.2189853726      5.613404455       
                  0.2189853726      5.613404455       0.06592198611     0.1322586226      
1955006930        -0.1074488337     0.02171372159     4.883574021       -2.887556148      
                  4.883574021       -2.887556148      0.08945073214     -0.1937014277     
2040006840        0.08346722638     0.03958464467     -4.829025122      -2.820314045      
                  -4.829025122      -2.820314045      -0.1548122213     -0.04154584446    
2125006750        0.03683158623     -0.093680025      -0.1952432151     5.641582158       
                  -0.1952432151     5.641582158       0.1309107169      0.1363227854      
2210006660        -0.09276808205    -0.0006888939362  4.978666962       -2.53285163       
                  4.978666962       -2.53285163       0.04790168955     -0.2179682552     
2295006570        0.02954667646     0.03710158028     -4.597671895      -3.150588254      
                  -4.597671895      -3.150588254      -0.1862817928     0.01562218386     
2380006480        0.02914979534     -0.05337768653    -0.561692648      5.580776422       
                  -0.561692648      5.580776422       0.1668907657      0.114045077       
2465006390        -0.0888236543     -0.01621858967    5.057176165       -2.215782319      
                  5.057176165       -2.215782319      -0.01990713529    -0.2591342235     
2550006300        0.01160086213     0.002270070418    -4.293117561      -3.489021099      
                  -4.293117561      -3.489021099      -0.1906408334     0.06096755945     
2635006210        0.02641435228     -0.04532436592    -0.9034953956     5.523898227       
                  -0.9034953956     5.523898227       0.2136018205      0.06435730683     
2720006120        -0.08314722192    -0.01129180936    5.135564094       -1.842076306      
                  5.135564094       -1.842076306      -0.09068566344    -0.2645723591     
2805006030        0.01699318674     0.001140959073    -4.005449902      -3.7376269        
                  -4.005449902      -3.7376269        -0.1634681389     0.123549458       
2890005940        0.02229702589     -0.03659362272    -1.239510405      5.400048981       
                  -1.239510405      5.400048981       0.2321617572      0.009135696829    
2975005850        -0.0948158026     -0.008733752686   5.168333813       -1.384734236      
                  5.168333813       -1.384734236      -0.1625038376     -0.247075035      
3060005760        0.01809757748     0.01042387477     -3.706689035      -4.079774724      
                  -3.706689035      -4.079774724      -0.1189236221     0.1687565684      
3145005670        0.03662273792     -0.04437276978    -1.636834748      5.246630893       
                  -1.636834748      5.246630893       0.2314185533      -0.07142225036    
3230005580        -0.1018115435     -0.03317494213    5.27725279        -0.9851378195     
                  5.27725279        -0.9851378195     -0.2272165656     -0.207669383      
3315005490        0.01135399527     0.0318090067      -3.434869819      -4.308065249      
                  -3.434869819      -4.308065249      -0.0461537411     0.2024827951      
3400005400        0.06143472384     -0.02888002716    -1.995981209      5.077879432       
                  -1.995981209      5.077879432       0.201103455       -0.1443754659     
3485005310        -0.09818985243    -0.06400349496    5.378792616       -0.6160863873     
                  5.378792616       -0.6160863873     -0.2819073176     -0.1294419717     
3570005220        -0.02061826955    0.04957993199     -3.251718033      -4.501247429      
                  -3.251718033      -4.501247429      0.03321239969     0.2111145018      
3655005130        0.06954438239     0.004171762253    -2.193223227      4.948231844       
                  -2.193223227      4.948231844       0.1347120206      -0.2089307613     
3740005040        -0.07711364456    -0.09358717553    5.371191484       -0.2585305432     
                  5.371191484       -0.2585305432     -0.3121976138     -0.03957191404    
3825004950        -0.05932926027    0.0369077245      -2.979884761      -4.636167568      
                  -2.979884761      -4.636167568      0.1135448164      0.1758519654      
3910004860        0.06385885531     0.03841186546     -2.614623138      4.727097697       
                  -2.614623138      4.727097697       0.04988325589     -0.259600907      
3995004770        -0.03082207873    -0.1114552717     5.403996702       0.06563684471     
                  5.403996702       0.06563684471     -0.305177801      0.06545935387     
4080004680        -0.08500133764    0.007555829109    -2.708184671      -4.806136114      
                  -2.708184671      -4.806136114      0.1905525298      0.1280854611      
4165004590        0.03954107066     0.07026304021     -2.875764962      4.589127441       
                  -2.875764962      4.589127441       -0.0466833173     -0.2717070447     
4250004500        0.01134648872     -0.08790804895    5.491380131       0.3097862849      
                  5.491380131       0.3097862849      -0.2656512604     0.1751772306      
4335004410        -0.1013063953     -0.02004413903    -2.44983254       -4.917109044      
                  -2.44983254       -4.917109044      0.2297352658      0.04429765891     
4420004320        -0.00796085712    0.08329263046     -3.077306277      4.473803702       
                  -3.077306277      4.473803702       -0.1640959412     -0.2508283889     
4505004230        0.03827017651     -0.05694138037    5.442033401       0.4895701357      
                  5.442033401       0.4895701357      -0.1963965411     0.2593289878      
4590004140        -0.09945613338    -0.05168971899    -2.188126112      -4.954314109      
                  -2.188126112      -4.954314109      0.2294979501      -0.05751578155    
4675004050        -0.04501480215    0.07022849194     -3.177061583      4.359229463       
                  -3.177061583      4.359229463       -0.2551180574     -0.1907770323     
4760003960        0.05671737543     -0.01585320121    5.294711164       0.727022175       
                  5.294711164       0.727022175       -0.0863818402     0.3109698513      
4845003870        -0.0762796877     -0.06893660708    -1.937883446      -5.00822258       
                  -1.937883446      -5.00822258       0.2002229462      -0.1546699268     
4930003780        -0.07619127956    0.04041298506     -3.360780822      4.17925425        
                  -3.360780822      4.17925425        -0.3195398624     -0.09959165415    
5015003690        0.04954061147     0.03784800299     5.165755811       0.9659044619      
                  5.165755811       0.9659044619      0.03563270552     0.3348659557      
5100003600        -0.05181558372    -0.05598216228    -1.764825127      -5.081388922      
                  -1.764825127      -5.081388922      0.1199821609      -0.229321446      
5185003510        -0.09064725574    0.003579787829    -3.417906074      3.954013371       
                  -3.417906074      3.954013371       -0.3490245736     0.0112136748      
5270003420        0.01480608584     0.07157705661     5.032161163       1.195462253       
                  5.032161163       1.195462253       0.1504323687      0.2992981819      
5355003330        -0.04197570399    -0.02209175269    -1.649299012      -5.143782648      
                  -1.649299012      -5.143782648      -0.002211843517   -0.2790970468     
5440003240        -0.07094190303    -0.03956819237    -3.362916967      3.788745553       
                  -3.362916967      3.788745553       -0.3192584707     0.1319995659      
5525003150        -0.01884224624    0.06049869493     5.013949702       1.314581724       
                  5.013949702       1.314581724       0.2688220873      0.2010298775      
5610003060        -0.03872805274    0.02821757238     -1.593467195      -4.98418464       
                  -1.593467195      -4.98418464       -0.1369065387     -0.2674576163     
5695002970        -0.01352473107    -0.04312894937    -3.362828656      3.570288671       
                  -3.362828656      3.570288671       -0.221313491      0.2530964361      
5780002880        -0.0260654377     0.02345125532     4.968148351       1.408033525       
                  4.968148351       1.408033525       0.3292334026      0.05777916724     
5865002790        -0.07689591666    0.07648552202     -1.495469535      -4.720270338      
                  -1.495469535      -4.720270338      -0.272481587      -0.1853435586     
5950002700        0.03653593026     0.005245631366    -3.397884013      3.362764697       
                  -3.397884013      3.362764697       -0.0822329499     0.3328058723      
6035002610        -0.01871154605    -0.03926813668    4.755066169       1.303645189       
                  4.755066169       1.303645189       0.2983150565      -0.09749020821    
6120002520        -0.1453470731     0.07371134239     -1.378527049      -4.462911795      
                  -1.378527049      -4.462911795      -0.3587217584     -0.04520378653    
6205002430        0.07134943092     0.08859155142     -3.28527205       3.156428564       
                  -3.28527205       3.156428564       0.1014716072      0.3377382173      
6290002340        0.06025377001     -0.09116873701    4.528996579       1.165189285       
                  4.528996579       1.165189285       0.1948365935      -0.2481184077     
6375002250        -0.2154731801     0.008273405078    -1.278256962      -4.167696924      
                  -1.278256962      -4.167696924      -0.3761041366     0.1299080172      
6460002160        0.02946948421     0.2062550783      -3.037830479      2.957418551       
                  -3.037830479      2.957418551       0.2707952803      0.2723436494      
6545002070        0.1764823599      -0.06005760074    4.123006587       1.065466652       
                  4.123006587       1.065466652       0.02899051456     -0.3195741735     
6630001980        -0.2072410308     -0.1109283684     -1.134124134      -3.860131273      
                  -1.134124134      -3.860131273      -0.2985092333     0.3023553023      
6715001890        -0.07197500933    0.2751006241      -2.734089183      2.639860544       
                  -2.734089183      2.639860544       0.3838811287      0.1556520813      
6800001800        0.266154595       0.05510479548     3.634533218       1.126457754       
                  3.634533218       1.126457754       -0.1313813982     -0.3088439299     
6885001710        -0.103182872      -0.24083413       -0.8196923789     -3.508885526      
                  -0.8196923789     -3.508885526      -0.187939618      0.3878267752      
6970001620        -0.209286135      0.2339338778      -2.642947717      2.228597454       
                  -2.642947717      2.228597454       0.4229970234      0.02328026923     
7055001530        0.2636380222      0.2081210485      3.2303815         1.242963201       
                  3.2303815         1.242963201       -0.257045624      -0.2712473253     
7140001440        0.0814066488      -0.2999872637     -0.5417336131     -3.233439246      
                  -0.5417336131     -3.233439246      -0.06277614067    0.4539020525      
7225001350        -0.2970398315     0.09655268537     -2.582905027      1.900541617       
                  -2.582905027      1.900541617       0.4529449332      -0.1032499298     
7310001260        0.1705642597      0.3475762729      2.868769957       1.161440952       
                  2.868769957       1.161440952       -0.3584637058     -0.1850666019     
7395001170        0.2853106948      -0.2276054201     -0.2459277285     -2.968977287      
                  -0.2459277285     -2.968977287      0.07743704449     0.4824582296      
7480001080        -0.2992933508     -0.1108974551     -2.418442166      1.614479235       
                  -2.418442166      1.614479235       0.3948625182      -0.2374159012     
7565000990        -0.03079924361    0.4000700274      2.618923098       1.165160384       
                  2.618923098       1.165160384       -0.4246070747     -0.08359816929    
7650000900        0.4008249819      -0.05680152713    -0.0546395903     -2.611599504      
                  -0.0546395903     -2.611599504      0.2131962512      0.4385413294      
7735000810        -0.1617499591     -0.3066193474     -2.299350928      1.349488131       
                  -2.299350928      1.349488131       0.317255817       -0.3461583661     
7820000720        -0.2076966148     0.3174017861      2.279252632       1.242214559       
                  2.279252632       1.242214559       -0.4063801961     0.02493742171     
7905000630        0.4145946865      0.1385682143      0.0960544599      -2.301971345      
                  0.0960544599      -2.301971345      0.3244588755      0.3622774785      
7990000540        0.06600078657     -0.3909562911     -2.216180779      0.9262411416      
                  -2.216180779      0.9262411416      0.2203985634      -0.4072205213     
8075000450        -0.350500098      0.120335007       1.909536294       1.43355875        
                  1.909536294       1.43355875        -0.3877935148     0.1183184159      
8160000360        0.2969742471      0.3134041804      0.2516511141      -2.191461575      
                  0.2516511141      -2.191461575      0.3995652471      0.2804043216      
8245000270        0.2579118267      -0.3370666796     -2.041489771      0.6155134623      
                  -2.041489771      0.6155134623      0.1141670425      -0.4441114871     
8330000180        -0.3664946067     -0.1323207305     1.639304531       1.500324592       
                  1.639304531       1.500324592       -0.3425450217     0.1936403372      
8415000090        0.07851754921     0.3934760481      0.3805461734      -1.998105757      
                  0.3805461734      -1.998105757      0.4363947036      0.1676277699      
8500000000        0.3831557154      -0.1858640951     -1.831873925      0.4463790743      
                  -1.831873925      0.4463790743      -0.004419320298   -0.4604118853     
