! RsaToolbox (C) 2013 Rohde & Schwarz America
! 
! Number of points: 101
! Number of ports: 2
! Balanced ports?: 0
! 
! 
# Hz S RI R 50
9000              0.9848930407      -0.009176190533   6.925699975e-05   -1.432303502e-05  
                  6.925699975e-05   -1.432303502e-05  0.9976820342      -0.01751683469    
85008910          -0.05018412895    0.02778394236     2.445827742       3.990156499       
                  2.445827742       3.990156499       -0.09234944812    -0.1168637624     
170008820         0.05725432168     0.04148864494     2.408821074       -4.209163719      
                  2.408821074       -4.209163719      -0.02120656165    0.17187334        
255008730         -0.08111161321    -0.04639909027    -4.869558513      0.09064977117     
                  -4.869558513      0.09064977117     0.07788175466     -0.02665643883    
340008640         -0.06961072234    0.07003690131     2.354460742       4.221182702       
                  2.354460742       4.221182702       -0.1270640199     -0.05441401735    
425008550         0.07108540546     -0.00760539555    2.555375131       -4.120946514      
                  2.555375131       -4.120946514      0.01624023478     0.1029648533      
510008460         -0.03363753932    -0.09973844699    -4.83251787       -0.2297381678     
                  -4.83251787       -0.2297381678     0.07105373914     -0.07999818741    
595008370         -0.0656437888     0.0467685614      2.065282528       4.404455185       
                  2.065282528       4.404455185       -0.08421672898    -0.01247460241    
680008280         0.1168961922      0.04140495769     2.728925646       -3.955088978      
                  2.728925646       -3.955088978      0.09208229486     0.075832129       
765008190         0.0416833962      -0.06682151431    -4.81092671       -0.6832911229     
                  -4.81092671       -0.6832911229     0.0604925589      -0.06088864715    
850008100         -0.1240709963     0.04837035718     1.881023217       4.411985066       
                  1.881023217       4.411985066       -0.07219834451    0.06490726834     
935008010         0.06293485612     0.08276421147     3.031590249       -3.730143897      
                  3.031590249       -3.730143897      0.10223723        0.03897211138     
1020007920        0.05915047061     -0.06052876435    -4.773464279      -0.946027759      
                  -4.773464279      -0.946027759      -0.004963600443   -0.07631420804    
1105007830        -0.1475372253     -0.03534871404    1.655959536       4.397303616       
                  1.655959536       4.397303616       -0.06372165123    0.07524798113     
1190007740        0.02366407714     0.04498781962     3.335593356       -3.447532005      
                  3.335593356       -3.447532005      0.1243963828      -0.04228646255    
1275007650        0.1041973595      -0.03069652       -4.62158959       -1.083233366      
                  -4.62158959       -1.083233366      -0.03036545259    -0.08944194832    
1360007560        -0.06506899502    -0.064195124      1.318958428       4.510788494       
                  1.318958428       4.510788494       -0.006063785537   0.1022014034      
1445007470        0.01294788067     0.01835821513     3.446521197       -3.24019467       
                  3.446521197       -3.24019467       0.1475434777      -0.08820173145    
1530007380        0.06067743247     0.02622372193     -4.413354496      -1.177580535      
                  -4.413354496      -1.177580535      -0.06977758392    -0.06499201896    
1615007290        -0.01164869432    0.0005698146143   1.061859823       4.428198407       
                  1.061859823       4.428198407       0.02263566194     0.1426571497      
1700007200        0.005212376346    -0.02501985631    3.335091617       -3.091804899      
                  3.335091617       -3.091804899      0.1111534073      -0.1336478052     
1785007110        -0.02417751826    -0.01586355735    -4.293164224      -1.442044654      
                  -4.293164224      -1.442044654      -0.1326454128     -0.06457940401    
1870007020        -0.01614951516    0.03099975698     0.8647943748      4.411814776       
                  0.8647943748      4.411814776       0.06530303801     0.1327196807      
1955006930        0.04414960317     -0.03580901486    3.514744641       -2.931455338      
                  3.514744641       -2.931455338      0.0895864514      -0.1943561443     
2040006840        -0.02914484558    -0.08534686892    -4.223803289      -1.673942996      
                  -4.223803289      -1.673942996      -0.1556357028     -0.04209628209    
2125006750        -0.05134428129    0.05970264794     0.6595139816      4.480435229       
                  0.6595139816      4.480435229       0.1308206697      0.1374398457      
2210006660        0.08561314719     0.02260519669     3.543968889       -2.734745766      
                  3.543968889       -2.734745766      0.04832424175     -0.2188421433     
2295006570        -0.01152260221    -0.1431119842     -4.059998937      -1.794145808      
                  -4.059998937      -1.794145808      -0.1869385163     0.01481775113     
2380006480        -0.1213669588     0.04008035857     0.4003695705      4.497951795       
                  0.4003695705      4.497951795       0.1669858066      0.1142460468      
2465006390        0.07151277715     0.09655659212     3.529462113       -2.560628526      
                  3.529462113       -2.560628526      -0.01938852646    -0.2606635949     
2550006300        0.05431890547     -0.1725992144     -3.881009252      -2.119747954      
                  -3.881009252      -2.119747954      -0.1916915442     0.06030532357     
2635006210        -0.171028644      -0.02917446982    0.2946078597      4.333525954       
                  0.2946078597      4.333525954       0.2139270846      0.06416236864     
2720006120        0.01337212012     0.1727547415      3.557653168       -2.317490031      
                  3.557653168       -2.317490031      -0.09062430745    -0.2658157148     
2805006030        0.1484941863      -0.1462120461     -3.680672033      -2.12366864       
                  -3.680672033      -2.12366864       -0.1636400381     0.1228859582      
2890005940        -0.173818975      -0.1206195408     0.1172072583      4.162349359       
                  0.1172072583      4.162349359       0.2329909081      0.00880432424     
2975005850        -0.08989801263    0.200592425       3.611415212       -1.907563291      
                  3.611415212       -1.907563291      -0.1621028164     -0.2491990476     
3060005760        0.212360842       -0.06070047829    -3.458486421      -2.310674587      
                  -3.458486421      -2.310674587      -0.1193093346     0.1684195209      
3145005670        -0.106013513      -0.2064605053     -0.2250748299     4.07302403        
                  -0.2250748299     4.07302403        0.232902786       -0.07183611524    
3230005580        -0.1883970208     0.154735207       3.712977997       -1.579802933      
                  3.712977997       -1.579802933      -0.2267007171     -0.2092121827     
3315005490        0.2323058523      0.05624036427     -3.228353603      -2.342348714      
                  -3.228353603      -2.342348714      -0.04599660532    0.2028720333      
3400005400        -0.002227303466   -0.2478935195     -0.4603008547     3.893139912       
                  -0.4603008547     3.893139912       0.2027054491      -0.1453377102     
3485005310        -0.2703275739     0.07373112336     3.655914221       -1.347151901      
                  3.655914221       -1.347151901      -0.2819505175     -0.1307109954     
3570005220        0.1805929579      0.1732973147      -3.032086292      -2.390790429      
                  -3.032086292      -2.390790429      0.03386107923     0.2116446787      
3655005130        0.1035208391      -0.2313862112     -0.5921166909     3.70241512        
                  -0.5921166909     3.70241512        0.1363012829      -0.2086449616     
3740005040        -0.2970226488     -0.04331168027    3.553815849       -1.109654922      
                  3.553815849       -1.109654922      -0.3117423504     -0.04019420526    
3825004950        0.07552383966     0.2464800117      -2.738128949      -2.39526922       
                  -2.738128949      -2.39526922       0.1142947009      0.177879732       
3910004860        0.2070368947      -0.1672596382     -0.8297776424     3.48785081        
                  -0.8297776424     3.48785081        0.05265235408     -0.2587640653     
3995004770        -0.2651868604     -0.1657423188     3.409235779       -0.8966694869     
                  3.409235779       -0.8966694869     -0.305590102      0.06552818031     
4080004680        -0.05483433135    0.2644230898      -2.458276611      -2.472992763      
                  -2.458276611      -2.472992763      0.1927589695      0.128991962       
4165004590        0.256626233       -0.05612479602    -1.055914463      3.357202006       
                  -1.055914463      3.357202006       -0.04580285726    -0.2739311164     
4250004500        -0.1814463161     -0.241922618      3.397320535       -0.6645380084     
                  3.397320535       -0.6645380084     -0.2653963324     0.1763168147      
4335004410        -0.1832448003     0.2230164467      -2.23243996       -2.568787685      
                  -2.23243996       -2.568787685      0.2316682433      0.04494532789     
4420004320        0.2451226191      0.06334047243     -1.203524757      3.201711723       
                  -1.203524757      3.201711723       -0.163574221      -0.2518702166     
4505004230        -0.07318725015    -0.2807167992     3.294527841       -0.5054997673     
                  3.294527841       -0.5054997673     -0.1972443805     0.2596446259      
4590004140        -0.2740692978     0.1336718445      -1.989467534      -2.5695778        
                  -1.989467534      -2.5695778        0.2305431379      -0.05734045355    
4675004050        0.1888008423      0.1616560625      -1.279244151      3.01682537        
                  -1.279244151      3.01682537        -0.2558660462     -0.1921575985     
4760003960        0.05308010573     -0.2680622765     3.163640821       -0.308156518      
                  3.163640821       -0.308156518      -0.08748517874    0.3118696142      
4845003870        -0.3064813296     0.02280739208     -1.74833273       -2.585412684      
                  -1.74833273       -2.585412684      0.2010299193      -0.1547813958     
4930003780        0.08768781551     0.2270269833      -1.430321459      2.810428165       
                  -1.430321459      2.810428165       -0.3207004574     -0.100429877      
5015003690        0.1534971965      -0.1950660737     3.056355848       -0.0894180714     
                  3.056355848       -0.0894180714     0.03500739722     0.3360030323      
5100003600        -0.2915202628     -0.07933450166    -1.57243889       -2.586310899      
                  -1.57243889       -2.586310899      0.1200076357      -0.2296638042     
5185003510        -0.0256444336     0.242142892       -1.520191056      2.582822982       
                  -1.520191056      2.582822982       -0.3510445888     0.01075361664     
5270003420        0.2030935837      -0.08925768431    2.975967112       0.1505665014      
                  2.975967112       0.1505665014      0.1488161721      0.3011479879      
5355003330        -0.2420883967     -0.1521494955     -1.428293119      -2.564936031      
                  -1.428293119      -2.564936031      -0.001735027311   -0.2801834545     
5440003240        -0.1117695274     0.2014037686      -1.572851372      2.44591745        
                  -1.572851372      2.44591745        -0.3210713988     0.1315548989      
5525003150        0.210690681       0.004026368729    2.912242539       0.2703517294      
                  2.912242539       0.2703517294      0.269002275       0.2028260817      
5610003060        -0.1580822369     -0.1755564309     -1.32022311       -2.52298572       
                  -1.32022311       -2.52298572       -0.1360319789     -0.2690182999     
5695002970        -0.1499999714     0.1523232625      -1.616426128      2.269156177       
                  -1.616426128      2.269156177       -0.2225582872     0.2527976137      
5780002880        0.192835518       0.07930639495     2.824347966       0.3769726419      
                  2.824347966       0.3769726419      0.3303432745      0.05949208699     
5865002790        -0.09406041134    -0.1587411009     -1.162233548      -2.465177933      
                  -1.162233548      -2.465177933      -0.271570189      -0.1867892773     
5950002700        -0.1619780573     0.1171871214      -1.664424784      2.11276447        
                  -1.664424784      2.11276447        -0.08377425643    0.3339488546      
6035002610        0.14629744        0.1088655642      2.664292964       0.4154584605      
                  2.664292964       0.4154584605      0.3004458028      -0.09595312532    
6120002520        -0.05579985637    -0.1416829251     -1.009010627      -2.386836737      
                  -1.009010627      -2.386836737      -0.3580802213     -0.0468139698     
6205002430        -0.1502681185     0.09812738817     -1.649724551      1.981347213       
                  -1.649724551      1.981347213       0.1024128633      0.3391537346      
6290002340        0.138084663       0.1135561157      2.535485639       0.4344400902      
                  2.535485639       0.4344400902      0.1977701536      -0.2478548905     
6375002250        -0.04878491433    -0.1467198594     -0.893757619      -2.314522612      
                  -0.893757619      -2.314522612      -0.3765212221     0.1284545999      
6460002160        -0.1644460939     0.1228894018      -1.603575848      1.86729957        
                  -1.603575848      1.86729957        0.2715377767      0.2735117379      
6545002070        0.157672018       0.1495953103      2.365115985       0.4528066599      
                  2.365115985       0.4528066599      0.03035074855     -0.3209694013     
6630001980        -0.001837419421   -0.1770476878     -0.7775229227     -2.212713576      
                  -0.7775229227     -2.212713576      -0.2998227468     0.3024046742      
6715001890        -0.2046408486     0.126538498       -1.524972691      1.683085229       
                  -1.524972691      1.683085229       0.3845457479      0.157680656       
6800001800        0.1682585251      0.2224543836      2.166962278       0.5322975259      
                  2.166962278       0.5322975259      -0.1308649102     -0.3094405693     
6885001710        0.09486587281     -0.212361703      -0.5771687809     -2.082701298      
                  -0.5771687809     -2.082701298      -0.1892450462     0.3889658461      
6970001620        -0.2637583654     0.05468220362     -1.563006413      1.45777708        
                  -1.563006413      1.45777708        0.4241218919      0.02497197093     
7055001530        0.1213680404      0.3083474146      2.024384779       0.6485310235      
                  2.024384779       0.6485310235      -0.2574124132     -0.2720110156     
7140001440        0.2223061653      -0.203318332      -0.4250687969     -2.050689105      
                  -0.4250687969     -2.050689105      -0.06452223872    0.4550402646      
7225001350        -0.2755764596     -0.07005487662    -1.613050643      1.297285561       
                  -1.613050643      1.297285561       0.4534804836      -0.1023334698     
7310001260        0.02783851515     0.3728932793      1.920307579       0.6723582242      
                  1.920307579       0.6723582242      -0.3595320992     -0.185703626      
7395001170        0.3567295868      -0.09611333393    -0.2354098083     -1.9491864        
                  -0.2354098083     -1.9491864        0.07615962126     0.4832503669      
7480001080        -0.2102511506     -0.2409312077     -1.552484333      1.101310643       
                  -1.552484333      1.101310643       0.3954972188      -0.2367595845     
7565000990        -0.1676391499     0.3631502485      1.749224648       0.7172704596      
                  1.749224648       0.7172704596      -0.4264235373     -0.08531815552    
7650000900        0.410465609       0.06795518428     -0.09958132065    -1.819467318      
                  -0.09958132065    -1.819467318      0.2119946846      0.4401498391      
7735000810        -0.05474639842    -0.3644741953     -1.609158867      0.9797427836      
                  -1.609158867      0.9797427836      0.3180338795      -0.3467941167     
7820000720        -0.2993101101     0.2451306202      1.629721072       0.852764225       
                  1.629721072       0.852764225       -0.4078770648     0.02408470871     
7905000630        0.3804437826      0.2332876255      0.0330657316      -1.695740791      
                  0.0330657316      -1.695740791      0.3240427541      0.3638092955      
7990000540        0.1702498404      -0.395741741      -1.599766578      0.6791811161      
                  -1.599766578      0.6791811161      0.2221376632      -0.4086359711     
8075000450        -0.396820095      0.02374528508     1.394732675       1.048435563       
                  1.394732675       1.048435563       -0.389747951      0.1183584317      
8160000360        0.2324334876      0.3827193058      0.1705106199      -1.636186547      
                  0.1705106199      -1.636186547      0.3998741326      0.2807437092      
8245000270        0.3344618651      -0.3050378809     -1.552677244      0.494878674       
                  -1.552677244      0.494878674       0.1147124862      -0.4454119645     
8330000180        -0.3624821184     -0.221183816      1.250306843       1.126835667       
                  1.250306843       1.126835667       -0.3440609656     0.19313318        
8415000090        0.00184532399     0.4217731707      0.280386847       -1.543613775      
                  0.280386847       -1.543613775      0.4370964052      0.1675397812      
8500000000        0.4299111409      -0.1357262521     -1.452975823      0.3816973575      
                  -1.452975823      0.3816973575      -0.003646423778   -0.4623843803     
