! RsaToolbox (C) 2013 Rohde & Schwarz America
! 
! Number of points: 101
! Number of ports: 2
! Balanced ports?: 0
! 
! 
# Hz S RI R 50
9000              1.01330766        -0.02279995965    0.0001220004945   4.182639799e-05   
                  0.0001220004945   4.182639799e-05   1.020662108       -0.02860352011    
85008910          0.002674744383    0.1590576836      3.195294782       5.515996258       
                  3.195294782       5.515996258       -0.09258790395    -0.1156095516     
170008820         0.1426588192      -0.0443246717     3.192306845       -5.225946395      
                  3.192306845       -5.225946395      -0.02023091219    0.1713982648      
255008730         -0.1760507034     -0.07570514595    -6.060131607      -0.1675580137     
                  -6.060131607      -0.1675580137     0.07758031699     -0.026606246      
340008640         -0.06343443744    0.1700788373      2.654031578       5.358308659       
                  2.654031578       5.358308659       -0.1264676657     -0.05357168459    
425008550         0.1594539225      -0.04642783036    3.39025657        -4.870048078      
                  3.39025657        -4.870048078      0.01677932256     0.1031089281      
510008460         -0.101879652      -0.163493305      -5.907870049      -0.6471123309     
                  -5.907870049      -0.6471123309     0.07073231008     -0.07973851609    
595008370         -0.1072478524     0.1401326088      2.230219722       5.429157101       
                  2.230219722       5.429157101       -0.08366617769    -0.01205612628    
680008280         0.2044918605      0.03381771936     3.664655284       -4.578066396      
                  3.664655284       -4.578066396      0.09225257289     0.07520021113     
765008190         0.009338075129    -0.1636648375     -5.735204834      -1.102967286      
                  -5.735204834      -1.102967286      0.06012404837     -0.06062053604    
850008100         -0.1817895861     0.1116578672      1.871580869       5.525966546       
                  1.871580869       5.525966546       -0.07169712852    0.06536387245     
935008010         0.1458104052      0.1236671604      3.947972356       -4.232838545      
                  3.947972356       -4.232838545      0.1021402993      0.03891437854     
1020007920        0.07568708099     -0.1540873225     -5.592344962      -1.44876326       
                  -5.592344962      -1.44876326       -0.00478284134    -0.0755586519     
1105007830        -0.2254143568     -0.008272611492   1.48552707        5.617745561       
                  1.48552707        5.617745561       -0.06305626253    0.07507219857     
1190007740        0.07147888274     0.140506704       4.197694606       -3.862174676      
                  4.197694606       -3.862174676      0.1243428781      -0.04239218953    
1275007650        0.1645882954      -0.1088171872     -5.471604468      -1.832271083      
                  -5.471604468      -1.832271083      -0.02996638568    -0.08908095865    
1360007560        -0.1635634601     -0.1008650405     1.041052069       5.647002931       
                  1.041052069       5.647002931       -0.005457608743   0.1017983152      
1445007470        0.0001995291886   0.142034122       4.413143348       -3.542705502      
                  4.413143348       -3.542705502      0.14713372        -0.08840792768    
1530007380        0.1846977138      -0.01138545178    -5.308146564      -2.189737915      
                  -5.308146564      -2.189737915      -0.0693379413     -0.06460014968    
1615007290        -0.09425446301    -0.1241504435     0.6200674065      5.604330411       
                  0.6200674065      5.604330411       0.02334444844     0.1420633423      
1700007200        -0.08870768135    0.09740331927     4.669505299       -3.243937447      
                  4.669505299       -3.243937447      0.110995222       -0.1332636046     
1785007110        0.1283946162      0.03200015648     -5.064362391      -2.530615521      
                  -5.064362391      -2.530615521      -0.1318667829     -0.06382327672    
1870007020        -0.02186523555    -0.1362438462     0.2243667694      5.609091315       
                  0.2243667694      5.609091315       0.06585347234     0.1322217081      
1955006930        -0.1071384689     0.02176842171     4.877216186       -2.889129547      
                  4.877216186       -2.889129547      0.08912398807     -0.1938000119     
2040006840        0.08310314674     0.03920541173     -4.829304499      -2.81431723       
                  -4.829304499      -2.81431723       -0.1546466751     -0.04162174615    
2125006750        0.0363338563      -0.09340128445    -0.1935259125     5.63778122        
                  -0.1935259125     5.63778122        0.1309845361      0.1367763543      
2210006660        -0.09259089098    -0.0008226345329  4.974228567       -2.533171563      
                  4.974228567       -2.533171563      0.04802415866     -0.2179776772     
2295006570        0.02960350299     0.03694938845     -4.596301628      -3.143758582      
                  -4.596301628      -3.143758582      -0.186030404      0.01543710633     
2380006480        0.02903295435     -0.05289421252    -0.5569659111     5.575437671       
                  -0.5569659111     5.575437671       0.1670593469      0.1139656095      
2465006390        -0.08820851578    -0.0165654434     5.052637978       -2.215292722      
                  5.052637978       -2.215292722      -0.01974722282    -0.2593398104     
2550006300        0.01167504751     0.001653201036    -4.288580745      -3.484331357      
                  -4.288580745      -3.484331357      -0.1908296245     0.06070564591     
2635006210        0.02583674029     -0.04520461318    -0.8973583914     5.517523077       
                  -0.8973583914     5.517523077       0.2132497658      0.0641827734      
2720006120        -0.08268341012    -0.01090168139    5.12881542        -1.84399229       
                  5.12881542        -1.84399229       -0.09037539883    -0.2643658729     
2805006030        0.01749755567     0.0003418778096   -4.002729934      -3.734316617      
                  -4.002729934      -3.734316617      -0.1631479527     0.123588965       
2890005940        0.02174262848     -0.03642189181    -1.236674084      5.39373233        
                  -1.236674084      5.39373233        0.2318583188      0.00897232295     
2975005850        -0.09516169881    -0.008265805891   5.160433587       -1.386743377      
                  5.160433587       -1.386743377      -0.1624923744     -0.247476013      
3060005760        0.01813321061     0.01030503895     -3.705583438      -4.075773682      
                  -3.705583438      -4.075773682      -0.1191768586     0.1687244485      
3145005670        0.03639063116     -0.04461371661    -1.631566343      5.24204301        
                  -1.631566343      5.24204301        0.2316881172      -0.07143920027    
3230005580        -0.1022298649     -0.03283970373    5.271001166       -0.987256207      
                  5.271001166       -0.987256207      -0.2267330689     -0.2075086958     
3315005490        0.01139505389     0.03194681364     -3.433292208      -4.301007237      
                  -3.433292208      -4.301007237      -0.04579142046    0.2024786248      
3400005400        0.06144017516     -0.02899728333    -1.988337094      5.074716569       
                  -1.988337094      5.074716569       0.2014831972      -0.1451191903     
3485005310        -0.09798089214    -0.06379935782    5.370761554       -0.6174431359     
                  5.370761554       -0.6174431359     -0.2822079321     -0.1295617291     
3570005220        -0.02005443076    0.04937724537     -3.252193455      -4.491929358      
                  -3.252193455      -4.491929358      0.03348848181     0.2109139681      
3655005130        0.0690403314      0.003484667061    -2.185554466      4.941043292       
                  -2.185554466      4.941043292       0.1344975858      -0.2086628542     
3740005040        -0.07739727682    -0.09351658612    5.360482042       -0.2621024843     
                  5.360482042       -0.2621024843     -0.3120207106     -0.0393774175     
3825004950        -0.05889895466    0.03717248554     -2.979236057      -4.626702284      
                  -2.979236057      -4.626702284      0.113295519       0.1755014146      
3910004860        0.06395743901     0.03744732102     -2.605621958      4.719040384       
                  -2.605621958      4.719040384       0.05041677297     -0.2589156128     
3995004770        -0.03123579887    -0.1112230955     5.392206345       0.06110740324     
                  5.392206345       0.06110740324     -0.3052592663     0.06539375144     
4080004680        -0.08494074674    0.008071008793    -2.704017081      -4.798684636      
                  -2.704017081      -4.798684636      0.1904582426      0.1285297646      
4165004590        0.03960262173     0.07026235277     -2.871057365      4.579388869       
                  -2.871057365      4.579388869       -0.04650179177    -0.2716093563     
4250004500        0.01157091014     -0.08840839182    5.480837691       0.3089649915      
                  5.480837691       0.3089649915      -0.2657226983     0.1758106465      
4335004410        -0.1015850419     -0.01971926693    -2.446033009      -4.908500808      
                  -2.446033009      -4.908500808      0.2297582893      0.04460493943     
4420004320        -0.007257976858   0.08366057219     -3.07235271       4.466639034       
                  -3.07235271       4.466639034       -0.1640633623     -0.2505404304     
4505004230        0.03814239458     -0.0571867151     5.430768248       0.4879123528      
                  5.430768248       0.4879123528      -0.1966198598     0.2590472299      
4590004140        -0.100189712      -0.05190663123    -2.182019687      -4.944166553      
                  -2.182019687      -4.944166553      0.2294908494      -0.0576703542     
4675004050        -0.04520838466    0.07092254267     -3.169196688      4.34963846        
                  -3.169196688      4.34963846        -0.2554432084     -0.1913315022     
4760003960        0.05733916934     -0.01635981973    5.280850088       0.7230054731      
                  5.280850088       0.7230054731      -0.08628501747    0.3111437719      
4845003870        -0.07675919412    -0.0686521606     -1.933076072      -4.993766117      
                  -1.933076072      -4.993766117      0.2002493402      -0.1552023588     
4930003780        -0.07634049149    0.0410573916      -3.353664394      4.165080087       
                  -3.353664394      4.165080087       -0.3193234139     -0.09957821723    
5015003690        0.05005548006     0.03727619059     5.153263185       0.9643477522      
                  5.153263185       0.9643477522      0.03538174121     0.3344177259      
5100003600        -0.05200285097    -0.05660520802    -1.76016586       -5.066267106      
                  -1.76016586       -5.066267106      0.1198196325      -0.2293197213     
5185003510        -0.09122396674    0.004562470408    -3.406617446      3.942219677       
                  -3.406617446      3.942219677       -0.3494791416     0.0115471108      
5270003420        0.01498878415     0.07165581125     5.016339909       1.196793441       
                  5.016339909       1.196793441       0.1496586348      0.2995364747      
5355003330        -0.04226083804    -0.02320877622    -1.64574677       -5.125082922      
                  -1.64574677       -5.125082922      -0.00216751159    -0.2789751842     
5440003240        -0.07208480689    -0.03899199319    -3.353636334      3.776948635       
                  -3.353636334      3.776948635       -0.3194039161     0.1322793724      
5525003150        -0.01803565732    0.06100249835     4.999991402       1.310454805       
                  4.999991402       1.310454805       0.2687110444      0.2014678467      
5610003060        -0.03860810626    0.027155332       -1.588294866      -4.96677796       
                  -1.588294866      -4.96677796       -0.1368946276     -0.2674449106     
5695002970        -0.01450076901    -0.04309919689    -3.352741015      3.558520151       
                  -3.352741015      3.558520151       -0.2211033344     0.2530216397      
5780002880        -0.0257777521     0.02425191847     4.950909554       1.404487138       
                  4.950909554       1.404487138       0.3293755872      0.05791206551     
5865002790        -0.07631314707    0.07538984237     -1.489204033      -4.705517177      
                  -1.489204033      -4.705517177      -0.2723085264     -0.1853505118     
5950002700        0.03582833608     0.004893970542    -3.388219089      3.350837297       
                  -3.388219089      3.350837297       -0.0828379946     0.3329396076      
6035002610        -0.01882910098    -0.03826920543    4.737734782       1.301250688       
                  4.737734782       1.301250688       0.2981865919      -0.09754523188    
6120002520        -0.1440183347     0.0731512531      -1.37173218       -4.448789659      
                  -1.37173218       -4.448789659      -0.3581861807     -0.04541781923    
6205002430        0.07054662673     0.0876866272      -3.276202398      3.145635881       
                  -3.276202398      3.145635881       0.1018169038      0.337376104       
6290002340        0.05985347794     -0.09018350476    4.512105523       1.164296176       
                  4.512105523       1.164296176       0.194795681       -0.2477446872     
6375002250        -0.2143682152     0.008448214327    -1.272213074      -4.155083556      
                  -1.272213074      -4.155083556      -0.3763603547     0.13004071        
6460002160        0.0292781157      0.2054604924      -3.031460223      2.94721288        
                  -3.031460223      2.94721288        0.2708164898      0.2721861899      
6545002070        0.1758684929      -0.05938948008    4.110447667       1.067531442       
                  4.110447667       1.067531442       0.02863118763     -0.3202319737     
6630001980        -0.206416271      -0.1105295512     -1.12784357       -3.850287888      
                  -1.12784357       -3.850287888      -0.2986645645     0.3022048536      
6715001890        -0.07188391844    0.274082504       -2.730163084      2.62926453        
                  -2.730163084      2.62926453        0.3841290062      0.1561432863      
6800001800        0.2651176884      0.05569339816     3.625001537       1.126350848       
                  3.625001537       1.126350848       -0.1314139954     -0.3086410737     
6885001710        -0.1025949493     -0.2402443741     -0.8151806011     -3.502359115      
                  -0.8151806011     -3.502359115      -0.1881171113     0.3878726485      
6970001620        -0.2092043651     0.2330155644      -2.64090516       2.222445716       
                  -2.64090516       2.222445716       0.4230397317      0.02305898786     
7055001530        0.262569981       0.2073950187      3.221070631       1.243800673       
                  3.221070631       1.243800673       -0.2571154033     -0.271265678      
7140001440        0.08187566243     -0.2991642359     -0.5377086091     -3.229116537      
                  -0.5377086091     -3.229116537      -0.06348900767    0.45402911        
7225001350        -0.2963094232     0.09617058869     -2.580125656      1.895833504       
                  -2.580125656      1.895833504       0.4527479371      -0.1039290906     
7310001260        0.1695277687      0.3472176236      2.864060705       1.16387232        
                  2.864060705       1.16387232        -0.3586609209     -0.1851965667     
7395001170        0.2851570325      -0.2268458256     -0.2440382975     -2.965863014      
                  -0.2440382975     -2.965863014      0.07728953812     0.4820807564      
7480001080        -0.2984577335     -0.1107669374     -2.415405018      1.609954036       
                  -2.415405018      1.609954036       0.3945869915      -0.237115876      
7565000990        -0.03160690567    0.3996749728      2.614662486       1.165991818       
                  2.614662486       1.165991818       -0.4245692416     -0.08438032761    
7650000900        0.4006358636      -0.05635587709    -0.05259999459    -2.609730417      
                  -0.05259999459    -2.609730417      0.2131111032      0.4383635966      
7735000810        -0.1607528611     -0.3065513845     -2.297878026      1.344723992       
                  -2.297878026      1.344723992       0.3173149638      -0.3465695439     
7820000720        -0.2071241128     0.3167521182      2.276469551       1.242732586       
                  2.276469551       1.242732586       -0.4059757343     0.02604019601     
7905000630        0.4140521727      0.1389814059      0.09787224689     -2.300298134      
                  0.09787224689     -2.300298134      0.3243691387      0.3623919326      
7990000540        0.06661699611     -0.3905384226     -2.215545421      0.9237174052      
                  -2.215545421      0.9237174052      0.221608289       -0.407078023      
8075000450        -0.3503859078     0.119820578       1.906020793       1.434972136       
                  1.906020793       1.434972136       -0.3879866096     0.1192143057      
8160000360        0.2969803099      0.3136609305      0.2562796774      -2.189663708      
                  0.2562796774      -2.189663708      0.3994342548      0.2795641504      
8245000270        0.2574990745      -0.3366365569     -2.039833243      0.6124131249      
                  -2.039833243      0.6124131249      0.1132243726      -0.4438176148     
8330000180        -0.3663849667     -0.1328463917     1.63714741        1.50053373        
                  1.63714741        1.50053373        -0.3430462972     0.1937681601      
8415000090        0.07839948736     0.3928497937      0.3858669334      -1.997418766      
                  0.3858669334      -1.997418766      0.4356465448      0.1675438442      
8500000000        0.382740801       -0.1858549652     -1.831749244      0.4455160943      
                  -1.831749244      0.4455160943      -0.004798132135   -0.4602945554     
