! RsaToolbox (C) 2013 Rohde & Schwarz America
! 
! Number of points: 101
! Number of ports: 2
! Balanced ports?: 0
! 
! 
# Hz S RI R 50
9000              0.9964563123      -0.01387288906    7.839178058e-05   -2.273712403e-05  
                  7.839178058e-05   -2.273712403e-05  1.006959823       -0.0204031479     
85008910          -0.003292862555   0.1453251545      3.136955677       5.357584819       
                  3.136955677       5.357584819       -0.09242889106    -0.116238974      
170008820         0.132526587       -0.03495991835    3.118656242       -5.124912894      
                  3.118656242       -5.124912894      -0.02088034959    0.1718827035      
255008730         -0.1667939713     -0.07201709987    -5.968291324      -0.1462467539     
                  -5.968291324      -0.1462467539     0.07774213283     -0.02664132661    
340008640         -0.06329026137    0.1586893959      2.625208307       5.262269201       
                  2.625208307       5.262269201       -0.1269224489     -0.05416020101    
425008550         0.1493740961      -0.04335730587    3.315420808       -4.810495307      
                  3.315420808       -4.810495307      0.01634474787     0.1030092973      
510008460         -0.09542815612    -0.1557280162     -5.824273369      -0.6017310447     
                  -5.824273369      -0.6017310447     0.0709203574      -0.07978577354    
595008370         -0.1020237551     0.1299823457      2.222185932       5.330139874       
                  2.222185932       5.330139874       -0.08404740771    -0.01227922684    
680008280         0.194949411       0.03259819478     3.578613769       -4.54393835       
                  3.578613769       -4.54393835       0.09214686996     0.07559735229     
765008190         0.01185843068     -0.1528230575     -5.651394034      -1.048682901      
                  -5.651394034      -1.048682901      0.06032012776     -0.06074677353    
850008100         -0.1742060709     0.1059702584      1.901496534       5.431636431       
                  1.901496534       5.431636431       -0.07199952506    0.06501976908     
935008010         0.1372219963      0.1175923423      3.856280853       -4.205508386      
                  3.856280853       -4.205508386      0.1021351193      0.03894746425     
1020007920        0.07259577557     -0.1436384437     -5.517304872      -1.382306717      
                  -5.517304872      -1.382306717      -0.004891879188   -0.07593886713    
1105007830        -0.216252106      -0.009446992181   1.53868296        5.514843576       
                  1.53868296        5.514843576       -0.06339926369    0.07530755723     
1190007740        0.06642909341     0.1299972167      4.097524185       -3.829276036      
                  4.097524185       -3.829276036      0.1243049169      -0.04237668702    
1275007650        0.1571781622      -0.1012688217     -5.410378838      -1.735510625      
                  -5.410378838      -1.735510625      -0.03016591909    -0.08922254259    
1360007560        -0.1540407504     -0.09603997341    1.104949094       5.54374105        
                  1.104949094       5.54374105        -0.005776825682   0.1020860398      
1445007470        0.001453905145    0.1294282879      4.299685633       -3.528249944      
                  4.299685633       -3.528249944      0.1473323382      -0.08836393435    
1530007380        0.1727379193      -0.008418628706   -5.255464127      -2.064680385      
                  -5.255464127      -2.064680385      -0.06954662285    -0.06476228109    
1615007290        -0.08567939801    -0.1105829264     0.7037631553      5.477314438       
                  0.7037631553      5.477314438       0.02292297245     0.1424858745      
1700007200        -0.0797712532     0.08524077197     4.524686716       -3.259105466      
                  4.524686716       -3.259105466      0.1109890331      -0.1335880645     
1785007110        0.112439107       0.02709239876     -5.006499307      -2.384134704      
                  -5.006499307      -2.384134704      -0.1323071274     -0.06425127514    
1870007020        -0.02124758264    -0.1178592465     0.3314307358      5.481165881       
                  0.3314307358      5.481165881       0.06553919948     0.1324674107      
1955006930        -0.0906493966     0.01467709247     4.709433986       -2.930747937      
                  4.709433986       -2.930747937      0.08941021884     -0.1940717334     
2040006840        0.06850076295     0.02410496989     -4.773509642      -2.636754126      
                  -4.773509642      -2.636754126      -0.1552583012     -0.04182715675    
2125006750        0.02664071404     -0.07495470594    -0.04854302225    5.504863406       
                  -0.04854302225    5.504863406       0.130897909       0.1371920964      
2210006660        -0.06985837914    0.001685112449    4.770920219       -2.600543088      
                  4.770920219       -2.600543088      0.04802060409     -0.2184517889     
2295006570        0.02301861361     0.01265320934     -4.544181407      -2.927272451      
                  -4.544181407      -2.927272451      -0.186658197      0.01511913382     
2380006480        0.007488912797    -0.03832479686    -0.3784800669     5.420789847       
                  -0.3784800669     5.420789847       0.166903929       0.1141460062      
2465006390        -0.06454411482    -0.0005646335956  4.81139126        -2.309974798      
                  4.81139126        -2.309974798      -0.01955934987    -0.2601641842     
2550006300        0.01680268035     -0.02728894697    -4.235913203      -3.238041799      
                  -4.235913203      -3.238041799      -0.1914654457     0.0604769976      
2635006210        -0.007095864414   -0.04211456928    -0.6414335719     5.336594363       
                  -0.6414335719     5.336594363       0.2136893425      0.064255166       
2720006120        -0.0661960948     0.01834158708     4.859615071       -1.965922928      
                  4.859615071       -1.965922928      -0.09062457026    -0.2651667227     
2805006030        0.03876046193     -0.02667610552    -3.971803343      -3.424964282      
                  -3.971803343      -3.424964282      -0.1634827303     0.1231576425      
2890005940        -0.0171451359     -0.05359117258    -0.898814985      5.179239113       
                  -0.898814985      5.179239113       0.2324676156      0.008953876421    
2975005850        -0.09267657947    0.03171246281     4.854759618       -1.533721008      
                  4.854759618       -1.533721008      -0.1622980133     -0.2484119819     
3060005760        0.05495020169     -0.005315266014   -3.704123123      -3.705947907      
                  -3.704123123      -3.705947907      -0.1191951407     0.1686056585      
3145005670        0.006531839119    -0.07749977905    -1.268037331      5.031451942       
                  -1.268037331      5.031451942       0.2322995494      -0.07163949547    
3230005580        -0.1180925341     0.005859042419    4.94564174        -1.165171333      
                  4.94564174        -1.165171333      -0.2271472636     -0.2083104703     
3315005490        0.05982558078     0.03712909475     -3.477720571      -3.832973488      
                  -3.477720571      -3.832973488      -0.04603903288    0.2028293571      
3400005400        0.04716374395     -0.08277725685    -1.515464165      4.845874644       
                  -1.515464165      4.845874644       0.2022463618      -0.1450614459     
3485005310        -0.1402677604     -0.0301419522     4.962098152       -0.8930810744     
                  4.962098152       -0.8930810744     -0.282098051      -0.130270975      
3570005220        0.03273008329     0.0847198916      -3.331989155      -3.877032361      
                  -3.331989155      -3.877032361      0.03360981033     0.2111233389      
3655005130        0.08205532293     -0.06283328405    -1.604246403      4.672781334       
                  -1.604246403      4.672781334       0.1355331553      -0.2087157292     
3740005040        -0.1410227218     -0.08085057669    4.871831874       -0.6418138171     
                  4.871831874       -0.6418138171     -0.3118472549     -0.03994037914    
3825004950        -0.01943701783    0.1091798802      -3.09515948       -3.824881999      
                  -3.09515948       -3.824881999      0.113877381       0.1769466801      
3910004860        0.1176762424      -0.02942777885    -1.854959707      4.426624774       
                  -1.854959707      4.426624774       0.05145745378     -0.259071796      
3995004770        -0.1134276292     -0.1353808412     4.737127007       -0.4686007028     
                  4.737127007       -0.4686007028     -0.305436854      0.06534963568     
4080004680        -0.08032082477    0.1076188408      -2.823178853      -3.84380144       
                  -2.823178853      -3.84380144       0.1916750195      0.1286419195      
4165004590        0.1261627022      0.02709267974     -2.048609672      4.247573183       
                  -2.048609672      4.247573183       -0.04588253305    -0.2725772327     
4250004500        -0.06341509506    -0.1552385194     4.694689692       -0.2848464845     
                  4.694689692       -0.2848464845     -0.2656302843     0.1759424034      
4335004410        -0.1424040492     0.08177949898     -2.573306894      -3.858520381      
                  -2.573306894      -3.858520381      0.2307727425      0.04480920724     
4420004320        0.1001220901      0.08073960695     -2.130568215      4.087304952       
                  -2.130568215      4.087304952       -0.1636406556     -0.2513830748     
4505004230        -0.006776800076   -0.1588393773     4.540819212       -0.1727489891     
                  4.540819212       -0.1727489891     -0.196954799      0.2592982919      
4590004140        -0.1843635761     0.02899869232     -2.321386552      -3.808588275      
                  -2.321386552      -3.808588275      0.2300545459      -0.0574562041     
4675004050        0.06069811194     0.1175259229      -2.134052445      3.896397014       
                  -2.134052445      3.896397014       -0.2556442062     -0.1917452804     
4760003960        0.06041114916     -0.1343516165     4.354343173       0.02082037339     
                  4.354343173       0.02082037339     -0.08701913535    0.3115879812      
4845003870        -0.1902781177     -0.0285015387     -2.075716479      -3.771497908      
                  -2.075716479      -3.771497908      0.2007199166      -0.1548131747     
4930003780        0.001856035208    0.1357966099      -2.232471001      3.652043044       
                  -2.232471001      3.652043044       -0.3201419386     -0.1000827138     
5015003690        0.1055580204      -0.07600265358    4.186586778       0.2248700812      
                  4.186586778       0.2248700812      0.03524704318     0.3352970621      
5100003600        -0.1775702331     -0.07153167549    -1.895560149      -3.703339977      
                  -1.895560149      -3.703339977      0.1197929082      -0.2294585517     
5185003510        -0.05966222879    0.1273130719      -2.26814897       3.388347588       
                  -2.26814897       3.388347588       -0.3503702417     0.01098615424     
5270003420        0.1137249963      -0.01055714616    4.023938671       0.4444858746      
                  4.023938671       0.4444858746      0.1493306437      0.3005271814      
5355003330        -0.1512696963     -0.09552425603    -1.764317619      -3.636118378      
                  -1.764317619      -3.636118378      -0.001986616557   -0.2796386284     
5440003240        -0.09414070288    0.08558838426     -2.266438778      3.210632628       
                  -2.266438778      3.210632628       -0.3202734149     0.1318403704      
5525003150        0.1040893462      0.02993299477     3.939294867       0.545633636       
                  3.939294867       0.545633636       0.2690772592      0.2020706279      
5610003060        -0.1031542963     -0.08415202192    -1.657259855      -3.528747196      
                  -1.657259855      -3.528747196      -0.1364747616     -0.2683984423     
5695002970        -0.08640242101    0.06032182289     -2.277347442      2.989342964       
                  -2.277347442      2.989342964       -0.2219161369     0.2529011257      
5780002880        0.09577664701     0.05219389775     3.812454156       0.6280984999      
                  3.812454156       0.6280984999      0.3299569311      0.0586214473      
5865002790        -0.08608615397    -0.04961595584    -1.492979437      -3.387940051      
                  -1.492979437      -3.387940051      -0.2719912426     -0.1860475566     
5950002700        -0.06977094491    0.06639951673     -2.305486593      2.788203946       
                  -2.305486593      2.788203946       -0.08323229974    0.3335552905      
6035002610        0.07450305329     0.0403895379      3.594582659       0.6133226619      
                  3.594582659       0.6133226619      0.2995224467      -0.09686130909    
6120002520        -0.09946214417    -0.03977955784    -1.330586933      -3.242666829      
                  -1.330586933      -3.242666829      -0.3583337625     -0.04608051142    
6205002430        -0.04599691445    0.09486275012     -2.260484189      2.617373672       
                  -2.260484189      2.617373672       0.1022767987      0.3383467391      
6290002340        0.1052550104      0.01768930424     3.417971576       0.5919898346      
                  3.417971576       0.5919898346      0.1962170351      -0.2480041865     
6375002250        -0.1325714495     -0.0716460285     -1.199238279      -3.105291349      
                  -1.199238279      -3.105291349      -0.3762631743     0.1291930724      
6460002160        -0.06922098135    0.1656271845      -2.161346894      2.460892243       
                  -2.161346894      2.460892243       0.2712174275      0.2728993264      
6545002070        0.1696252347      0.04843506199     3.163640754       0.5989308395      
                  3.163640754       0.5989308395      0.02952424013     -0.3205925929     
6630001980        -0.1068308347     -0.1457708343     -1.049583737      -2.935673602      
                  -1.049583737      -2.935673602      -0.2992160161     0.3024097396      
6715001890        -0.1374455717     0.2040397978      -2.016913275      2.207445125       
                  -2.016913275      2.207445125       0.3843633033      0.1569132985      
6800001800        0.2194666001      0.1393290973      2.86532522        0.7034971265      
                  2.86532522        0.7034971265      -0.1311347577     -0.309141351      
6885001710        -0.009031212682   -0.2291604914     -0.7811595119     -2.738745743      
                  -0.7811595119     -2.738745743      -0.1886412926     0.3885678401      
6970001620        -0.2360862893     0.1522911509      -2.040089385      1.902619476       
                  -2.040089385      1.902619476       0.4238182681      0.02421062196     
7055001530        0.1992252631      0.2550243493      2.648936764       0.8644669077      
                  2.648936764       0.8644669077      -0.2572573791     -0.2716909448     
7140001440        0.1405762797      -0.2605301148     -0.5510395772     -2.669943767      
                  -0.5510395772     -2.669943767      -0.06388526249    0.4546344432      
7225001350        -0.2897261254     0.02642443265     -2.092666773      1.671343212       
                  -2.092666773      1.671343212       0.4531296146      -0.1028776396     
7310001260        0.1134512532      0.3585568335      2.463593197       0.891656518       
                  2.463593197       0.891656518       -0.3591797398     -0.1852865146     
7395001170        0.3136725206      -0.1766924986     -0.2899991331     -2.517848671      
                  -0.2899991331     -2.517848671      0.07664885019     0.4828610221      
7480001080        -0.2644471372     -0.1652148977     -1.996229187      1.419740717       
                  -1.996229187      1.419740717       0.3951833642      -0.2369310276     
7565000990        -0.08578401126    0.3870505452      2.246454668       0.9236435655      
                  2.246454668       0.9236435655      -0.4257514293     -0.08476801748    
7650000900        0.4043647901      -0.01340256475    -0.1008787515     -2.301389253      
                  -0.1008787515     -2.301389253      0.2124393707      0.4396455358      
7735000810        -0.126751334      -0.3265086724     -2.027481239      1.229337261       
                  -2.027481239      1.229337261       0.3177329054      -0.3464120118     
7820000720        -0.2387887034     0.2941097315      2.041684556       1.073015523       
                  2.041684556       1.073015523       -0.4070481699     0.02458857666     
7905000630        0.4042820205      0.1664119093      0.06174702895     -2.099578173      
                  0.06174702895     -2.099578173      0.3241937788      0.3632624087      
7990000540        0.09837431373     -0.3928582611     -1.991548893      0.8510860704      
                  -1.991548893      0.8510860704      0.2219628425      -0.4078970876     
8075000450        -0.365189684      0.09086504094     1.735109578       1.288218441       
                  1.735109578       1.288218441       -0.3889106752     0.1186311963      
8160000360        0.2784034019      0.3330467914      0.214272908       -2.00968848       
                  0.214272908       -2.00968848       0.3995506708      0.2805967837      
8245000270        0.2783962588      -0.3276820228     -1.888511608      0.5858582047      
                  -1.888511608      0.5858582047      0.1145684925      -0.4448817431     
8330000180        -0.3647724515     -0.1570215539     1.52329937        1.377683346       
                  1.52329937        1.377683346       -0.3438511369     0.1932039766      
8415000090        0.05792099206     0.3999629677      0.3478059093      -1.863737321      
                  0.3478059093      -1.863737321      0.4365582776      0.1675238096      
8500000000        0.3937044379      -0.1732257777     -1.730722467      0.4311765233      
                  -1.730722467      0.4311765233      -0.004019336858   -0.4615746507     
