! RsaToolbox (C) 2013 Rohde & Schwarz America
! 
! Number of points: 101
! Number of ports: 2
! Balanced ports?: 0
! 
! 
# Hz S RI R 50
9000              1.008970962       -0.02776599871    2.682298791e-05   3.21530165e-05    
                  2.682298791e-05   3.21530165e-05    1.027098638       -0.03949746889    
85008910          0.002970737706    0.159595174       3.191401529       5.530169907       
                  3.191401529       5.530169907       -0.09207200963    -0.1161832672     
170008820         0.1426986042      -0.04473023822    3.199611252       -5.227543961      
                  3.199611252       -5.227543961      -0.01969355545    0.1714480097      
255008730         -0.17647648       -0.07601188294    -6.065232868      -0.177369083      
                  -6.065232868      -0.177369083      0.07785154727     -0.02592524673    
340008640         -0.0632676059     0.1704206309      2.646920137       5.3637596         
                  2.646920137       5.3637596         -0.1263008319     -0.05387044953    
425008550         0.1596108568      -0.04624122722    3.399377758       -4.868529805      
                  3.399377758       -4.868529805      0.01650340708     0.1039934352      
510008460         -0.1014621378     -0.1636238537     -5.910831499      -0.6574362256     
                  -5.910831499      -0.6574362256     0.07167679746     -0.07908531899    
595008370         -0.1072653924     0.1402529665      2.222569444       5.437937423       
                  2.222569444       5.437937423       -0.08358475875    -0.01218917229    
680008280         0.2047672351      0.03430002705     3.675676991       -4.574344007      
                  3.675676991       -4.574344007      0.09186137672     0.07482911402     
765008190         0.009739214604    -0.1641536784     -5.736471803      -1.111905478      
                  -5.736471803      -1.111905478      0.0602919896      -0.06057405223    
850008100         -0.1819902585     0.1117877473      1.862470576       5.533219556       
                  1.862470576       5.533219556       -0.07133377566    0.06529304701     
935008010         0.1462171311      0.1237734911      3.961089341       -4.227295423      
                  3.961089341       -4.227295423      0.1011715954      0.03889795915     
1020007920        0.07507213241     -0.1540597462     -5.595728134      -1.453333764      
                  -5.595728134      -1.453333764      -0.004203191133   -0.07478341677    
1105007830        -0.2263708811     -0.008287368794   1.472082891       5.624877018       
                  1.472082891       5.624877018       -0.06357654568    0.07505094464     
1190007740        0.0714016588      0.1413518296      4.210706942       -3.853782815      
                  4.210706942       -3.853782815      0.1252525089      -0.04303160057    
1275007650        0.1644145911      -0.108977835      -5.473832015      -1.84520475       
                  -5.473832015      -1.84520475       -0.0297192512     -0.0889843242     
1360007560        -0.1643609448     -0.1001208541     1.041344102       5.65500784        
                  1.041344102       5.65500784        -0.005743411196   0.1017669903      
1445007470        0.0001395749881   0.1423556329      4.421121952       -3.542502375      
                  4.421121952       -3.542502375      0.1472054516      -0.08870063873    
1530007380        0.1856512891      -0.01213866883    -5.311116768      -2.192351343      
                  -5.311116768      -2.192351343      -0.06887908949    -0.0636563603     
1615007290        -0.09462316776    -0.1244726461     0.6143600549      5.610124304       
                  0.6143600549      5.610124304       0.02393695183     0.142278136       
1700007200        -0.08861956098    0.09760707665     4.674512816       -3.243387201      
                  4.674512816       -3.243387201      0.111561314       -0.133276176      
1785007110        0.128582334       0.03236618842     -5.069974309      -2.537423362      
                  -5.069974309      -2.537423362      -0.1314173347     -0.06411573076    
1870007020        -0.02193234769    -0.1360985553     0.2191102828      5.616622956       
                  0.2191102828      5.616622956       0.06645539996     0.1316783879      
1955006930        -0.1081853657     0.02225775577     4.884499156       -2.885930792      
                  4.884499156       -2.885930792      0.08927498244     -0.1940661722     
2040006840        0.08365426291     0.03945117441     -4.830177819      -2.823406818      
                  -4.830177819      -2.823406818      -0.1543751112     -0.04128336343    
2125006750        0.03671978064     -0.09328369285    -0.1973453226     5.642411291       
                  -0.1973453226     5.642411291       0.130726011       0.1369096203      
2210006660        -0.09307662477    -0.001108614158   4.980229801       -2.529679766      
                  4.980229801       -2.529679766      0.04749791586     -0.2174901928     
2295006570        0.02977604142     0.03810491303     -4.596562044      -3.152341514      
                  -4.596562044      -3.152341514      -0.1862802501     0.01513764016     
2380006480        0.02917640856     -0.05298774743    -0.5639771893     5.581721327       
                  -0.5639771893     5.581721327       0.1674550547      0.1141225094      
2465006390        -0.08836016768    -0.01714795154    5.060907318       -2.211948002      
                  5.060907318       -2.211948002      -0.01987945245    -0.258773524      
2550006300        0.01202890936     0.002285045432    -4.291308954      -3.49108793       
                  -4.291308954      -3.49108793       -0.1913694928     0.06132040069     
2635006210        0.0266016899      -0.04473332763    -0.9043435392     5.522266065       
                  -0.9043435392     5.522266065       0.2135260552      0.06480822577     
2720006120        -0.08344476407    -0.01109413869    5.135263132       -1.842419655      
                  5.135263132       -1.842419655      -0.09119703487    -0.2649570476     
2805006030        0.01728357246     0.0006808980886   -4.00399881       -3.739977092      
                  -4.00399881       -3.739977092      -0.1629680022     0.1224902951      
2890005940        0.02250433213     -0.03709424695    -1.247301305      5.400450113       
                  -1.247301305      5.400450113       0.2313357616      0.009644854833    
2975005850        -0.09489345655    -0.008934158224   5.16764847        -1.384108246      
                  5.16764847        -1.384108246      -0.1628925265     -0.2473060752     
3060005760        0.01819493813     0.01115801214     -3.707692631      -4.084648175      
                  -3.707692631      -4.084648175      -0.1183987128     0.1687848221      
3145005670        0.03716696299     -0.04443094105    -1.640115867      5.245275352       
                  -1.640115867      5.245275352       0.2311165574      -0.07207873561    
3230005580        -0.1017223746     -0.03356197147    5.279783703       -0.9863856468     
                  5.279783703       -0.9863856468     -0.2271591527     -0.2079045165     
3315005490        0.01140752799     0.03137033848     -3.433553955      -4.30724798       
                  -3.433553955      -4.30724798       -0.04635708368    0.2028812611      
3400005400        0.06170931888     -0.02885925015    -1.998282212      5.082965374       
                  -1.998282212      5.082965374       0.2006419503      -0.1445530734     
3485005310        -0.0971311022     -0.0635957116     5.37862982        -0.6152597362     
                  5.37862982        -0.6152597362     -0.2821322211     -0.1300146561     
3570005220        -0.02152323165    0.04826247421     -3.256288525      -4.499788141      
                  -3.256288525      -4.499788141      0.03367968341     0.2097241679      
3655005130        0.06942639611     0.003865422422    -2.193217722      4.951499733       
                  -2.193217722      4.951499733       0.1347531773      -0.2090409348     
3740005040        -0.0775545128     -0.09326119692    5.372449243       -0.2580956457     
                  5.372449243       -0.2580956457     -0.3117558079     -0.03946696573    
3825004950        -0.05902469428    0.03636128236     -2.979629777      -4.63999166       
                  -2.979629777      -4.63999166       0.1127300893      0.1758385222      
3910004860        0.06327007081     0.03771204128     -2.61505199       4.726044638       
                  -2.61505199       4.726044638       0.04977319936     -0.2586770812     
3995004770        -0.0307439621     -0.111531871      5.403550932       0.06808375508     
                  5.403550932       0.06808375508     -0.3053692018     0.06449923449     
4080004680        -0.08508023915    0.008432951309    -2.707908898      -4.80973502       
                  -2.707908898      -4.80973502       0.1907528138      0.1280572053      
4165004590        0.03897482201     0.07102094828     -2.876266123      4.589338083       
                  -2.876266123      4.589338083       -0.04654308706    -0.2711862825     
4250004500        0.01196435501     -0.08753942544    5.493832473       0.3074434999      
                  5.493832473       0.3074434999      -0.2660426572     0.1754707793      
4335004410        -0.1007520102     -0.02086024331    -2.452619443      -4.920812258      
                  -2.452619443      -4.920812258      0.2297634789      0.04425111707     
4420004320        -0.007662293061   0.08377363284     -3.077454079      4.480076235       
                  -3.077454079      4.480076235       -0.1647040534     -0.2509642595     
4505004230        0.03751938395     -0.05684627903    5.448912523       0.4897449441      
                  5.448912523       0.4897449441      -0.19669474       0.2591773794      
4590004140        -0.09935772009    -0.05149731173    -2.187929987      -4.959847437      
                  -2.187929987      -4.959847437      0.2287941339      -0.05773967621    
4675004050        -0.04519668946    0.0694946472      -3.177604885      4.363030495       
                  -3.177604885      4.363030495       -0.2542226239     -0.1913391413     
4760003960        0.05706218574     -0.016807002      5.297311148       0.7253307921      
                  5.297311148       0.7253307921      -0.08528042309    0.3109317359      
4845003870        -0.07600196991    -0.06787247229    -1.93905536       -5.011348149      
                  -1.93905536       -5.011348149      0.1991899188      -0.1546484435     
4930003780        -0.07586545357    0.03983897554     -3.364236212      4.179670268       
                  -3.364236212      4.179670268       -0.3198326478     -0.0990342156     
5015003690        0.0492763259      0.03783719537     5.176176182       0.9605613553      
                  5.176176182       0.9605613553      0.03567117229     0.334545617       
5100003600        -0.05109244374    -0.05562494185    -1.769050181      -5.086438825      
                  -1.769050181      -5.086438825      0.1187933145      -0.2289846172     
5185003510        -0.09085622123    0.003897560249    -3.421582177      3.960454506       
                  -3.421582177      3.960454506       -0.349186467      0.01140208211     
5270003420        0.01436270182     0.072056494       5.03856233        1.20031124        
                  5.03856233        1.20031124        0.150021605       0.29939153        
5355003330        -0.04196470807    -0.02256517251    -1.65362211       -5.148673673      
                  -1.65362211       -5.148673673      -0.002412658252   -0.2790471243     
5440003240        -0.07121417483    -0.03928249023    -3.367282326      3.791293872       
                  -3.367282326      3.791293872       -0.3187558822     0.1323797351      
5525003150        -0.01851594994    0.06011662843     5.023521988       1.315031888       
                  5.023521988       1.315031888       0.2692671225      0.2013371676      
5610003060        -0.03982768357    0.02894319444     -1.604679394      -4.987231829      
                  -1.604679394      -4.987231829      -0.1370921134     -0.2672453001     
5695002970        -0.01345309025    -0.04308499509    -3.367860962      3.576332667       
                  -3.367860962      3.576332667       -0.2217427825     0.2525726637      
5780002880        -0.0262873697     0.02298301019     4.976440104       1.409930131       
                  4.976440104       1.409930131       0.3290347979      0.05799326278     
5865002790        -0.07735935769    0.07673779804     -1.497529311      -4.724318371      
                  -1.497529311      -4.724318371      -0.2721668095     -0.1846400329     
5950002700        0.03719926972     0.005487832551    -3.398915933      3.366128534       
                  -3.398915933      3.366128534       -0.0825986873     0.3331421809      
6035002610        -0.01868328712    -0.03996198039    4.758491768       1.300359937       
                  4.758491768       1.300359937       0.2984119934      -0.09742131613    
6120002520        -0.1460872889     0.07340845269     -1.387327956      -4.469349231      
                  -1.387327956      -4.469349231      -0.357820691      -0.0457900483     
6205002430        0.07212987906     0.08773103866     -3.288535905      3.169980721       
                  -3.288535905      3.169980721       0.1027999819      0.3370681959      
6290002340        0.06003474571     -0.09242118089    4.5388248         1.158298339       
                  4.5388248         1.158298339       0.1940540988      -0.248181152      
6375002250        -0.21628521       0.009040264971    -1.286737524      -4.165226213      
                  -1.286737524      -4.165226213      -0.376402495      0.1298133239      
6460002160        0.02834705043     0.2061933981      -3.019956117      2.949994031       
                  -3.019956117      2.949994031       0.2686115319      0.2719641279      
6545002070        0.1742062309      -0.05817292276    4.097036236       1.062973639       
                  4.097036236       1.062973639       0.0286880084      -0.3177564556     
6630001980        -0.2066766284     -0.110053662      -1.124964767      -3.832034439      
                  -1.124964767      -3.832034439      -0.2977669735     0.2998967616      
6715001890        -0.07126717477    0.2724054976      -2.705332906      2.626003484       
                  -2.705332906      2.626003484       0.3790217433      0.152261177       
6800001800        0.2659448826      0.05021739004     3.620815243       1.091608227       
                  3.620815243       1.091608227       -0.1315469766     -0.3074619665     
6885001710        -0.1036224371     -0.2408263905     -0.8591043371     -3.484929383      
                  -0.8591043371     -3.484929383      -0.1843648046     0.3828319403      
6970001620        -0.206075264      0.2329688715      -2.618640277      2.242851486       
                  -2.618640277      2.242851486       0.4205657724      0.02015245673     
7055001530        0.262437918       0.20650208        3.220995195       1.240132122       
                  3.220995195       1.240132122       -0.2561222309     -0.2720272995     
7140001440        0.08115304629     -0.2998897823     -0.5264431138     -3.216219435      
                  -0.5264431138     -3.216219435      -0.06616942581    0.4473451748      
7225001350        -0.2941821751     0.09122641786     -2.556760198      1.87749875        
                  -2.556760198      1.87749875        0.4472746103      -0.1052385432     
7310001260        0.1733208645      0.3389914278      2.840281481       1.135478283       
                  2.840281481       1.135478283       -0.3523923563     -0.1857408839     
7395001170        0.2846404049      -0.2289815023     -0.2695476368     -2.946007984      
                  -0.2695476368     -2.946007984      0.08371508007     0.4777271283      
7480001080        -0.2985697129     -0.1074969577     -2.405593122      1.632084291       
                  -2.405593122      1.632084291       0.3943989762      -0.2378892142     
7565000990        -0.03070412283    0.4026261899      2.630674161       1.163361824       
                  2.630674161       1.163361824       -0.4259884202     -0.084015935      
7650000900        0.4008516806      -0.05624035402    -0.05135416625    -2.618197467      
                  -0.05135416625    -2.618197467      0.2113350822      0.4390238693      
7735000810        -0.1598716864     -0.3067217739     -2.296834314      1.344949103       
                  -2.296834314      1.344949103       0.317226432       -0.3462737942     
7820000720        -0.2057827075     0.315992686       2.276236504       1.235518776       
                  2.276236504       1.235518776       -0.4043446452     0.02597299482     
7905000630        0.4148825013      0.1383770588      0.09059306114     -2.30247773       
                  0.09059306114     -2.30247773       0.3271489098      0.3621629062      
7990000540        0.06592056323     -0.390897377      -2.2177675        0.9312077588      
                  -2.2177675        0.9312077588      0.2221959288      -0.4063629194     
8075000450        -0.3506423988     0.1199143092      1.908193474       1.433570321       
                  1.908193474       1.433570321       -0.3868682958     0.1179629282      
8160000360        0.2974606106      0.3127248795      0.2507280864      -2.181928539      
                  0.2507280864      -2.181928539      0.3974410618      0.2787758508      
8245000270        0.2559810459      -0.3335052225     -2.023105844      0.615934026       
                  -2.023105844      0.615934026       0.1168860345      -0.4387426093     
8330000180        -0.3612994968     -0.1278919926     1.620209242       1.482219019       
                  1.620209242       1.482219019       -0.3377789844     0.1906132008      
8415000090        0.07692282834     0.3908735833      0.3954565642      -1.98370498       
                  0.3954565642      -1.98370498       0.437667097       0.1688797943      
8500000000        0.3835195377      -0.1818448879     -1.827581282      0.4352746055      
                  -1.827581282      0.4352746055      -0.00125879816    -0.4617918656     
