! RsaToolbox (C) 2013 Rohde & Schwarz America
! 
! Number of points: 101
! Number of ports: 2
! Balanced ports?: 0
! 
! 
# Hz S RI R 50
9000              1.025159587       -0.03000902766    3.202408433e-05   -7.810308466e-05  
                  3.202408433e-05   -7.810308466e-05  1.019485642       -0.03764256872    
85008910          0.002867625436    0.1592645393      3.193590554       5.526581127       
                  3.193590554       5.526581127       -0.09202570663    -0.1159161007     
170008820         0.1420116562      -0.0452421271     3.20304011        -5.228167522      
                  3.20304011        -5.228167522      -0.02029146356    0.1712497439      
255008730         -0.1765185496     -0.07591481949    -6.065379555      -0.1729020008     
                  -6.065379555      -0.1729020008     0.07770204232     -0.0262239529     
340008640         -0.06314207773    0.1701376567      2.653464579       5.362500969       
                  2.653464579       5.362500969       -0.126053836      -0.05348391668    
425008550         0.159713835       -0.04636249849    3.399335512       -4.86917115       
                  3.399335512       -4.86917115       0.01683313947     0.1028974612      
510008460         -0.1019889566     -0.1635626495     -5.912124233      -0.657525401      
                  -5.912124233      -0.657525401      0.07052646633     -0.07936112093    
595008370         -0.107710873      0.1400550545      2.220853795       5.439170211       
                  2.220853795       5.439170211       -0.08342946041    -0.01196700651    
680008280         0.2045880756      0.0342660255      3.678727767       -4.573721508      
                  3.678727767       -4.573721508      0.09277662252     0.07521379225     
765008190         0.009830276562    -0.1641520515     -5.739053621      -1.114493908      
                  -5.739053621      -1.114493908      0.05985427704     -0.060648845      
850008100         -0.1818225648     0.1112706758      1.863306044       5.531045044       
                  1.863306044       5.531045044       -0.07155743274    0.06551897136     
935008010         0.1458733263      0.1241461837      3.956556269       -4.230770108      
                  3.956556269       -4.230770108      0.1018308161      0.04003798156     
1020007920        0.07577374561     -0.1540039175     -5.595098571      -1.458805094      
                  -5.595098571      -1.458805094      -0.004858822755   -0.07457220181    
1105007830        -0.2256226167     -0.008151878624   1.473097879       5.624304349       
                  1.473097879       5.624304349       -0.06273580348    0.07503291536     
1190007740        0.07150263586     0.1406797336      4.201963535       -3.859351723      
                  4.201963535       -3.859351723      0.124249729       -0.04252545036    
1275007650        0.164590404       -0.1091688606     -5.472786337      -1.836657022      
                  -5.472786337      -1.836657022      -0.02969967039    -0.08901258226    
1360007560        -0.1640660767     -0.1008033263     1.036949037       5.650884841       
                  1.036949037       5.650884841       -0.005599248831   0.1014725561      
1445007470        0.0005232626511   0.1424618699      4.423684682       -3.545563975      
                  4.423684682       -3.545563975      0.1469797497      -0.08938994785    
1530007380        0.1850659423      -0.0112484156     -5.308764383      -2.195272139      
                  -5.308764383      -2.195272139      -0.06892300005    -0.06489620169    
1615007290        -0.09445825769    -0.1247209022     0.6109430312      5.610692437       
                  0.6109430312      5.610692437       0.02316180095     0.1416818149      
1700007200        -0.0892099587     0.09761745849     4.679424242       -3.242751541      
                  4.679424242       -3.242751541      0.1107299816      -0.1334044381     
1785007110        0.1286727042      0.03154549007     -5.06640097       -2.536525583      
                  -5.06640097       -2.536525583      -0.1315656515     -0.06411024804    
1870007020        -0.02196989607    -0.1365786534     0.2214341583      5.615339411       
                  0.2214341583      5.615339411       0.06594628389     0.1321620942      
1955006930        -0.1074750798     0.02159718388     4.885360018       -2.886544237      
                  4.885360018       -2.886544237      0.08905066804     -0.1936589563     
2040006840        0.08383182002     0.03907198522     -4.830788767      -2.822700007      
                  -4.830788767      -2.822700007      -0.1545712387     -0.04137464493    
2125006750        0.03610495111     -0.09387045257    -0.1994534131     5.642672009       
                  -0.1994534131     5.642672009       0.1311300927      0.1363405848      
2210006660        -0.09291048522    -0.0006857597234  4.98101873        -2.530784347      
                  4.98101873        -2.530784347      0.04768955692     -0.218758567      
2295006570        0.03025117409     0.03761661707     -4.597439641      -3.15314435       
                  -4.597439641      -3.15314435       -0.1854602131     0.01556502361     
2380006480        0.02968197941     -0.05327753866    -0.5608110899     5.581733263       
                  -0.5608110899     5.581733263       0.1670733517      0.114780326       
2465006390        -0.08921844008    -0.01705425195    5.062750284       -2.211943587      
                  5.062750284       -2.211943587      -0.01970901389    -0.2588008912     
2550006300        0.01199597075     0.001976368678    -4.291111623      -3.49111035       
                  -4.291111623      -3.49111035       -0.1905741169     0.06054187834     
2635006210        0.02611596613     -0.0449711843     -0.9038424737     5.523513702       
                  -0.9038424737     5.523513702       0.212930838       0.06343974124     
2720006120        -0.08326922782    -0.0114956152     5.139503549       -1.8411167        
                  5.139503549       -1.8411167        -0.09069311352    -0.2649173402     
2805006030        0.01736186243     0.0004943293637   -4.00631712       -3.742543221      
                  -4.00631712       -3.742543221      -0.1629109091     0.12300077        
2890005940        0.02248921204     -0.03608844931    -1.242459887      5.400387669       
                  -1.242459887      5.400387669       0.2320412025      0.009045315476    
2975005850        -0.09519406511    -0.008594551954   5.167122548       -1.386183345      
                  5.167122548       -1.386183345      -0.1618656251     -0.247115975      
3060005760        0.0182684468      0.01077574772     -3.709492614      -4.084698311      
                  -3.709492614      -4.084698311      -0.1185963946     0.1686888633      
3145005670        0.03712508099     -0.04433729379    -1.639327021      5.245629441       
                  -1.639327021      5.245629441       0.2310486598      -0.0712225354     
3230005580        -0.1018146458     -0.03395608984    5.278802914       -0.9827803244     
                  5.278802914       -0.9827803244     -0.2276789174     -0.208032538      
3315005490        0.01126397134     0.03149428977     -3.43537597       -4.310618864      
                  -3.43537597       -4.310618864      -0.04671797865    0.2034649587      
3400005400        0.06190677617     -0.02801367342    -1.998001254      5.083394045       
                  -1.998001254      5.083394045       0.2006940082      -0.1449954627     
3485005310        -0.09767287902    -0.064618195      5.377981877       -0.6136076851     
                  5.377981877       -0.6136076851     -0.2819871457     -0.1288608019     
3570005220        -0.02111922977    0.0491934811      -3.254966174      -4.501749818      
                  -3.254966174      -4.501749818      0.03391890587     0.2107834766      
3655005130        0.06904183357     0.004345537616    -2.194565727      4.950591404       
                  -2.194565727      4.950591404       0.1334203739      -0.2097841247     
3740005040        -0.07633548682    -0.09322243563    5.373031517       -0.2609099819     
                  5.373031517       -0.2609099819     -0.3123792939     -0.04003032718    
3825004950        -0.05872217727    0.03755503538     -2.980536607      -4.640955122      
                  -2.980536607      -4.640955122      0.1131521227      0.1747738649      
3910004860        0.06374310301     0.03780361437     -2.614908637      4.727904729       
                  -2.614908637      4.727904729       0.04951258678     -0.2586751166     
3995004770        -0.03068181367    -0.1110044322     5.403369743       0.06715429851     
                  5.403369743       0.06715429851     -0.3054576667     0.06518642187     
4080004680        -0.08448323243    0.007396672079    -2.707458166      -4.809561904      
                  -2.707458166      -4.809561904      0.1903072646      0.1278499031      
4165004590        0.0395218021      0.0703869477      -2.876392116      4.588979439       
                  -2.876392116      4.588979439       -0.04662523164    -0.2713103988     
4250004500        0.01184516726     -0.08814785035    5.49292217        0.3090669929      
                  5.49292217        0.3090669929      -0.2658504522     0.1753162106      
4335004410        -0.1008719167     -0.01970533463    -2.453853685      -4.91795158       
                  -2.453853685      -4.91795158       0.2286608028      0.04491508382     
4420004320        -0.007600146112   0.08396104706     -3.077794588      4.480663564       
                  -3.077794588      4.480663564       -0.1644985812     -0.2507905738     
4505004230        0.03893374365     -0.05709320747    5.449682752       0.491144794       
                  5.449682752       0.491144794       -0.196543519      0.259685271       
4590004140        -0.09931691858    -0.05181450869    -2.184685587      -4.960271718      
                  -2.184685587      -4.960271718      0.229660236       -0.05783549147    
4675004050        -0.04525397461    0.07003315752     -3.180616052      4.362537434       
                  -3.180616052      4.362537434       -0.2552647776     -0.191284895      
4760003960        0.05688593097     -0.01547031303    5.296007828       0.7293780511      
                  5.296007828       0.7293780511      -0.08691936164    0.3116902674      
4845003870        -0.07575777196    -0.06772261801    -1.938291037      -5.012091822      
                  -1.938291037      -5.012091822      0.1994831457      -0.1549436355     
4930003780        -0.07709783772    0.0401672454      -3.365277921      4.179516419       
                  -3.365277921      4.179516419       -0.3196143004     -0.09946207276    
5015003690        0.05025194352     0.03817677166     5.171923571       0.9671473584      
                  5.171923571       0.9671473584      0.03588934767     0.3344837548      
5100003600        -0.05153272547    -0.0564390495     -1.770803647      -5.08556488       
                  -1.770803647      -5.08556488       0.1194873339      -0.2288114677     
5185003510        -0.09085187857    0.002978505614    -3.420478555      3.959730142       
                  -3.420478555      3.959730142       -0.3491599464     0.01215989981     
5270003420        0.01409750548     0.07106536326     5.036571746       1.197927438       
                  5.036571746       1.197927438       0.149117125       0.299288655       
5355003330        -0.0418514895     -0.02158852886    -1.653624824      -5.147213414      
                  -1.653624824      -5.147213414      -0.002285773478   -0.2789975101     
5440003240        -0.07074867588    -0.03976590307    -3.366211207      3.793325307       
                  -3.366211207      3.793325307       -0.3187083493     0.1317146859      
5525003150        -0.01927121093    0.06033041577     5.022623885       1.314536882       
                  5.022623885       1.314536882       0.2683915158      0.2012063092      
5610003060        -0.03911169966    0.0287613632      -1.597799167      -4.988563074      
                  -1.597799167      -4.988563074      -0.1365442714     -0.2675379379     
5695002970        -0.01309495503    -0.04322353889    -3.366659984      3.574904605       
                  -3.366659984      3.574904605       -0.2211662378     0.2527264886      
5780002880        -0.02588920606    0.02293072158     4.975449347       1.408938191       
                  4.975449347       1.408938191       0.3295770605      0.05782051367     
5865002790        -0.07764480093    0.07643892063     -1.497947261      -4.724305054      
                  -1.497947261      -4.724305054      -0.2720916407     -0.1854580474     
5950002700        0.03662296378     0.005186397349    -3.398575219      3.364779373       
                  -3.398575219      3.364779373       -0.08262082205    0.3324523047      
6035002610        -0.01882715093    -0.03963652816    4.761887807       1.300125846       
                  4.761887807       1.300125846       0.2984099524      -0.097523408      
6120002520        -0.1449982218     0.07377648357     -1.387035338      -4.469320093      
                  -1.387035338      -4.469320093      -0.3583748828     -0.04583016787    
6205002430        0.07194123063     0.08745355269     -3.286210756      3.170167192       
                  -3.286210756      3.170167192       0.1025312457      0.3364334942      
6290002340        0.06028224573     -0.09224173923    4.537893498       1.158184094       
                  4.537893498       1.158184094       0.1949371093      -0.2490310042     
6375002250        -0.2164672707     0.008352139689    -1.288278925      -4.16617047       
                  -1.288278925      -4.16617047       -0.3758944235     0.1303339871      
6460002160        0.02871942146     0.2067701243      -3.021460785      2.952415809       
                  -3.021460785      2.952415809       0.2694376353      0.271631163       
6545002070        0.1753905005      -0.0586632234     4.097075943       1.064359642       
                  4.097075943       1.064359642       0.02877206449     -0.317490629      
6630001980        -0.2066488221     -0.1102065588     -1.124279111      -3.831650851      
                  -1.124279111      -3.831650851      -0.2978030434     0.2991775666      
6715001890        -0.07124072298    0.2720012269      -2.702725374      2.623893147       
                  -2.702725374      2.623893147       0.3791041568      0.1536419809      
6800001800        0.2654110504      0.05103577996     3.619909107       1.090982439       
                  3.619909107       1.090982439       -0.1317413695     -0.307548709      
6885001710        -0.1037365971     -0.2418012958     -0.8532168726     -3.484986335      
                  -0.8532168726     -3.484986335      -0.1840793136     0.3820089703      
6970001620        -0.2061494487     0.2332881696      -2.616808329      2.243343162       
                  -2.616808329      2.243343162       0.42080326        0.02077663666     
7055001530        0.2621670565      0.2061164481      3.218478138       1.239496678       
                  3.218478138       1.239496678       -0.2561657057     -0.2720678372     
7140001440        0.08126138877     -0.3001515881     -0.5275657914     -3.216083145      
                  -0.5275657914     -3.216083145      -0.06676148736    0.4478189601      
7225001350        -0.2948138738     0.09133655102     -2.557988547      1.876618905       
                  -2.557988547      1.876618905       0.448324203       -0.104435624      
7310001260        0.1722970122      0.339319146       2.839501821       1.135784931       
                  2.839501821       1.135784931       -0.3513759284     -0.1855750569     
7395001170        0.2854442211      -0.2296614496     -0.2727453753     -2.945464085      
                  -0.2727453753     -2.945464085      0.08280158309     0.4776490809      
7480001080        -0.2979590577     -0.1073661462     -2.40546749       1.631599416       
                  -2.40546749       1.631599416       0.3953243905      -0.2377703095     
7565000990        -0.02983665122    0.4033019257      2.632223712       1.163383348       
                  2.632223712       1.163383348       -0.4267070547     -0.08347737485    
7650000900        0.4007895557      -0.05613088928    -0.04953704762    -2.61829929       
                  -0.04953704762    -2.61829929       0.2109695858      0.4397402946      
7735000810        -0.1604591739     -0.3086211568     -2.298562678      1.345236821       
                  -2.298562678      1.345236821       0.316941219       -0.346532038      
7820000720        -0.2056919278     0.3171667918      2.277667755       1.235375644       
                  2.277667755       1.235375644       -0.403741029      0.02644524121     
7905000630        0.4147946097      0.1370065122      0.09089306172     -2.301141261      
                  0.09089306172     -2.301141261      0.3250198019      0.3622165493      
7990000540        0.06565925753     -0.3901496032     -2.217735639      0.9295886864      
                  -2.217735639      0.9295886864      0.2199035174      -0.4066160298     
8075000450        -0.3493849197     0.1200877447      1.905680413       1.433004034       
                  1.905680413       1.433004034       -0.3874028017     0.1160538303      
8160000360        0.2966632754      0.3123482819      0.2484690652      -2.180889296      
                  0.2484690652      -2.180889296      0.3984852966      0.2793702917      
8245000270        0.2542970908      -0.334815843      -2.022093405      0.6187885122      
                  -2.022093405      0.6187885122      0.1158362722      -0.4395650414     
8330000180        -0.361896267      -0.1283013786     1.619671773       1.480276741       
                  1.619671773       1.480276741       -0.338321579      0.1905221371      
8415000090        0.07754227901     0.392161815       0.3949663138      -1.984136328      
                  0.3949663138      -1.984136328      0.4370939574      0.1696066065      
8500000000        0.3852264733      -0.1817117181     -1.827113951      0.4349355068      
                  -1.827113951      0.4349355068      -9.473897813e-05  -0.4591819931     
