! RsaToolbox (C) 2013 Rohde & Schwarz America
! 
! Number of points: 101
! Number of ports: 2
! Balanced ports?: 0
! 
! 
# Hz S RI R 50
9000              0.9793643325      -0.007037933782   7.036999532e-05   -1.58769173e-05   
                  7.036999532e-05   -1.58769173e-05   0.9934649813      -0.01617405007    
85008910          -0.08356061385    -0.06612236048    2.00338047        3.192144045       
                  2.00338047        3.192144045       -0.09232371826    -0.1171308332     
170008820         0.0001583001602   0.09683266254     1.939742729       -3.529965776      
                  1.939742729       -3.529965776      -0.02132181747    0.1719833338      
255008730         -0.003823219832   -0.01595223016    -4.053454123      0.1837303013      
                  -4.053454123      0.1837303013      0.07797431073     -0.02677021234    
340008640         -0.06877485808    -0.003529413827   2.084172927       3.497800363       
                  2.084172927       3.497800363       -0.1272138982     -0.05462406022    
425008550         0.004183565868    0.02047149049     2.025322308       -3.536955102      
                  2.025322308       -3.536955102      0.01616137709     0.1030565851      
510008460         0.01748671271     -0.04760194244    -4.076244423      -0.05667695435    
                  -4.076244423      -0.05667695435    0.07107242183     -0.08012084127    
595008370         -0.03707082087    -0.01681052314    1.889138079       3.677716883       
                  1.889138079       3.677716883       -0.08443287209    -0.01252567132    
680008280         0.03962557954     0.04380639703     2.136709612       -3.37297124       
                  2.136709612       -3.37297124       0.09218127409     0.07594492121     
765008190         0.05769789685     0.005941030315    -4.088727688      -0.3783159306     
                  -4.088727688      -0.3783159306     0.06054066619     -0.06102137554    
850008100         -0.06635643335    -0.003716445185   1.720039503       3.627160438       
                  1.720039503       3.627160438       -0.0723578201     0.0649245201      
935008010         0.0007167574918   0.04183990017     2.404412631       -3.305985185      
                  2.404412631       -3.305985185      0.1023350383      0.03901184962     
1020007920        0.02428500448     0.02372003402     -4.079954338      -0.4806995226     
                  -4.079954338      -0.4806995226     -0.005021444512   -0.07652520219    
1105007830        -0.06980235483    -0.05245111506    1.587666198       3.615209812       
                  1.587666198       3.615209812       -0.06381485478    0.07527749645     
1190007740        -0.002925763376   -0.0549135488     2.554821972       -3.188873998      
                  2.554821972       -3.188873998      0.1244835779      -0.04230572177    
1275007650        0.04928928085     0.02929525004     -3.995565455      -0.6429273435     
                  -3.995565455      -0.6429273435     -0.03047487569    -0.08952089283    
1360007560        0.009922499342    -0.03592828979    1.39824841        3.752970216       
                  1.39824841        3.752970216       -0.006117745601   0.1023529988      
1445007470        0.03529496244     -0.08119819802    2.644358399       -3.07927478       
                  2.644358399       -3.07927478       0.1476188183      -0.08828553498    
1530007380        -0.01170337318    0.05319800746     -3.822017541      -0.7097139086     
                  -3.822017541      -0.7097139086     -0.06993044424    -0.06510929836    
1615007290        0.04248712922     0.07478873355     1.275601776       3.659193849       
                  1.275601776       3.659193849       0.02257295659     0.1427122574      
1700007200        0.05389127037     -0.09797513366    2.549802435       -2.916085106      
                  2.549802435       -2.916085106      0.1112674647      -0.1337517515     
1785007110        -0.1100690296     -0.03748112979    -3.783361463      -0.8594244324     
                  -3.783361463      -0.8594244324     -0.1328728606     -0.06465152863    
1870007020        -0.00456871492    0.1211917293      1.139980458       3.685771518       
                  1.139980458       3.685771518       0.06526103183     0.1328150449      
1955006930        0.127125497       -0.07940906123    2.654880706       -2.840647601      
                  2.654880706       -2.840647601      0.08964216136     -0.1946003194     
2040006840        -0.09955572958    -0.1553755023     -3.781768871      -0.9974498437     
                  -3.781768871      -0.9974498437     -0.1558423499     -0.04216456722    
2125006750        -0.08769032368    0.1489998767      1.057020826       3.719464742       
                  1.057020826       3.719464742       0.1309526891      0.1375375553      
2210006660        0.1941103272      0.02250545052     2.62289808        -2.703475264      
                  2.62289808        -2.703475264      0.04833028717     -0.2191124651     
2295006570        -0.04579251081    -0.2447143248     -3.613144774      -1.009227833      
                  -3.613144774      -1.009227833      -0.1871821643     0.01488675662     
2380006480        -0.2046664264     0.1104282679      0.902431904       3.668169603       
                  0.902431904       3.668169603       0.1671367292      0.1142106208      
2465006390        0.1751069359      0.1465053655      2.588573836       -2.53997352       
                  2.588573836       -2.53997352       -0.0194736355     -0.2609443749     
2550006300        0.07433716516     -0.2860174888     -3.47842369       -1.2150992        
                  -3.47842369       -1.2150992        -0.1917437144     0.06054964776     
2635006210        -0.261576745      -0.002890110588   0.7060821769      3.601927572       
                  0.7060821769      3.601927572       0.2141625283      0.06405483036     
2720006120        0.07985245828     0.2563887724      2.690317028       -2.329486633      
                  2.690317028       -2.329486633      -0.09059868571    -0.266026722      
2805006030        0.2063561231      -0.2362086078     -3.277743396      -1.278696661      
                  -3.277743396      -1.278696661      -0.1636126843     0.1230086487      
2890005940        -0.2606344498     -0.1364365768     0.5101334292      3.483635636       
                  0.5101334292      3.483635636       0.233225434       0.008648495272    
2975005850        -0.07397717576    0.2981816498      2.825338486       -1.97090327       
                  2.825338486       -1.97090327       -0.1621641695     -0.2493547591     
3060005760        0.288091938       -0.1051051833     -3.137232206      -1.590587378      
                  -3.137232206      -1.590587378      -0.1192435534     0.1684923788      
3145005670        -0.176359256      -0.2591374224     0.1846506862      3.434325436       
                  0.1846506862      3.434325436       0.2331281751      -0.07198181715    
3230005580        -0.2154042719     0.2394864455      2.989252807       -1.658915493      
                  2.989252807       -1.658915493      -0.226730514      -0.2093221227     
3315005490        0.3110893035      0.04521610326     -2.90519784       -1.69067076       
                  -2.90519784       -1.69067076       -0.04580213371    0.2030445409      
3400005400        -0.04100954061    -0.3174114875     -0.100149376      3.319690558       
                  -0.100149376      3.319690558       0.2032798118      -0.1452579846     
3485005310        -0.3216734964     0.1318737476      2.992589646       -1.405259259      
                  2.992589646       -1.405259259      -0.2818629459     -0.1308135887     
3570005220        0.2524372495      0.1923960773      -2.704729326      -1.791157597      
                  -2.704729326      -1.791157597      0.0339944394      0.2120022383      
3655005130        0.09648829165     -0.3045747695     -0.2712969678     3.167651787       
                  -0.2712969678     3.167651787       0.1367952089      -0.2083948232     
3740005040        -0.3585115523     -0.01520536348    2.947443714       -1.164264249      
                  2.947443714       -1.164264249      -0.3116231457     -0.04026567956    
3825004950        0.1248466356      0.2862933567      -2.447588725      -1.891514958      
                  -2.447588725      -1.891514958      0.1145990028      0.1786737572      
3910004860        0.2293978767      -0.228290932      -0.5271030892     3.014877766       
                  -0.5271030892     3.014877766       0.05329958029     -0.2585066931     
3995004770        -0.3257190381     -0.165386497      2.854804964       -0.9312390156     
                  2.854804964       -0.9312390156     -0.3056870378     0.06577953167     
4080004680        -0.02862005776    0.3212728861      -2.177847167      -1.969738412      
                  -2.177847167      -1.969738412      0.1936177229      0.1289082341      
4165004590        0.3042810203      -0.1026623488     -0.7260197633     2.879985529       
                  -0.7260197633     2.879985529       -0.04601560761    -0.2750057926     
4250004500        -0.2369758074     -0.2679484418     2.823041992       -0.7038050412     
                  2.823041992       -0.7038050412     -0.2650420829     0.1767026096      
4335004410        -0.1871693886     0.2775184542      -2.002159173      -2.116592744      
                  -2.002159173      -2.116592744      0.2323145791      0.04475854456     
4420004320        0.29849663        0.04683135356     -0.9203509724     2.793397991       
                  -0.9203509724     2.793397991       -0.1636740945     -0.2521351969     
4505004230        -0.1056056867     -0.3218430739     2.800387          -0.5357139699     
                  2.800387          -0.5357139699     -0.1972602309     0.2599334568      
4590004140        -0.2991537188     0.1780518001      -1.770692699      -2.13928047       
                  -1.770692699      -2.13928047       0.2307641396      -0.05737113229    
4675004050        0.2397389148      0.1700466105      -1.019703454      2.62086943        
                  -1.019703454      2.62086943        -0.2561246535     -0.1922808284     
4760003960        0.04250413245     -0.3169634342     2.700537331       -0.3429239184     
                  2.700537331       -0.3429239184     -0.08760403357    0.3120957238      
4845003870        -0.3457217284     0.04836443096     -1.547840492      -2.171438562      
                  -1.547840492      -2.171438562      0.2011922635      -0.1548273199     
4930003780        0.1237083269      0.2558237434      -1.187059777      2.452278356       
                  -1.187059777      2.452278356       -0.3210336355     -0.100590356      
5015003690        0.1650007409      -0.2417433908     2.617495486       -0.1319739503     
                  2.617495486       -0.1319739503     0.03515499674     0.3363679247      
5100003600        -0.3323386428     -0.07634266203    -1.392182841      -2.207325561      
                  -1.392182841      -2.207325561      0.1200498984      -0.2298579071     
5185003510        -0.00841679625    0.2829467676      -1.291246806      2.249099638       
                  -1.291246806      2.249099638       -0.3515343868     0.01058535229     
5270003420        0.2328505801      -0.121290473      2.580993167       0.1042355191      
                  2.580993167       0.1042355191      0.1489295748      0.3015970347      
5355003330        -0.2771039053     -0.1678210927     -1.250379352      -2.207268717      
                  -1.250379352      -2.207268717      -0.001615069023   -0.2805298353     
5440003240        -0.1146658053     0.2453682161      -1.359469894      2.128059971       
                  -1.359469894      2.128059971       -0.3215587883     0.1314299521      
5525003150        0.2487091237      -0.009072564179   2.531042944       0.2241127234      
                  2.531042944       0.2241127234      0.2692136345      0.2031119415      
5610003060        -0.1818485087     -0.2060570652     -1.149658162      -2.183720457      
                  -1.149658162      -2.183720457      -0.1359269621     -0.2694241703     
5695002970        -0.171090362      0.1880183261      -1.410499698      1.977852296       
                  -1.410499698      1.977852296       -0.2229764231     0.2527163102      
5780002880        0.2292583335      0.08637386977     2.459212437       0.3305964852      
                  2.459212437       0.3305964852      0.3305317241      0.05993964611     
5865002790        -0.1014738298     -0.2014121777     -0.991891658      -2.124715547      
                  -0.991891658      -2.124715547      -0.2713347428     -0.1872311998     
5950002700        -0.1951788372     0.1382315901      -1.459737588      1.840797924       
                  -1.459737588      1.840797924       -0.08416100041    0.334251535       
6035002610        0.1747617372      0.1326098698      2.320748277       0.3777932327      
                  2.320748277       0.3777932327      0.3008756946      -0.09536558986    
6120002520        -0.04217399762    -0.1808404069     -0.8613649544     -2.087687541      
                  -0.8613649544     -2.087687541      -0.3578888695     -0.04718377578    
6205002430        -0.1894176644     0.1018729236      -1.453251866      1.724459885       
                  -1.453251866      1.724459885       0.1023632129      0.3397386705      
6290002340        0.1523852774      0.1491383889      2.209257141       0.4050542532      
                  2.209257141       0.4050542532      0.1983927366      -0.2475478263     
6375002250        -0.01816672889    -0.1768873764     -0.7547729508     -2.034131864      
                  -0.7547729508     -2.034131864      -0.3764474129     0.1280019382      
6460002160        -0.2018406031     0.1080388215      -1.422870194      1.625321514       
                  -1.422870194      1.625321514       0.2715542695      0.2738649265      
6545002070        0.1546754025      0.1881916033      2.070371998       0.4261150117      
                  2.070371998       0.4261150117      0.03074276122     -0.3210821967     
6630001980        0.03816501074     -0.1904862315     -0.6529826784     -1.955965054      
                  -0.6529826784     -1.955965054      -0.3001004999     0.3023226264      
6715001890        -0.2341153533     0.09489480487     -1.35154558       1.452306911       
                  -1.35154558       1.452306911       0.3845446822      0.1579551044      
6800001800        0.1476661382      0.2587671555      1.877777948       0.4916852037      
                  1.877777948       0.4916852037      -0.1306977071     -0.3095835532     
6885001710        0.1401086879      -0.2060567151     -0.4681282507     -1.823602239      
                  -0.4681282507     -1.823602239      -0.1895817437     0.3890254294      
6970001620        -0.2753303991     0.0156843345      -1.4021958        1.271763271       
                  -1.4021958        1.271763271       0.4242288427      0.02535479005     
7055001530        0.08881264952     0.3317072468      1.769478893       0.5930201208      
                  1.769478893       0.5930201208      -0.2573451639     -0.2722170554     
7140001440        0.2580430459      -0.1779275938     -0.3451825443     -1.808039683      
                  -0.3451825443     -1.808039683      -0.06538398551    0.4551499094      
7225001350        -0.268669177      -0.1144187215     -1.429887792      1.114136996       
                  -1.429887792      1.114136996       0.4535698726      -0.1020583454     
7310001260        -0.009062114906   0.3787842535      1.698304739       0.6151046878      
                  1.698304739       0.6151046878      -0.3596407551     -0.1858612166     
7395001170        0.3749580568      -0.06087521047    -0.1866383128     -1.729119978      
                  -0.1866383128     -1.729119978      0.07589744563     0.4832888124      
7480001080        -0.1866937622     -0.2725475895     -1.394246783      0.9583240264      
                  -1.394246783      0.9583240264      0.3956116682      -0.236706466      
7565000990        -0.2046644954     0.3517991287      1.53660787        0.6570964394      
                  1.53660787        0.6570964394      -0.4266788459     -0.08558295152    
7650000900        0.4120230625      0.1052765255      -0.07453319018    -1.622962689      
                  -0.07453319018    -1.622962689      0.2117676187      0.4404404837      
7735000810        -0.01873073134    -0.380557231      -1.441333331      0.8533853393      
                  -1.441333331      0.8533853393      0.3181496505      -0.3469574091     
7820000720        -0.3259275764     0.2204526258      1.450507479       0.780285137       
                  1.450507479       0.780285137       -0.4081650438     0.02387240881     
7905000630        0.3663006395      0.2667098784      0.0414637998      -1.514759277      
                  0.0414637998      -1.514759277      0.3239403707      0.3640406822      
7990000540        0.2062143074      -0.3942832751     -1.435845211      0.588561872       
                  -1.435845211      0.588561872       0.2225784303      -0.4089162267     
8075000450        -0.4097462342     -0.01104481831    1.236739413       0.9571096366      
                  1.236739413       0.9571096366      -0.3901378191     0.1182316317      
8160000360        0.2067267893      0.4071876347      0.1688387602      -1.465071285      
                  0.1688387602      -1.465071285      0.3999946737      0.2808391952      
8245000270        0.3674894281      -0.2890117449     -1.38058389       0.4259409352      
                  -1.38058389       0.4259409352      0.1146450178      -0.4457272574     
8330000180        -0.3583669018     -0.2573532323     1.10123702        1.016945668       
                  1.10123702        1.016945668       -0.3441868563     0.1931245492      
8415000090        -0.03177432764    0.4322945851      0.265231503       -1.377732731      
                  0.265231503       -1.377732731      0.4372319153      0.1676151921      
8500000000        0.4513922947      -0.1109171446     -1.302581513      0.3353052682      
                  -1.302581513      0.3353052682      -0.003550233066   -0.4627791834     
