! RsaToolbox (C) 2013 Rohde & Schwarz America
! 
! Number of points: 101
! Number of ports: 2
! Balanced ports?: 0
! 
! 
# Hz S RI R 50
9000              0.9767308002      -0.006770128688   6.936142672e-05   -1.867695708e-05  
                  6.936142672e-05   -1.867695708e-05  0.9909497684      -0.01593338953    
85008910          -0.09574030851    -0.1006438969     1.850263984       2.92559735        
                  1.850263984       2.92559735        -0.09231041194    -0.1172966547     
170008820         -0.02407032411    0.1193225863      1.763698808       -3.260544445      
                  1.763698808       -3.260544445      -0.02138059543    0.1720227046      
255008730         0.03060405359     -0.002176830477   -3.716029352      0.2062412297      
                  -3.716029352      0.2062412297      0.07801010098     -0.02680851297    
340008640         -0.06776102779    -0.0343083487     1.967037748       3.217799018       
                  1.967037748       3.217799018       -0.127283435      -0.05468573664    
425008550         -0.02737285609    0.0339647068      1.803081479       -3.270359077      
                  1.803081479       -3.270359077      0.01613722273     0.103055675       
510008460         0.04060164263     -0.02421582662    -3.741725529      0.001309772582    
                  -3.741725529      0.001309772582    0.07111811133     -0.08018419449    
595008370         -0.02398591695    -0.04255199091    1.813170868       3.383947494       
                  1.813170868       3.383947494       -0.08445259966    -0.01252487069    
680008280         0.009705519898    0.04449611036     1.938983695       -3.156486609      
                  1.938983695       -3.156486609      0.09218184798     0.07599584501     
765008190         0.05715795109     0.04140099875     -3.816389088      -0.2325585715     
                  -3.816389088      -0.2325585715     0.06056053103     -0.06110596989    
850008100         -0.04282354168    -0.02442510744    1.660185984       3.338746887       
                  1.660185984       3.338746887       -0.07240523101    0.06492971217     
935008010         -0.02640773355    0.02019597054     2.138105174       -3.146231773      
                  2.138105174       -3.146231773      0.1024069718      0.03900948641     
1020007920        0.009665875274    0.05890182193     -3.808378945      -0.3002097097     
                  -3.808378945      -0.3002097097     -0.005049378086   -0.07654359882    
1105007830        -0.04160065214    -0.06153309909    1.542978788       3.334615841       
                  1.542978788       3.334615841       -0.06387593683    0.07534829313     
1190007740        -0.01524577954    -0.0935077862     2.248079133       -3.07184393       
                  2.248079133       -3.07184393       0.1245356787      -0.04231441308    
1275007650        0.02887260695     0.05370213343     -3.735230746      -0.4857228446     
                  -3.735230746      -0.4857228446     -0.03057662926    -0.08960922987    
1360007560        0.03920249205     -0.02625850099    1.411872899       3.455678243       
                  1.411872899       3.455678243       -0.006114281184   0.1023996643      
1445007470        0.04107368179     -0.1193635626     2.335059746       -2.990585694      
                  2.335059746       -2.990585694      0.1476452876      -0.08829152755    
1530007380        -0.03849603697    0.06495410718     -3.581095429      -0.5426471263     
                  -3.581095429      -0.5426471263     -0.07006017213    -0.06512542198    
1615007290        0.0642278324      0.1010162753      1.33522716        3.366639247       
                  1.33522716        3.366639247       0.02258956285     0.1428697009      
1700007200        0.07048761743     -0.1277535547     2.239293698       -2.82601104       
                  2.239293698       -2.82601104       0.1113058281      -0.1339039545     
1785007110        -0.1457996889     -0.04420062576    -3.558842562      -0.6232934719     
                  -3.558842562      -0.6232934719     -0.1330560154     -0.06466831126    
1870007020        0.00214714711     0.1595148796      1.244636743       3.370738567       
                  1.244636743       3.370738567       0.0652954371      0.1329229744      
1955006930        0.1575555338      -0.100456407      2.305160153       -2.771260553      
                  2.305160153       -2.771260553      0.08965693816     -0.1947394594     
2040006840        -0.1325725974     -0.1824719543     -3.563746001      -0.7201530242     
                  -3.563746001      -0.7201530242     -0.1559981525     -0.04205570285    
2125006750        -0.09700869391    0.1859651426      1.17848372        3.390974776       
                  1.17848372        3.390974776       0.1310580792      0.1375874808      
2210006660        0.2344747507      0.01577021073     2.278563739       -2.63645495       
                  2.278563739       -2.63645495       0.04828138964     -0.2192736571     
2295006570        -0.06494201801    -0.2801634104     -3.39479783       -0.7422768691     
                  -3.39479783       -0.7422768691     -0.187283398      0.01492230082     
2380006480        -0.227924391      0.1394096314      1.020367213       3.352886091       
                  1.020367213       3.352886091       0.1672827089      0.1142012599      
2465006390        0.2144577486      0.1571153038      2.265365719       -2.468839417      
                  2.265365719       -2.468839417      -0.01958959915    -0.2610775708     
2550006300        0.07274638143     -0.3234062932     -3.283815862      -0.948099817      
                  -3.283815862      -0.948099817      -0.1918574849     0.06069715994     
2635006210        -0.2939165202     0.0123780356      0.8139155082      3.301988021       
                  0.8139155082      3.301988021       0.2142847267      0.06392878822     
2720006120        0.1099079636      0.2818034912      2.374168274       -2.271410633      
                  2.374168274       -2.271410633      -0.09072109133    -0.2662318376     
2805006030        0.2179138411      -0.268502139      -3.090337556      -1.037440514      
                  -3.090337556      -1.037440514      -0.1637117243     0.1230666611      
2890005940        -0.2935303636     -0.1361555339     0.6124448762      3.205074257       
                  0.6124448762      3.205074257       0.2333726304      0.008465806107    
2975005850        -0.05874218079    0.3376731869      2.484919871       -1.933147749      
                  2.484919871       -1.933147749      -0.1622680177     -0.2496760161     
3060005760        0.3119023548      -0.1266898062     -2.970719396      -1.347861782      
                  -2.970719396      -1.347861782      -0.1192176616     0.1685934325      
3145005670        -0.2053151729     -0.2731807228     0.296151637       3.171130609       
                  0.296151637       3.171130609       0.2332230024      -0.07217708658    
3230005580        -0.2197910999     0.2729926808      2.708006356       -1.645521753      
                  2.708006356       -1.645521753      -0.2269413116     -0.2092827217     
3315005490        0.3383398418      0.03577156568     -2.748973637      -1.47343049       
                  -2.748973637      -1.47343049       -0.04572873198    0.2030642018      
3400005400        -0.05945964665    -0.3405387569     0.004025402922    3.087506044       
                  0.004025402922    3.087506044       0.2032804668      -0.145518111      
3485005310        -0.3371799503     0.1566092013      2.739585795       -1.392624105      
                  2.739585795       -1.392624105      -0.2819910026     -0.1307980318     
3570005220        0.281066027       0.1945579796      -2.545141866      -1.578823986      
                  -2.545141866      -1.578823986      0.03415733815     0.2120095035      
3655005130        0.0885477528      -0.3340697973     -0.1660211238     2.925563543       
                  -0.1660211238     2.925563543       0.1363761916      -0.2086688338     
3740005040        -0.3836365777     0.002021955487    2.670489041       -1.152490583      
                  2.670489041       -1.152490583      -0.3116622062     -0.04020399237    
3825004950        0.1497341085      0.300230885       -2.289915522      -1.680354073      
                  -2.289915522      -1.680354073      0.114768416       0.1788058389      
3910004860        0.2349018322      -0.2567238392     -0.4152073976     2.784882263       
                  -0.4152073976     2.784882263       0.0534589201      -0.2585199379     
3995004770        -0.3524358933     -0.1609581756     2.604009987       -0.9187537463     
                  2.604009987       -0.9187537463     -0.3057527995     0.06594000775     
4080004680        -0.01635498916    0.3389906033      -2.064875365      -1.80722529       
                  -2.064875365      -1.80722529       0.1939248064      0.1287352252      
4165004590        0.3177767771      -0.1207993088     -0.6312305518     2.70896332        
                  -0.6312305518     2.70896332        -0.04626373328    -0.2755077444     
4250004500        -0.2567180462     -0.2735875833     2.630440244       -0.6997279973     
                  2.630440244       -0.6997279973     -0.264757622      0.1768994946      
4335004410        -0.1847336584     0.3020321246      -1.880809276      -1.922295485      
                  -1.880809276      -1.922295485      0.2325060708      0.04458823041     
4420004320        0.3178234631      0.03789107042     -0.8254252043     2.62907742        
                  -0.8254252043     2.62907742        -0.1637827247     -0.2522467039     
4505004230        -0.1200142526     -0.335575785      2.612631503       -0.5339487412     
                  2.612631503       -0.5339487412     -0.1972615671     0.2601282733      
4590004140        -0.3058912889     0.1960060866      -1.677309047      -1.98275183       
                  -1.677309047      -1.98275183       0.2308906434      -0.05748704837    
4675004050        0.2597858361      0.1702098146      -0.9275827324     2.462213039       
                  -0.9275827324     2.462213039       -0.2562351388     -0.1923167921     
4760003960        0.03589693201     -0.3352254679     2.519856077       -0.3444104541     
                  2.519856077       -0.3444104541     -0.08756513514    0.3122642278      
4845003870        -0.359351165      0.06024593596     -1.460915572      -2.01672958       
                  -1.460915572      -2.01672958       0.201249681       -0.1549524038     
4930003780        0.1386647541      0.2649435271      -1.101403517      2.310879354       
                  -1.101403517      2.310879354       -0.3212491089     -0.1005655941     
5015003690        0.167223507       -0.2600363258     2.450531795       -0.1396757249     
                  2.450531795       -0.1396757249     0.03529871843     0.336574622       
5100003600        -0.3507178569     -0.07262249176    -1.302174957      -2.039627289      
                  -1.302174957      -2.039627289      0.1200336732      -0.2300026006     
5185003510        -0.0005827300795  0.297651437       -1.211193882      2.116646386       
                  -1.211193882      2.116646386       -0.3517362464     0.01059909737     
5270003420        0.2431676018      -0.1344901973     2.430494848       0.09249494589     
                  2.430494848       0.09249494589     0.148937404       0.3017863607      
5355003330        -0.293694139      -0.1728755813     -1.16398446       -2.050633147      
                  -1.16398446       -2.050633147      -0.001615582039   -0.2806932842     
5440003240        -0.1146238118     0.261842769       -1.285198885      2.004605346       
                  -1.285198885      2.004605346       -0.3217087938     0.1314457241      
5525003150        0.2629757107      -0.01529669288    2.385270532       0.2114830963      
                  2.385270532       0.2114830963      0.2692160509      0.2032135652      
5610003060        -0.1922774421     -0.2167317295     -1.079513965      -2.055566865      
                  -1.079513965      -2.055566865      -0.1358102651     -0.2695874131     
5695002970        -0.1782284957     0.2023487802      -1.335437027      1.864028245       
                  -1.335437027      1.864028245       -0.223097687      0.2527137617      
5780002880        0.243530929       0.08785088121     2.31965932        0.3168896244      
                  2.31965932        0.3168896244      0.3305693635      0.06011252784     
5865002790        -0.1058752727     -0.2162515669     -0.9276500193     -2.00399552       
                  -0.9276500193     -2.00399552       -0.2711834255     -0.1873937553     
5950002700        -0.2084153968     0.1480979471      -1.377699683      1.725194956       
                  -1.377699683      1.725194956       -0.08437481379    0.3343308345      
6035002610        0.1863940378      0.1407192864      2.191380696       0.36694652        
                  2.191380696       0.36694652        0.3010411076      -0.09507553262    
6120002520        -0.03850960346    -0.1958228744     -0.8038115482     -1.975992764      
                  -0.8038115482     -1.975992764      -0.3578240764     -0.04731356259    
6205002430        -0.2039747212     0.1043920972      -1.381982792      1.626072286       
                  -1.381982792      1.626072286       0.1021145721      0.3405965014      
6290002340        0.1588366934      0.1620094006      2.086718943       0.395816698       
                  2.086718943       0.395816698       0.1986367446      -0.2473951526     
6375002250        -0.0076788359     -0.1888202593     -0.7018749602     -1.930936         
                  -0.7018749602     -1.930936         -0.3765079095     0.1278181456      
6460002160        -0.2161852289     0.1034205535      -1.357524652      1.533704981       
                  -1.357524652      1.533704981       0.2715072903      0.2739954339      
6545002070        0.1545481273      0.2027269565      1.959814244       0.4177525584      
                  1.959814244       0.4177525584      0.03090899387     -0.321103719      
6630001980        0.05562768093     -0.1977136485     -0.5955069835     -1.842153665      
                  -0.5955069835     -1.842153665      -0.3001786964     0.3022550332      
6715001890        -0.2454141293     0.08423676416     -1.29084126       1.368304302       
                  -1.29084126       1.368304302       0.3845817825      0.1580369614      
6800001800        0.1417169275      0.2711815025      1.782667699       0.4800651254      
                  1.782667699       0.4800651254      -0.1305798342     -0.3096241311     
6885001710        0.1553225415      -0.2048005686     -0.4304203091     -1.737655981      
                  -0.4304203091     -1.737655981      -0.1902894146     0.3888618221      
6970001620        -0.2812791637     -0.001648242429   -1.330476901      1.186996036       
                  -1.330476901      1.186996036       0.4242287234      0.02552555501     
7055001530        0.07805076122     0.3402653861      1.682227444       0.576433981       
                  1.682227444       0.576433981       -0.2573515754     -0.2722522705     
7140001440        0.2708522828      -0.1694703334     -0.3155743659     -1.724947821      
                  -0.3155743659     -1.724947821      -0.06496748317    0.4552124428      
7225001350        -0.2669349652     -0.129698227      -1.369709569      1.050634022       
                  -1.369709569      1.050634022       0.4535792498      -0.1019184272     
7310001260        -0.02614341459    0.3821024134      1.595848367       0.5925094435      
                  1.595848367       0.5925094435      -0.3596554281     -0.1859917069     
7395001170        0.3822351639      -0.0476429387     -0.1658158121     -1.647495638      
                  -0.1658158121     -1.647495638      0.07580809368     0.4832735423      
7480001080        -0.1781089637     -0.2848275025     -1.336182872      0.9032937552      
                  -1.336182872      0.9032937552      0.395653996       -0.2366189193     
7565000990        -0.2179164783     0.348205282       1.461921821       0.6381288569      
                  1.461921821       0.6381288569      -0.4267747126     -0.08576947891    
7650000900        0.4128657899      0.1201632817      -0.06194005733    -1.547286646      
                  -0.06194005733    -1.547286646      0.21166822        0.4404697451      
7735000810        -0.003080996724   -0.3875613495     -1.371966952      0.7980021064      
                  -1.371966952      0.7980021064      0.3182363226      -0.3469744456     
7820000720        -0.3387381457     0.2087989323      1.366688358       0.7493132865      
                  1.366688358       0.7493132865      -0.4083216093     0.0237535726      
7905000630        0.3607177372      0.279938169       0.04695292865     -1.446015677      
                  0.04695292865     -1.446015677      0.3239319553      0.3641414616      
7990000540        0.220343013       -0.3935678993     -1.374554092      0.5530311411      
                  -1.374554092      0.5530311411      0.2222983399      -0.4090951258     
8075000450        -0.4147546648     -0.02513230271    1.175358363       0.9230498503      
                  1.175358363       0.9230498503      -0.3903392677     0.1182028785      
8160000360        0.1940477751      0.4189699391      0.1702319972      -1.385801536      
                  0.1702319972      -1.385801536      0.4000475726      0.2808217541      
8245000270        0.3791929273      -0.283081792      -1.322835257      0.4008482357      
                  -1.322835257      0.4008482357      0.1145801486      -0.4457986922     
8330000180        -0.3565500726     -0.2706638344     1.047917405       0.9799615321      
                  1.047917405       0.9799615321      -0.3442080225     0.1931042079      
8415000090        -0.04435422564    0.4360211579      0.2615515756      -1.318868037      
                  0.2615515756      -1.318868037      0.4373421723      0.1676137678      
8500000000        0.4592505893      -0.1013281585     -1.248967066      0.3166324902      
                  -1.248967066      0.3166324902      -0.003467158865   -0.4629563729     
