! RsaToolbox (C) 2013 Rohde & Schwarz America
! 
! Number of points: 101
! Number of ports: 2
! Balanced ports?: 0
! 
! 
# Hz S RI R 50
9000              1.023467864       -0.03498434888    -0.0002568736152  -8.908640865e-05  
                  -0.0002568736152  -8.908640865e-05  1.026969464       -0.03895072738    
85008910          0.002961463855    0.1596516495      3.189874709       5.529877087       
                  3.189874709       5.529877087       -0.09189953161    -0.1144535015     
170008820         0.1422198753      -0.04490254036    3.207438912       -5.221714186      
                  3.207438912       -5.221714186      -0.0199260115     0.1716230413      
255008730         -0.1762022984     -0.07553431821    -6.06144583       -0.1772671509     
                  -6.06144583       -0.1772671509     0.07784717464     -0.02701097277    
340008640         -0.06355036101    0.1704758763      2.647698497       5.366650377       
                  2.647698497       5.366650377       -0.1269227756     -0.0543961063     
425008550         0.1589362136      -0.04666496118    3.400991516       -4.872127862      
                  3.400991516       -4.872127862      0.01802718218     0.1033601474      
510008460         -0.1021130984     -0.1628002807     -5.908831708      -0.6537180047     
                  -5.908831708      -0.6537180047     0.06993146246     -0.0792767009     
595008370         -0.1075750248     0.1401943811      2.223966793       5.439591078       
                  2.223966793       5.439591078       -0.08450581028    -0.01135351611    
680008280         0.2042962917      0.0338254222      3.673877681       -4.576866223      
                  3.673877681       -4.576866223      0.09178638184     0.07587642029     
765008190         0.009106370489    -0.1644181483     -5.735932145      -1.112490437      
                  -5.735932145      -1.112490437      0.0592252275      -0.06123489674    
850008100         -0.1825844549     0.111848436       1.863560464       5.530083245       
                  1.863560464       5.530083245       -0.07116300762    0.06526570667     
935008010         0.1465412191      0.1227592691      3.960790449       -4.227669466      
                  3.960790449       -4.227669466      0.1016057994      0.03871198932     
1020007920        0.07574710581     -0.1541885499     -5.595446314      -1.456182461      
                  -5.595446314      -1.456182461      -0.004899039786   -0.07644370422    
1105007830        -0.2256062366     -0.007572602355   1.476242152       5.625882188       
                  1.476242152       5.625882188       -0.06282822257    0.07563465654     
1190007740        0.07167110737     0.1417382505      4.207637546       -3.861470749      
                  4.207637546       -3.861470749      0.1242191731      -0.04343125586    
1275007650        0.1649080499      -0.1093881109     -5.471931828      -1.841623676      
                  -5.471931828      -1.841623676      -0.03015872144    -0.08810583998    
1360007560        -0.1638504961     -0.1004528368     1.032002524       5.65345572        
                  1.032002524       5.65345572        -0.005221399787   0.1012888127      
1445007470        0.0005690350848   0.1425128326      4.422769725       -3.542866826      
                  4.422769725       -3.542866826      0.1459782374      -0.08740061274    
1530007380        0.1845234272      -0.0114912719     -5.312276662      -2.19694269       
                  -5.312276662      -2.19694269       -0.06884793869    -0.06447478365    
1615007290        -0.0941221157     -0.1248126154     0.6116844201      5.611311776       
                  0.6116844201      5.611311776       0.0240292529      0.1416644021      
1700007200        -0.08878354597    0.09722347013     4.681312839       -3.238958307      
                  4.681312839       -3.238958307      0.1105945196      -0.1339602404     
1785007110        0.1284423095      0.03209508972     -5.071557201      -2.53381409       
                  -5.071557201      -2.53381409       -0.1316532706     -0.06357503338    
1870007020        -0.02118794511    -0.1363805249     0.2192283986      5.613580988       
                  0.2192283986      5.613580988       0.06600929244     0.1313139112      
1955006930        -0.1081449452     0.02168634921     4.885979028       -2.88165292       
                  4.885979028       -2.88165292       0.08961271181     -0.1932867645     
2040006840        0.08425040189     0.03957848817     -4.828788809      -2.820086314      
                  -4.828788809      -2.820086314      -0.1540163825     -0.04233843205    
2125006750        0.03632582275     -0.09352902925    -0.1975734869     5.641143452       
                  -0.1975734869     5.641143452       0.1313297792      0.1363287014      
2210006660        -0.09323220495    -0.0009571120005  4.984849027       -2.525983982      
                  4.984849027       -2.525983982      0.04783935321     -0.2185015533     
2295006570        0.02940998657     0.03771888038     -4.592322069      -3.152244359      
                  -4.592322069      -3.152244359      -0.1857471944     0.01572216588     
2380006480        0.0292136501      -0.05271033428    -0.5708539902     5.580321698       
                  -0.5708539902     5.580321698       0.1674578077      0.11366726        
2465006390        -0.08804320878    -0.0171495611     5.059672511       -2.211115596      
                  5.059672511       -2.211115596      -0.01971633316    -0.2599667846     
2550006300        0.01164398378     0.00154403376     -4.290182546      -3.496377816      
                  -4.290182546      -3.496377816      -0.1908831571     0.06073533982     
2635006210        0.02642443895     -0.04581660771    -0.9072395299     5.523953189       
                  -0.9072395299     5.523953189       0.213965211       0.06455322384     
2720006120        -0.08317796968    -0.01120800267    5.13818082        -1.835085682      
                  5.13818082        -1.835085682      -0.09007773368    -0.2637846647     
2805006030        0.01768190947     0.0009234715216   -4.002064781      -3.740931184      
                  -4.002064781      -3.740931184      -0.1627719933     0.1236051835      
2890005940        0.02279749378     -0.0373830171     -1.248107397      5.401882595       
                  -1.248107397      5.401882595       0.2316362958      0.008631198264    
2975005850        -0.0955685889     -0.008819804884   5.168125733       -1.38471997       
                  5.168125733       -1.38471997       -0.1622156115     -0.2488138992     
3060005760        0.01708317773     0.01050993548     -3.70945952       -4.081966377      
                  -3.70945952       -4.081966377      -0.1179591994     0.1685601064      
3145005670        0.03691711792     -0.04444328481    -1.643804501      5.250550448       
                  -1.643804501      5.250550448       0.2312887728      -0.07172930417    
3230005580        -0.1015909988     -0.03389008791    5.27708116        -0.9780705216     
                  5.27708116        -0.9780705216     -0.2275361038     -0.207914292      
3315005490        0.00981012047     0.03315846913     -3.432454018      -4.314458791      
                  -3.432454018      -4.314458791      -0.04556132398    0.2021420256      
3400005400        0.06089685087     -0.02788623906    -1.99869374       5.07807267        
                  -1.99869374       5.07807267        0.2011909572      -0.1452240916     
3485005310        -0.09786464308    -0.06523303624    5.380811615       -0.6134678999     
                  5.380811615       -0.6134678999     -0.2816666852     -0.1298519626     
3570005220        -0.0208304517     0.04963987425     -3.252040038      -4.505289728      
                  -3.252040038      -4.505289728      0.03363355482     0.2108741549      
3655005130        0.06946491749     0.00405495197     -2.195011411      4.952479776       
                  -2.195011411      4.952479776       0.1353877418      -0.2068078789     
3740005040        -0.07575926042    -0.09272164747    5.372106722       -0.2524047884     
                  5.372106722       -0.2524047884     -0.3121839724     -0.04016286101    
3825004950        -0.05867579623    0.037542737       -2.978304693      -4.642802182      
                  -2.978304693      -4.642802182      0.1134768235      0.1758737589      
3910004860        0.06382112159     0.03853433424     -2.619055397      4.723229392       
                  -2.619055397      4.723229392       0.04967679076     -0.2606930349     
3995004770        -0.03044618354    -0.1106552512     5.407675192       0.0735900735      
                  5.407675192       0.0735900735      -0.3058364251     0.0643585011      
4080004680        -0.08435670515    0.008459076134    -2.706727412      -4.812738844      
                  -2.706727412      -4.812738844      0.191685087       0.128834576       
4165004590        0.03863462622     0.07024198466     -2.87635951       4.589431746       
                  -2.87635951       4.589431746       -0.04631928573    -0.2717814992     
4250004500        0.01070991079     -0.08760814248    5.493437849       0.3062165833      
                  5.493437849       0.3062165833      -0.2660231355     0.1742992522      
4335004410        -0.1010723002     -0.01937824419    -2.450466841      -4.919328785      
                  -2.450466841      -4.919328785      0.2289300218      0.04431754727     
4420004320        -0.007976646967   0.0829618898      -3.08109648       4.476868564       
                  -3.08109648       4.476868564       -0.1640660124     -0.2504315114     
4505004230        0.03699424991     -0.05636610222    5.449021543       0.4960300306      
                  5.449021543       0.4960300306      -0.1968174928     0.2585234739      
4590004140        -0.09932651375    -0.0525258421     -2.184658231      -4.965033593      
                  -2.184658231      -4.965033593      0.2297405314      -0.05818706375    
4675004050        -0.04608025306    0.07091524822     -3.180392033      4.359547648       
                  -3.180392033      4.359547648       -0.255314866      -0.1916976097     
4760003960        0.0571118769      -0.01593738626    5.296746173       0.7269539915      
                  5.296746173       0.7269539915      -0.08578672722    0.3108358527      
4845003870        -0.07631742254    -0.06810831308    -1.937848711      -5.01173483       
                  -1.937848711      -5.01173483       0.1995742241      -0.1547511118     
4930003780        -0.07717296679    0.04015080801     -3.362406032      4.184267381       
                  -3.362406032      4.184267381       -0.319213492      -0.09792200294    
5015003690        0.0490371233      0.03668913856     5.17409196        0.9672605113      
                  5.17409196        0.9672605113      0.03539544867     0.3340799079      
5100003600        -0.0521221452     -0.05448104385    -1.765938168      -5.091598708      
                  -1.765938168      -5.091598708      0.1192237468      -0.2290732527     
5185003510        -0.09083892035    0.00387235005     -3.424802359      3.954745279       
                  -3.424802359      3.954745279       -0.3497640757     0.01247037371     
5270003420        0.01423879906     0.0716212781      5.040494948       1.202164035       
                  5.040494948       1.202164035       0.1493728277      0.2991925449      
5355003330        -0.04249683915    -0.02184708564    -1.65160612       -5.151737809      
                  -1.65160612       -5.151737809      -0.001957244159   -0.2787431518     
5440003240        -0.07147677654    -0.04029539793    -3.368260015      3.794317151       
                  -3.368260015      3.794317151       -0.3195445563     0.1322327175      
5525003150        -0.01861344464    0.05944522563     5.023753195       1.317548681       
                  5.023753195       1.317548681       0.2686851692      0.2023025872      
5610003060        -0.03969179924    0.02845002875     -1.595898014      -4.991454361      
                  -1.595898014      -4.991454361      -0.1367490909     -0.2682314917     
5695002970        -0.01275661004    -0.04339449827    -3.369701111      3.575329581       
                  -3.369701111      3.575329581       -0.2216332439     0.252771852       
5780002880        -0.02568338035    0.02221685573     4.977759116       1.413225198       
                  4.977759116       1.413225198       0.3293980836      0.05919317253     
5865002790        -0.0780170497     0.07643270425     -1.497152454      -4.729569338      
                  -1.497152454      -4.729569338      -0.2723232558     -0.1860910267     
5950002700        0.03735727853     0.005401765109    -3.403311015      3.368381096       
                  -3.403311015      3.368381096       -0.0834848277     0.3325699684      
6035002610        -0.01783009626    -0.04120141427    4.76165968        1.304345813       
                  4.76165968        1.304345813       0.2994236966      -0.09761225434    
6120002520        -0.1458277243     0.07325521409     -1.385469669      -4.47404107       
                  -1.385469669      -4.47404107       -0.3584185591     -0.04542010055    
6205002430        0.07200318487     0.08854365147     -3.293125878      3.170661549       
                  -3.293125878      3.170661549       0.1024805848      0.3372304031      
6290002340        0.06042708957     -0.09290917377    4.543897441       1.160622884       
                  4.543897441       1.160622884       0.1947621951      -0.2484811035     
6375002250        -0.2164945052     0.008317891421    -1.286579312      -4.172398428      
                  -1.286579312      -4.172398428      -0.3769171248     0.1300582582      
6460002160        0.0292420139      0.2077593801      -3.027438204      2.953750101       
                  -3.027438204      2.953750101       0.2683947342      0.2720606637      
6545002070        0.1753284813      -0.05784807052    4.100334323       1.064952855       
                  4.100334323       1.064952855       0.02967921334     -0.317854361      
6630001980        -0.2055068414     -0.110551504      -1.127943527      -3.837131238      
                  -1.127943527      -3.837131238      -0.2974342811     0.299535025       
6715001890        -0.07141620142    0.2728894453      -2.705969691      2.627195862       
                  -2.705969691      2.627195862       0.3791331787      0.1530745223      
6800001800        0.2657579865      0.05024278026     3.62309457        1.093677938       
                  3.62309457        1.093677938       -0.1317999938     -0.3069205251     
6885001710        -0.1034897178     -0.241297135      -0.854772936      -3.487438206      
                  -0.854772936      -3.487438206      -0.1829944554     0.3826866181      
6970001620        -0.2052813741     0.2332965917      -2.620806663      2.243946664       
                  -2.620806663      2.243946664       0.4199438862      0.02073078327     
7055001530        0.262653097       0.2062478091      3.221207373       1.242096931       
                  3.221207373       1.242096931       -0.2567250211     -0.2724359232     
7140001440        0.08180056527     -0.2996554836     -0.5281384418     -3.219100498      
                  -0.5281384418     -3.219100498      -0.06784933221    0.4471769263      
7225001350        -0.2938198452     0.09184820039     -2.562315888      1.877042335       
                  -2.562315888      1.877042335       0.4473678651      -0.1046045686     
7310001260        0.1730730086      0.33902408        2.839954474       1.134418484       
                  2.839954474       1.134418484       -0.3518131352     -0.1852229086     
7395001170        0.2847460405      -0.2301827822     -0.2695685532     -2.9470352        
                  -0.2695685532     -2.9470352        0.08297512637     0.4768054513      
7480001080        -0.2981446378     -0.1071754285     -2.404357296      1.630647537       
                  -2.404357296      1.630647537       0.3955607002      -0.2374156357     
7565000990        -0.0306034521     0.4032328572      2.632980825       1.164147544       
                  2.632980825       1.164147544       -0.4260771635     -0.08327236519    
7650000900        0.4011727677      -0.05757306556    -0.05342767192    -2.62096017       
                  -0.05342767192    -2.62096017       0.2142052928      0.4395963789      
7735000810        -0.1614407646     -0.3082620208     -2.298989859      1.344505982       
                  -2.298989859      1.344505982       0.3182642508      -0.3452947804     
7820000720        -0.2059783205     0.3171080068      2.278084223       1.237656781       
                  2.278084223       1.237656781       -0.4038691167     0.02334850588     
7905000630        0.4145497049      0.1368058992      0.09204878621     -2.303190533      
                  0.09204878621     -2.303190533      0.3271309783      0.3608545202      
7990000540        0.06543618292     -0.3912126969     -2.218629552      0.9294637886      
                  -2.218629552      0.9294637886      0.2209218565      -0.4074409571     
8075000450        -0.3504777059     0.1192577516      1.906945926       1.433165964       
                  1.906945926       1.433165964       -0.3873671201     0.1169796411      
8160000360        0.2964961552      0.3122689001      0.2495587917      -2.183450388      
                  0.2495587917      -2.183450388      0.3975371437      0.279231265       
8245000270        0.2558366955      -0.3336251742     -2.025615666      0.6152943015      
                  -2.025615666      0.6152943015      0.1160720626      -0.4400504296     
8330000180        -0.361684016      -0.1299386165     1.620737215       1.483845186       
                  1.620737215       1.483845186       -0.3376138527     0.1923160969      
8415000090        0.07787142703     0.3920296832      0.3968455061      -1.985253265      
                  0.3968455061      -1.985253265      0.4378626413      0.1708424235      
8500000000        0.3852945498      -0.1806197904     -1.827026637      0.4346026241      
                  -1.827026637      0.4346026241      -0.001684022506   -0.4609859923     
