! RsaToolbox (C) 2013 Rohde & Schwarz America
! 
! Number of points: 101
! Number of ports: 2
! Balanced ports?: 0
! 
! 
# Hz S RI R 50
9000              1.018183003       -0.03969900821    2.554146489e-05   -0.0001011166508  
                  2.554146489e-05   -0.0001011166508  1.017848477       -0.04325389582    
85008910          0.003082449075    0.1595101266      3.192605177       5.525201593       
                  3.192605177       5.525201593       -0.09160298998    -0.1171256802     
170008820         0.1422018796      -0.044781597      3.20381991        -5.229413331      
                  3.20381991        -5.229413331      -0.02040468091    0.1720264617      
255008730         -0.1765110743     -0.07554772072    -6.064325574      -0.1772320315     
                  -6.064325574      -0.1772320315     0.07753773719     -0.02706779262    
340008640         -0.06383002523    0.17018293        2.649672356       5.367626766       
                  2.649672356       5.367626766       -0.1258695669     -0.0519027389     
425008550         0.1595067302      -0.04689417436    3.394146307       -4.871934823      
                  3.394146307       -4.871934823      0.01729903386     0.1038820174      
510008460         -0.1022923375     -0.1634030745     -5.9119354        -0.6611292221     
                  -5.9119354        -0.6611292221     0.06951589146     -0.07949487017    
595008370         -0.107497612      0.1401999018      2.217284889       5.441469545       
                  2.217284889       5.441469545       -0.08343484472    -0.01208025165    
680008280         0.2047269843      0.03417568852     3.67681419        -4.576450635      
                  3.67681419        -4.576450635      0.09291677593     0.07358930931     
765008190         0.009917762483    -0.1644839662     -5.740659556      -1.118145937      
                  -5.740659556      -1.118145937      0.05883418628     -0.06049045769    
850008100         -0.1821242448     0.1115849969      1.863847809       5.531056357       
                  1.863847809       5.531056357       -0.07084751171    0.0660234629      
935008010         0.1457734948      0.1235608996      3.958771243       -4.230535708      
                  3.958771243       -4.230535708      0.1018012049      0.03856737903     
1020007920        0.07603759172     -0.1544199635     -5.596977822      -1.458786207      
                  -5.596977822      -1.458786207      -0.005670623662   -0.074602863      
1105007830        -0.2265160483     -0.008107534798   1.476180544       5.627238187       
                  1.476180544       5.627238187       -0.06273452316    0.07515501453     
1190007740        0.07141507168     0.140740877       4.206629657       -3.859135698      
                  4.206629657       -3.859135698      0.1241073604      -0.04174292011    
1275007650        0.1642052977      -0.1094856704     -5.470371987      -1.843706516      
                  -5.470371987      -1.843706516      -0.02993772204    -0.08934687151    
1360007560        -0.1633122657     -0.1006442682     1.035500147       5.652950339       
                  1.035500147       5.652950339       -0.004285611819   0.101383676       
1445007470        0.0006551686071   0.1421548701      4.42231056        -3.540439604      
                  4.42231056        -3.540439604      0.1459532725      -0.08893157794    
1530007380        0.1855371312      -0.01182385411    -5.312884818      -2.196196941      
                  -5.312884818      -2.196196941      -0.06936772942    -0.0646629467     
1615007290        -0.09500948066    -0.1239737858     0.6141723319      5.613905251       
                  0.6141723319      5.613905251       0.02361182639     0.1425002757      
1700007200        -0.08864673188    0.09811498693     4.680332675       -3.24219424       
                  4.680332675       -3.24219424       0.110151004       -0.1341048368     
1785007110        0.1285256979      0.03164182524     -5.065523824      -2.537619284      
                  -5.065523824      -2.537619284      -0.1317841251     -0.06344825478    
1870007020        -0.0220568408     -0.1369702616     0.2166990387      5.618257071       
                  0.2166990387      5.618257071       0.06590750742     0.1323229031      
1955006930        -0.1076735202     0.0213454911      4.885494056       -2.883558813      
                  4.885494056       -2.883558813      0.08902352309     -0.1936716029     
2040006840        0.08424126107     0.03945556512     -4.828919773      -2.820983247      
                  -4.828919773      -2.820983247      -0.1550428374     -0.04183070539    
2125006750        0.0365229648      -0.09380571691    -0.19893396       5.643435423       
                  -0.19893396       5.643435423       0.1303882893      0.1366048101      
2210006660        -0.09378220304    -0.0007996390511  4.984010483       -2.531835628      
                  4.984010483       -2.531835628      0.04839559198     -0.2173521471     
2295006570        0.0298032797      0.03802503418     -4.597397816      -3.153718219      
                  -4.597397816      -3.153718219      -0.1864190406     0.01613532772     
2380006480        0.02944279786     -0.0529095657     -0.5644363936     5.579310906       
                  -0.5644363936     5.579310906       0.1674031726      0.1144050646      
2465006390        -0.08901779336    -0.01663502374    5.057988271       -2.209871331      
                  5.057988271       -2.209871331      -0.0192437773     -0.2588944827     
2550006300        0.01212240066     0.003009281979    -4.288379669      -3.493497339      
                  -4.288379669      -3.493497339      -0.1909177669     0.06089961856     
2635006210        0.02680991409     -0.04560444886    -0.9068693447     5.519852001       
                  -0.9068693447     5.519852001       0.2133941667      0.06385821552     
2720006120        -0.0826794271     -0.01101421895    5.136501794       -1.840867368      
                  5.136501794       -1.840867368      -0.09041704331    -0.2644855696     
2805006030        0.01765359671     0.0006919174322   -4.005766776      -3.742798528      
                  -4.005766776      -3.742798528      -0.163167233      0.1236174992      
2890005940        0.02278605435     -0.03633887157    -1.248815481      5.40256216        
                  -1.248815481      5.40256216        0.2322979813      0.009047516123    
2975005850        -0.09456013671    -0.00956971857    5.168992149       -1.380424067      
                  5.168992149       -1.380424067      -0.1624475851     -0.2456841729     
3060005760        0.01834605007     0.01031169041     -3.70485768       -4.085001436      
                  -3.70485768       -4.085001436      -0.119113162      0.1690345707      
3145005670        0.03686005503     -0.04280305371    -1.642199124      5.245870025       
                  -1.642199124      5.245870025       0.2315374085      -0.07238786959    
3230005580        -0.1018935645     -0.03412902673    5.281169422       -0.9859686957     
                  5.281169422       -0.9859686957     -0.2275027122     -0.2070922581     
3315005490        0.01053521451     0.03162473884     -3.436292953      -4.309433252      
                  -3.436292953      -4.309433252      -0.04619053357    0.2015317659      
3400005400        0.06172683544     -0.02811143341    -1.999495533      5.077249133       
                  -1.999495533      5.077249133       0.2013359554      -0.1450191111     
3485005310        -0.09747899968    -0.06416505382    5.381543496       -0.6134375848     
                  5.381543496       -0.6134375848     -0.2830282925     -0.1295409268     
3570005220        -0.02018139512    0.04946275585     -3.252524089      -4.501992101      
                  -3.252524089      -4.501992101      0.03402935292     0.2104667177      
3655005130        0.069866244       0.004490233466    -2.196232089      4.950808939       
                  -2.196232089      4.950808939       0.1349673424      -0.2084313748     
3740005040        -0.07601763172    -0.09261938355    5.372428543       -0.2568582429     
                  5.372428543       -0.2568582429     -0.3119172637     -0.03934453029    
3825004950        -0.05846063068    0.0364463471      -2.980410314      -4.643268857      
                  -2.980410314      -4.643268857      0.1131740933      0.1760036938      
3910004860        0.06456257381     0.03787898561     -2.620363457      4.729221705       
                  -2.620363457      4.729221705       0.0502814526      -0.2594522103     
3995004770        -0.03153852457    -0.1110861164     5.407986272       0.06912700552     
                  5.407986272       0.06912700552     -0.3045946737     0.0653148665      
4080004680        -0.08499845628    0.007386253576    -2.70547036       -4.81212292       
                  -2.70547036       -4.81212292       0.1908604198      0.12735023        
4165004590        0.03974323802     0.07075067843     -2.878442599      4.590223166       
                  -2.878442599      4.590223166       -0.04678743932    -0.2711403026     
4250004500        0.01069688244     -0.08738290143    5.493516476       0.3068981138      
                  5.493516476       0.3068981138      -0.2648801985     0.1757907762      
4335004410        -0.1016498852     -0.02028164501    -2.45435658       -4.921440001      
                  -2.45435658       -4.921440001      0.2297063827      0.04356015771     
4420004320        -0.008677916702   0.08252401016     -3.081014306      4.477175665       
                  -3.081014306      4.477175665       -0.1630479734     -0.2505752738     
4505004230        0.03791662337     -0.05609667854    5.445385372       0.4914025101      
                  5.445385372       0.4914025101      -0.1961027578     0.2589343293      
4590004140        -0.09968808249    -0.05269330338    -2.185018232      -4.962328215      
                  -2.185018232      -4.962328215      0.2292358262      -0.05803507911    
4675004050        -0.045027149      0.07022465684     -3.180523117      4.360738067       
                  -3.180523117      4.360738067       -0.2555526397     -0.1910891256     
4760003960        0.0573268668      -0.01596891416    5.298960347       0.7294574655      
                  5.298960347       0.7294574655      -0.08595046261    0.311037686       
4845003870        -0.07591803999    -0.06730833926    -1.937967834      -5.012078042      
                  -1.937967834      -5.012078042      0.1988576102      -0.1552191946     
4930003780        -0.07707250707    0.0403239006      -3.368683013      4.184807967       
                  -3.368683013      4.184807967       -0.3189968991     -0.09976993657    
5015003690        0.04924135036     0.03850242213     5.17537951        0.9681654311      
                  5.17537951        0.9681654311      0.03585255441     0.3344090373      
5100003600        -0.05166400753    -0.05481864442    -1.765836543      -5.089315925      
                  -1.765836543      -5.089315925      0.1186824476      -0.229687514      
5185003510        -0.0909100998     0.003163111192    -3.422888502      3.9595385         
                  -3.422888502      3.9595385         -0.3500335855     0.01192044428     
5270003420        0.01430798912     0.07197133026     5.037003099       1.199857639       
                  5.037003099       1.199857639       0.1496942229      0.2986297493      
5355003330        -0.04248735503    -0.02192000714    -1.65280198       -5.151174669      
                  -1.65280198       -5.151174669      -0.002435305146   -0.279284177      
5440003240        -0.07115108376    -0.03968897544    -3.365914442      3.793940257       
                  -3.365914442      3.793940257       -0.3183074034     0.1327611761      
5525003150        -0.01948713297    0.06015355542     5.02580883        1.316409532       
                  5.02580883        1.316409532       0.2689763212      0.2004689616      
5610003060        -0.03969407222    0.02868408494     -1.598667204      -4.992458901      
                  -1.598667204      -4.992458901      -0.1370870206     -0.26755193       
5695002970        -0.01302645715    -0.0428670105     -3.368341294      3.576779534       
                  -3.368341294      3.576779534       -0.2214826668     0.2525282225      
5780002880        -0.02595568376    0.02251126477     4.977440208       1.412070818       
                  4.977440208       1.412070818       0.32898388        0.05854256848     
5865002790        -0.07747767718    0.07641892629     -1.498235969      -4.72774015       
                  -1.498235969      -4.72774015       -0.2725454261     -0.1856231693     
5950002700        0.03630436954     0.005331133554    -3.400791826      3.368944498       
                  -3.400791826      3.368944498       -0.08271548264    0.3325009832      
6035002610        -0.01870517507    -0.0403358392     4.76165382        1.301551264       
                  4.76165382        1.301551264       0.2979452004      -0.09821681219    
6120002520        -0.1458400322     0.07374552592     -1.384747196      -4.471441732      
                  -1.384747196      -4.471441732      -0.3584031227     -0.0458642229     
6205002430        0.07231992415     0.08850520007     -3.290168512      3.170446176       
                  -3.290168512      3.170446176       0.1026968316      0.3374064904      
6290002340        0.06163980592     -0.09212167245    4.541410063       1.156917263       
                  4.541410063       1.156917263       0.1943251116      -0.2497413358     
6375002250        -0.2170484022     0.009142538118    -1.286594672      -4.168299321      
                  -1.286594672      -4.168299321      -0.3759530776     0.1302815313      
6460002160        0.02907980422     0.207299906       -3.023908579      2.953388988       
                  -3.023908579      2.953388988       0.2696791959      0.2712604454      
6545002070        0.1747953264      -0.05871093504    4.10103909        1.064546212       
                  4.10103909        1.064546212       0.02938220784     -0.3167593373     
6630001980        -0.2065747868     -0.1104951208     -1.127045536      -3.833988881      
                  -1.127045536      -3.833988881      -0.2975219171     0.2997987026      
6715001890        -0.07144995474    0.2722754804      -2.707053457      2.628703938       
                  -2.707053457      2.628703938       0.3799490082      0.1529735203      
6800001800        0.2658856287      0.05018026884     3.621216173       1.089937666       
                  3.621216173       1.089937666       -0.1320977341     -0.3073189259     
6885001710        -0.1040719867     -0.2418994066     -0.8558062799     -3.484729398      
                  -0.8558062799     -3.484729398      -0.1827233695     0.3821756789      
6970001620        -0.2051052827     0.2320689392      -2.616322597      2.243086952       
                  -2.616322597      2.243086952       0.4209171751      0.02136075445     
7055001530        0.261223775       0.2064098832      3.220215844       1.239247964       
                  3.220215844       1.239247964       -0.2562787736     -0.2724029052     
7140001440        0.08040358613     -0.2997368672     -0.5275991765     -3.217067732      
                  -0.5275991765     -3.217067732      -0.06794957264    0.4480701694      
7225001350        -0.2936086156     0.09233081337     -2.559277988      1.880029089       
                  -2.559277988      1.880029089       0.4476397941      -0.1046022659     
7310001260        0.1727857459      0.339366928       2.843719116       1.130162854       
                  2.843719116       1.130162854       -0.3524141755     -0.1852499487     
7395001170        0.2851811888      -0.2294459359     -0.2718526306     -2.945274758      
                  -0.2718526306     -2.945274758      0.08312172808     0.4770698888      
7480001080        -0.2974377555     -0.1083508067     -2.405034612      1.630633047       
                  -2.405034612      1.630633047       0.3943554719      -0.2380784012     
7565000990        -0.03104857893    0.4021890169      2.628845792       1.161818694       
                  2.628845792       1.161818694       -0.426948288      -0.08340456415    
7650000900        0.4016101748      -0.0564457566     -0.05099882402    -2.616937736      
                  -0.05099882402    -2.616937736      0.2107064577      0.4403831644      
7735000810        -0.1607853238     -0.3074932382     -2.297442344      1.345391683       
                  -2.297442344      1.345391683       0.3157675703      -0.3463541764     
7820000720        -0.2055396845     0.3170821137      2.276382974       1.236173002       
                  2.276382974       1.236173002       -0.4033458086     0.02600244449     
7905000630        0.4152541476      0.1377646346      0.08995461645     -2.302602476      
                  0.08995461645     -2.302602476      0.3249890658      0.3639312455      
7990000540        0.06525292161     -0.3901138794     -2.218300811      0.9307395567      
                  -2.218300811      0.9307395567      0.2216972588      -0.4081041954     
8075000450        -0.3507542322     0.1188946268      1.906223961       1.434170482       
                  1.906223961       1.434170482       -0.3865212297     0.1184293463      
8160000360        0.298132736       0.3132338136      0.2485359269      -2.182764252      
                  0.2485359269      -2.182764252      0.3983953025      0.2785265071      
8245000270        0.2545226191      -0.3327776307     -2.02274095       0.6144599797      
                  -2.02274095       0.6144599797      0.1148216286      -0.4386305948     
8330000180        -0.3604926626     -0.1278883421     1.618880374       1.482194912       
                  1.618880374       1.482194912       -0.3378552953     0.1917391861      
8415000090        0.07736260892     0.3916688785      0.3967008606      -1.983319182      
                  0.3967008606      -1.983319182      0.4367537402      0.1705465015      
8500000000        0.3856202338      -0.1823236612     -1.828411218      0.4341440711      
                  -1.828411218      0.4341440711      -0.0006863279415  -0.4608286075     
