! RsaToolbox (C) 2013 Rohde & Schwarz America
! 
! Number of points: 101
! Number of ports: 2
! Balanced ports?: 0
! 
! 
# Hz S RI R 50
9000              1.014237468       -0.01901255344    6.288281438e-05   -1.639916852e-05  
                  6.288281438e-05   -1.639916852e-05  1.018850424       -0.02596193045    
85008910          0.002455746023    0.1588992184      3.195912517       5.510495323       
                  3.195912517       5.510495323       -0.09226058313    -0.1154731646     
170008820         0.1422108624      -0.04420273266    3.190539565       -5.226545105      
                  3.190539565       -5.226545105      -0.02039010944    0.1715539874      
255008730         -0.1759984108     -0.07583097574    -6.059512706      -0.1650919088     
                  -6.059512706      -0.1650919088     0.07769630605     -0.02632859876    
340008640         -0.06339444338    0.1698107169      2.654646864       5.35528891        
                  2.654646864       5.35528891        -0.1264762382     -0.05357239632    
425008550         0.1594925777      -0.04631850699    3.387805559       -4.871266478      
                  3.387805559       -4.871266478      0.01670435302     0.102874903       
510008460         -0.1015853055     -0.1632877481     -5.906823841      -0.6437495044     
                  -5.906823841      -0.6437495044     0.07078666599     -0.07966600783    
595008370         -0.1074355847     0.139914957       2.235194702       5.424425316       
                  2.235194702       5.424425316       -0.08380927716    -0.0119377476     
680008280         0.2042857526      0.03394356803     3.661738666       -4.577857316      
                  3.661738666       -4.577857316      0.09228744015     0.0753183179      
765008190         0.009374285393    -0.1636002602     -5.73402083       -1.10035848       
                  -5.73402083       -1.10035848       0.0602787904      -0.06056428376    
850008100         -0.1818267024     0.1115179398      1.871885154       5.522965029       
                  1.871885154       5.522965029       -0.07168777901    0.06504195551     
935008010         0.1457264566      0.1235238824      3.945343108       -4.233715998      
                  3.945343108       -4.233715998      0.1020243002      0.03881328699     
1020007920        0.07549996409     -0.1539298112     -5.589988696      -1.445791092      
                  -5.589988696      -1.445791092      -0.004658558064   -0.07556507644    
1105007830        -0.2252591996     -0.008233703188   1.48330705        5.616094004       
                  1.48330705        5.616094004       -0.06303278156    0.07504492171     
1190007740        0.07131106418     0.1401969092      4.193048767       -3.859814834      
                  4.193048767       -3.859814834      0.1241535127      -0.0426519969     
1275007650        0.1642699948      -0.1087093948     -5.469314779      -1.828132721      
                  -5.469314779      -1.828132721      -0.03021874039    -0.08917235216    
1360007560        -0.163600136      -0.1005035103     1.047280341       5.642732038       
                  1.047280341       5.642732038       -0.005416100571   0.1017379775      
1445007470        0.0005649322686   0.1420355739      4.410323669       -3.545647113      
                  4.410323669       -3.545647113      0.1470834576      -0.08835684545    
1530007380        0.1845045915      -0.011381034      -5.307733705      -2.185959398      
                  -5.307733705      -2.185959398      -0.06914991009    -0.06470063383    
1615007290        -0.09417035074    -0.1239314991     0.6216511127      5.601472505       
                  0.6216511127      5.601472505       0.02323940576     0.1420087099      
1700007200        -0.08855384921    0.09716142013     4.667376245       -3.244289053      
                  4.667376245       -3.244289053      0.1107790799      -0.1333976166     
1785007110        0.1281557873      0.03181906763     -5.064666585      -2.527315296      
                  -5.064666585      -2.527315296      -0.131715042      -0.06407894068    
1870007020        -0.02183128095    -0.1360402019     0.2259964516      5.606309156       
                  0.2259964516      5.606309156       0.0659115565      0.1320012469      
1955006930        -0.1068653248     0.02157491813     4.874788523       -2.88987625       
                  4.874788523       -2.88987625       0.08899882098     -0.1938620221     
2040006840        0.08289749825     0.03897559311     -4.828215078      -2.812243539      
                  -4.828215078      -2.812243539      -0.1546350805     -0.04161151945    
2125006750        0.03615215876     -0.09293920411    -0.1896331035     5.636441219       
                  -0.1896331035     5.636441219       0.131145768       0.1369346681      
2210006660        -0.09232195286    -0.0008504500512  4.970083488       -2.535981983      
                  4.970083488       -2.535981983      0.04765515584     -0.2180916227     
2295006570        0.02954698319     0.03650174935     -4.595838086      -3.141235307      
                  -4.595838086      -3.141235307      -0.1858687621     0.0156486248      
2380006480        0.0288904061      -0.05247304737    -0.5534233612     5.571898443       
                  -0.5534233612     5.571898443       0.1669600299      0.1139434678      
2465006390        -0.08758422792    -0.01640023011    5.049566881       -2.215657323      
                  5.049566881       -2.215657323      -0.01986284902    -0.2594029175     
2550006300        0.0114253495      0.001076929287    -4.288777009      -3.480350883      
                  -4.288777009      -3.480350883      -0.1908378268     0.06047332213     
2635006210        0.02546769751     -0.04498705916    -0.8937783451     5.515104409       
                  -0.8937783451     5.515104409       0.2134812337      0.06423148196     
2720006120        -0.08256887473    -0.01060403923    5.124890059       -1.844474078      
                  5.124890059       -1.844474078      -0.09051016157    -0.2643017376     
2805006030        0.01777320706     3.238107768e-05   -4.004084962      -3.728266696      
                  -4.004084962      -3.728266696      -0.1630171946     0.1234406351      
2890005940        0.02114999202     -0.03699972061    -1.232147477      5.390912068       
                  -1.232147477      5.390912068       0.2321223695      0.008964983227    
2975005850        -0.09498808087    -0.007693816722   5.156237327       -1.387502151      
                  5.156237327       -1.387502151      -0.1622305538     -0.2474247052     
3060005760        0.01863564436     0.01000776711     -3.703834876      -4.07039522       
                  -3.703834876      -4.07039522       -0.1190138368     0.1687998473      
3145005670        0.03602158869     -0.04483725746    -1.629107174      5.237111022       
                  -1.629107174      5.237111022       0.2316355405      -0.07148370559    
3230005580        -0.1018906356     -0.03261495511    5.265572093       -0.9842747589     
                  5.265572093       -0.9842747589     -0.2269626458     -0.2077311761     
3315005490        0.01176188448     0.03169866255     -3.430176522      -4.296856705      
                  -3.430176522      -4.296856705      -0.04601176877    0.2027329026      
3400005400        0.06114425438     -0.02942004862    -1.984952737      5.071806483       
                  -1.984952737      5.071806483       0.201685888       -0.1452076178     
3485005310        -0.09818610114    -0.06370377817    5.36550996        -0.6194051658     
                  5.36550996        -0.6194051658     -0.2820165739     -0.129577504      
3570005220        -0.01973891213    0.04959404578     -3.252219288      -4.484758241      
                  -3.252219288      -4.484758241      0.03373120989     0.2107371165      
3655005130        0.06915403117     0.003310746245    -2.179582264      4.936999969       
                  -2.179582264      4.936999969       0.1343928802      -0.2087989567     
3740005040        -0.07796849422    -0.0933730435     5.354754824       -0.2631618147     
                  5.354754824       -0.2631618147     -0.3121369618     -0.03962668345    
3825004950        -0.05867940736    0.0378980801      -2.977533083      -4.618740658      
                  -2.977533083      -4.618740658      0.1133997544      0.1760480875      
3910004860        0.06421200189     0.03693602732     -2.598991134      4.714133903       
                  -2.598991134      4.714133903       0.05009718891     -0.2591223785     
3995004770        -0.03173396004    -0.1118483922     5.385248979       0.05893539762     
                  5.385248979       0.05893539762     -0.3053071797     0.06534807067     
4080004680        -0.08477974481    0.008618622486    -2.702365458      -4.789023438      
                  -2.702365458      -4.789023438      0.190351455       0.1286743705      
4165004590        0.04024453595     0.07000761767     -2.863754858      4.574636866       
                  -2.863754858      4.574636866       -0.0465750967     -0.2716813584     
4250004500        0.01116263072     -0.08887929471    5.471718313       0.305455257       
                  5.471718313       0.305455257       -0.265583279      0.1756805881      
4335004410        -0.1021393524     -0.01900309669    -2.445125784      -4.897348799      
                  -2.445125784      -4.897348799      0.2296995254      0.04460196288     
4420004320        -0.006668131889   0.08399487084     -3.06294499       4.459993097       
                  -3.06294499       4.459993097       -0.1639232291     -0.250759879      
4505004230        0.03806905026     -0.05778685542    5.419641842       0.4837924634      
                  5.419641842       0.4837924634      -0.1966506652     0.2590260162      
4590004140        -0.1009176413     -0.05143306537    -2.180169718      -4.931854722      
                  -2.180169718      -4.931854722      0.2295575297      -0.05769809763    
4675004050        -0.04443335624    0.07107725165     -3.158928162      4.341144915       
                  -3.158928162      4.341144915       -0.255459723      -0.191193597      
4760003960        0.0576909022      -0.01691806487    5.269442492       0.717277036       
                  5.269442492       0.717277036       -0.0859994454     0.3112453631      
4845003870        -0.07766245417    -0.06862196093    -1.931347882      -4.980125836      
                  -1.931347882      -4.980125836      0.2003454459      -0.1549538758     
4930003780        -0.07612575567    0.04196859416     -3.341458345      4.157889558       
                  -3.341458345      4.157889558       -0.3195023276     -0.09920039423    
5015003690        0.05087296646     0.03697211964     5.140619184       0.964607572       
                  5.140619184       0.964607572       0.0356887842      0.3345899323      
5100003600        -0.05292691805    -0.05718185051    -1.758637296      -5.049451673      
                  -1.758637296      -5.049451673      0.1195956483      -0.2291834604     
5185003510        -0.0913383683     0.005437815408    -3.395008222      3.934139993       
                  -3.395008222      3.934139993       -0.3496617633     0.01146376739     
5270003420        0.01577363862     0.07133308811     5.004189726       1.190209854       
                  5.004189726       1.190209854       0.1499130627      0.2995037025      
5355003330        -0.04270408071    -0.02383345951    -1.64380902       -5.108350503      
                  -1.64380902       -5.108350503      -0.002231793487   -0.2789282463     
5440003240        -0.07244207314    -0.03820500634    -3.341729041      3.767560789       
                  -3.341729041      3.767560789       -0.3194296743     0.1322413124      
5525003150        -0.0171029633     0.06122176315     4.986131979       1.30495938        
                  4.986131979       1.30495938        0.2689755561      0.2014818423      
5610003060        -0.03853028102    0.02605270722     -1.587120577      -4.949551165      
                  -1.587120577      -4.949551165      -0.1367624661     -0.2676606929     
5695002970        -0.01535916923    -0.04256484496    -3.341511759      3.550403662       
                  -3.341511759      3.550403662       -0.2211934197     0.2529230169      
5780002880        -0.02515304555    0.02471148465     4.934834348       1.397480769       
                  4.934834348       1.397480769       0.3293868079      0.05780798114     
5865002790        -0.07580097842    0.07438000682     -1.486075168      -4.689075171      
                  -1.486075168      -4.689075171      -0.2717624114     -0.1855184751     
5950002700        0.03463172        0.004913476095    -3.375396178      3.342290667       
                  -3.375396178      3.342290667       -0.08272509427    0.3327768917      
6035002610        -0.01837415834    -0.03722707797    4.720733866       1.295495686       
                  4.720733866       1.295495686       0.2983658307      -0.0973904815     
6120002520        -0.1431442984     0.07262396607     -1.368089381      -4.433964501      
                  -1.368089381      -4.433964501      -0.3586556652     -0.045381296      
6205002430        0.06968090247     0.08726522932     -3.264831758      3.136051708       
                  -3.264831758      3.136051708       0.1018888666      0.3373789327      
6290002340        0.05994714388     -0.08892956137    4.496911882       1.15999076        
                  4.496911882       1.15999076        0.1953384449      -0.2472629106     
6375002250        -0.2133072783     0.008048083828    -1.267529374      -4.143391388      
                  -1.267529374      -4.143391388      -0.3761810879     0.1298766149      
6460002160        0.02875103778     0.2047407904      -3.023394106      2.938487624       
                  -3.023394106      2.938487624       0.2707469871      0.2724717715      
6545002070        0.1751358475      -0.05838709402    4.096581872       1.064868744       
                  4.096581872       1.064868744       0.02858048993     -0.3201995085     
6630001980        -0.2054345428     -0.1102412017     -1.124145171      -3.840456589      
                  -1.124145171      -3.840456589      -0.2982814327     0.3023797865      
6715001890        -0.07197719987    0.2733857985      -2.724549452      2.622372247       
                  -2.724549452      2.622372247       0.3834610325      0.1565283029      
6800001800        0.2644320577      0.05605312543     3.615436718       1.124394321       
                  3.615436718       1.124394321       -0.1314237509     -0.3089041059     
6885001710        -0.1018243642     -0.2395168256     -0.8121199078     -3.494512314      
                  -0.8121199078     -3.494512314      -0.1880808175     0.3879287304      
6970001620        -0.2092691288     0.2323638107      -2.635664921      2.216914189       
                  -2.635664921      2.216914189       0.4233209322      0.02338020515     
7055001530        0.2616375736      0.2076891119      3.214355856       1.242685624       
                  3.214355856       1.242685624       -0.2570001518     -0.2710534639     
7140001440        0.08203657628     -0.2986069079     -0.5358295284     -3.22409003       
                  -0.5358295284     -3.22409003       -0.063311554      0.4536788347      
7225001350        -0.2959189136     0.09541272205     -2.57692762       1.891945847       
                  -2.57692762       1.891945847       0.4528429828      -0.1037100475     
7310001260        0.1692425641      0.3468594402      2.859643848       1.162599675       
                  2.859643848       1.162599675       -0.3585467003     -0.1845555892     
7395001170        0.2848782357      -0.2261625896     -0.2425932256     -2.96192237       
                  -0.2425932256     -2.96192237       0.07710626801     0.4818911626      
7480001080        -0.2977785873     -0.111311576      -2.41309456       1.606517439       
                  -2.41309456       1.606517439       0.395052662       -0.2374209134     
7565000990        -0.03183126738    0.3990779498      2.610723666       1.16526967        
                  2.610723666       1.16526967        -0.4246864051     -0.0843759386     
7650000900        0.4002617767      -0.0557384696     -0.05131645004    -2.607469685      
                  -0.05131645004    -2.607469685      0.2122297451      0.4385563188      
7735000810        -0.1603375655     -0.3066249617     -2.295885176      1.342711814       
                  -2.295885176      1.342711814       0.3175756544      -0.3461090228     
7820000720        -0.2074565041     0.3168117567      2.27375539        1.242883309       
                  2.27375539        1.242883309       -0.4059621977     0.02502655179     
7905000630        0.4138599171      0.1391949561      0.09940672317     -2.29852884       
                  0.09940672317     -2.29852884       0.32407616        0.36230093        
7990000540        0.06650305889     -0.3903404004     -2.215065149      0.9218764334      
                  -2.215065149      0.9218764334      0.2219069605      -0.4070818331     
8075000450        -0.3503349874     0.1196539703      1.9039213         1.435239098       
                  1.9039213         1.435239098       -0.3876874322     0.1189164537      
8160000360        0.2974583334      0.3133120598      0.2542139778      -2.188565894      
                  0.2542139778      -2.188565894      0.399458842       0.2801122457      
8245000270        0.2577326503      -0.3367596511     -2.039337533      0.6130512877      
                  -2.039337533      0.6130512877      0.1142856391      -0.444163647      
8330000180        -0.3657704774     -0.1327199251     1.63515735        1.500185552       
                  1.63515735        1.500185552       -0.343384274      0.1935036107      
8415000090        0.07805704171     0.3928786407      0.3863097519      -1.996182967      
                  0.3863097519      -1.996182967      0.435887497       0.1669072048      
8500000000        0.3829152973      -0.1856280979     -1.831580346      0.4447789003      
                  -1.831580346      0.4447789003      -0.004647525086   -0.4600172792     
