! RsaToolbox (C) 2013 Rohde & Schwarz America
! 
! Number of points: 101
! Number of ports: 2
! Balanced ports?: 0
! 
! 
# Hz S RI R 50
9000              1.009012533       -0.01670614675    4.638296646e-05   -1.904689047e-05  
                  4.638296646e-05   -1.904689047e-05  1.018586711       -0.02500270323    
85008910          0.002077124222    0.1582788641      3.194161961       5.497322515       
                  3.194161961       5.497322515       -0.09227840543    -0.1156373144     
170008820         0.1418445542      -0.04366055303    3.182533057       -5.220993744      
                  3.182533057       -5.220993744      -0.02037215448    0.1715508561      
255008730         -0.1755071114     -0.07563184574    -6.053643783      -0.1623514187     
                  -6.053643783      -0.1623514187     0.07769844155     -0.02668656588    
340008640         -0.0635669849     0.1691684961      2.654536996       5.348594116       
                  2.654536996       5.348594116       -0.1265992148     -0.05391180013    
425008550         0.1588329881      -0.0461749728     3.381173163       -4.869924863      
                  3.381173163       -4.869924863      0.01673884929     0.1027895019      
510008460         -0.1014921751     -0.1628886774     -5.903216925      -0.6377284174     
                  -5.903216925      -0.6377284174     0.07084180821     -0.07966688971    
595008370         -0.1071282487     0.1391655049      2.234090157       5.420231147       
                  2.234090157       5.420231147       -0.08381254035    -0.01222037375    
680008280         0.2037390134      0.03392998975     3.655448712       -4.577498854      
                  3.655448712       -4.577498854      0.09225514625     0.07535296892     
765008190         0.009568101584    -0.1630800289     -5.730028196      -1.095053686      
                  -5.730028196      -1.095053686      0.0602243585      -0.0606528458     
850008100         -0.1814193114     0.1111681924      1.876514685       5.51779326        
                  1.876514685       5.51779326        -0.07161882327    0.06509795789     
935008010         0.1451275963      0.1231991348      3.938277753       -4.232863602      
                  3.938277753       -4.232863602      0.1022169054      0.03884286581     
1020007920        0.07532916734     -0.1532613561     -5.585495796      -1.440012145      
                  -5.585495796      -1.440012145      -0.004692787825   -0.07566579068    
1105007830        -0.2247106365     -0.008446558896   1.491732414       5.60842453        
                  1.491732414       5.60842453        -0.06292490474    0.07504109364     
1190007740        0.07108952482     0.1396349788      4.184475769       -3.860718035      
                  4.184475769       -3.860718035      0.1243502924      -0.04251088951    
1275007650        0.1638382111      -0.1081405714     -5.465912729      -1.82003473       
                  -5.465912729      -1.82003473       -0.03010799751    -0.08923637677    
1360007560        -0.1627945257     -0.1003245982     1.0524078         5.63583667        
                  1.0524078         5.63583667        -0.005543195925   0.1017938485      
1445007470        0.0004919841859   0.1412577198      4.401593641       -3.545129904      
                  4.401593641       -3.545129904      0.1472339563      -0.08834752487    
1530007380        0.1838040493      -0.01112221832    -5.304630319      -2.176263489      
                  -5.304630319      -2.176263489      -0.06930183785    -0.06455422333    
1615007290        -0.0936842931     -0.1232397548     0.6284547738      5.594594586       
                  0.6284547738      5.594594586       0.02320866613     0.1420681647      
1700007200        -0.08802803863    0.09641761938     4.657320374       -3.246558689      
                  4.657320374       -3.246558689      0.1108623645      -0.1335551912     
1785007110        0.1272009896      0.0316378445      -5.062194008      -2.516353598      
                  -5.062194008      -2.516353598      -0.1318173015     -0.06404022798    
1870007020        -0.02164949284    -0.1349659939     0.2350685175      5.599679698       
                  0.2350685175      5.599679698       0.06566398331     0.1321009265      
1955006930        -0.105935732      0.02088792164     4.864105685       -2.894163855      
                  4.864105685       -2.894163855      0.08927069726     -0.1938769233     
2040006840        0.08192579911     0.03833613395     -4.825388169      -2.800026966      
                  -4.825388169      -2.800026966      -0.1547059938     -0.04179383306    
2125006750        0.035891795       -0.0919712152     -0.1795954075     5.626723698       
                  -0.1795954075     5.626723698       0.1309519863      0.1367868748      
2210006660        -0.09106624007    -0.0008701071614  4.957325742       -2.539489763      
                  4.957325742       -2.539489763      0.04776031666     -0.2180008792     
2295006570        0.0289759405      0.03547198653     -4.592984773      -3.127820942      
                  -4.592984773      -3.127820942      -0.1862341391     0.01538190765     
2380006480        0.02800274607     -0.05176154142    -0.5432706918     5.563023336       
                  -0.5432706918     5.563023336       0.1669886134      0.1139454271      
2465006390        -0.08660240104    -0.01575467442    5.034024577       -2.221904138      
                  5.034024577       -2.221904138      -0.01965543991    -0.259515765      
2550006300        0.01170476195     -0.0002918075584  -4.283044868      -3.464961879      
                  -4.283044868      -3.464961879      -0.190849035      0.06060410875     
2635006210        0.0240731894      -0.04453064041    -0.8781226684     5.503867799       
                  -0.8781226684     5.503867799       0.2134946417      0.06432188117     
2720006120        -0.08150716811    -0.009560598534   5.10792467        -1.849830929      
                  5.10792467        -1.849830929      -0.0904911519     -0.2644835772     
2805006030        0.01833077126     -0.001369720345   -3.998351651      -3.710801916      
                  -3.998351651      -3.710801916      -0.1629481979     0.1234399334      
2890005940        0.01960478313     -0.03703187732    -1.214411912      5.378254051       
                  -1.214411912      5.378254051       0.2321537498      0.009130453318    
2975005850        -0.09464263754    -0.006479931615   5.139126793       -1.392664832      
                  5.139126793       -1.392664832      -0.1623224454     -0.2474380106     
3060005760        0.01985826651     0.009040508955    -3.701887673      -4.051491614      
                  -3.701887673      -4.051491614      -0.1190062919     0.1686836467      
3145005670        0.03477588639     -0.04578489181    -1.611908718      5.225064255       
                  -1.611908718      5.225064255       0.231792574       -0.07148955409    
3230005580        -0.1023430128     -0.03128159859    5.2461786         -0.9915673619     
                  5.2461786         -0.9915673619     -0.227005408      -0.2080235262     
3315005490        0.01343325542     0.03183956213     -3.429705243      -4.274432563      
                  -3.429705243      -4.274432563      -0.04605025542    0.2027424377      
3400005400        0.06032592784     -0.03120549959    -1.962792375      5.056862425       
                  -1.962792375      5.056862425       0.2017490453      -0.1449257485     
3485005310        -0.09938031461    -0.06231034366    5.343399069       -0.628595475      
                  5.343399069       -0.628595475      -0.2821400087     -0.1298422416     
3570005220        -0.01818258494    0.05020292056     -3.250630399      -4.458646041      
                  -3.250630399      -4.458646041      0.03352508378     0.2110298484      
3655005130        0.06916175642     0.001348444558    -2.15511763       4.922647373       
                  -2.15511763       4.922647373       0.1346989725      -0.2086403451     
3740005040        -0.0792331277     -0.09277562231    5.331699591       -0.2777312284     
                  5.331699591       -0.2777312284     -0.3122010896     -0.03954780588    
3825004950        -0.05749940328    0.03924475369     -2.982258969      -4.584143887      
                  -2.982258969      -4.584143887      0.1135048998      0.1761829103      
3910004860        0.06576850635     0.0353191443      -2.569369537      4.700571406       
                  -2.569369537      4.700571406       0.05054685652     -0.2589610909     
3995004770        -0.03349538372    -0.1120956701     5.357554183       0.03858332255     
                  5.357554183       0.03858332255     -0.3053014266     0.06522421088     
4080004680        -0.08463135577    0.01109135778     -2.704824629      -4.754487898      
                  -2.704824629      -4.754487898      0.1907013261      0.1283973526      
4165004590        0.04248621969     0.06914042762     -2.835678248      4.55744607        
                  -2.835678248      4.55744607        -0.04638139468    -0.2717030204     
4250004500        0.009265733401    -0.09053203482    5.441013182       0.2857950864      
                  5.441013182       0.2857950864      -0.2657862597     0.1756009338      
4335004410        -0.1031609752     -0.0165811875     -2.449149535      -4.857867511      
                  -2.449149535      -4.857867511      0.2298907301      0.04471491558     
4420004320        -0.003764587163   0.08378393259     -3.027971326      4.443802205       
                  -3.027971326      4.443802205       -0.1638320351     -0.2507998637     
4505004230        0.03701081159     -0.06059256438    5.384546347       0.4570951647      
                  5.384546347       0.4570951647      -0.1966798472     0.2588529171      
4590004140        -0.1033417223     -0.04940383829    -2.186753679      -4.88693327       
                  -2.186753679      -4.88693327       0.2295931762      -0.05767821065    
4675004050        -0.0415499189     0.07276422665     -3.115627066      4.323916839       
                  -3.115627066      4.323916839       -0.2553912353     -0.1913291222     
4760003960        0.05793619601     -0.02054725188    5.231151066       0.6876484486      
                  5.231151066       0.6876484486      -0.08653247243    0.3111256927      
4845003870        -0.08096544937    -0.06786760864    -1.939306092      -4.929746408      
                  -1.939306092      -4.929746408      0.2003797203      -0.1549068587     
4930003780        -0.07410817054    0.0449851368      -3.291429249      4.137341609       
                  -3.291429249      4.137341609       -0.3194933748     -0.09965025745    
5015003690        0.05292013425     0.03367294537     5.101468275       0.926115943       
                  5.101468275       0.926115943       0.0356392895      0.3346841149      
5100003600        -0.05686534481    -0.05799538466    -1.770340635      -4.990722139      
                  -1.770340635      -4.990722139      0.119586384       -0.2292267765     
5185003510        -0.0906706909     0.00978845214     -3.339551013      3.912482984       
                  -3.339551013      3.912482984       -0.3497763783     0.0112966449      
5270003420        0.01934371624     0.06916048256     4.962440746       1.153927406       
                  4.962440746       1.153927406       0.1496246865      0.2997404853      
5355003330        -0.04615763684    -0.02701724902    -1.658766936      -5.036786572      
                  -1.658766936      -5.036786572      -0.002083644677   -0.2791328744     
5440003240        -0.07392279166    -0.03398564327    -3.28588409       3.744461741       
                  -3.28588409       3.744461741       -0.3195049899     0.1320378088      
5525003150        -0.01277644       0.06057587195     4.939246322       1.264757015       
                  4.939246322       1.264757015       0.2687127118      0.2016619118      
5610003060        -0.04040599758    0.02169003153     -1.59952387       -4.877114011      
                  -1.59952387       -4.877114011      -0.1364492583     -0.267918943      
5695002970        -0.0185279378     -0.03905290324    -3.279012036      3.529425363       
                  -3.279012036      3.529425363       -0.2214220142     0.2528626198      
5780002880        -0.02071417748    0.02619492951     4.882181984       1.352611971       
                  4.882181984       1.352611971       0.329549854       0.0579128149      
5865002790        -0.07524393924    0.06983669637     -1.493655127      -4.619996935      
                  -1.493655127      -4.619996935      -0.2721731894     -0.1854474866     
5950002700        0.0302388414      0.006689135922    -3.315856846      3.317287041       
                  -3.315856846      3.317287041       -0.08301978932    0.3331817048      
6035002610        -0.0150007474     -0.03370599363    4.663602187       1.252134137       
                  4.663602187       1.252134137       0.2986885701      -0.09743722392    
6120002520        -0.1407534235     0.06867972875     -1.370696829      -4.370132638      
                  -1.370696829      -4.370132638      -0.358437049      -0.04559268986    
6205002430        0.065140421       0.08697265532     -3.20927146       3.112250509       
                  -3.20927146       3.112250509       0.1020706163      0.3376304552      
6290002340        0.06125473358     -0.08439754755    4.440016511       1.124843389       
                  4.440016511       1.124843389       0.1951523814      -0.2479561603     
6375002250        -0.2096512369     0.005798256515    -1.26542163       -4.089524998      
                  -1.26542163       -4.089524998      -0.3761042989     0.1299012813      
6460002160        0.02528382174     0.2024930343      -2.978441555      2.9142212         
                  -2.978441555      2.9142212         0.2708318183      0.2723003694      
6545002070        0.1740919809      -0.05420435308    4.04681391        1.038141861       
                  4.04681391        1.038141861       0.02889285575     -0.3201945386     
6630001980        -0.2013971896     -0.1109675056     -1.118785146      -3.794224451      
                  -1.118785146      -3.794224451      -0.2987225335     0.3021969825      
6715001890        -0.07375877893    0.2702762765      -2.689861771      2.60131967        
                  -2.689861771      2.60131967        0.3839667994      0.1562222081      
6800001800        0.2619408131      0.05878776613     3.576573635       1.103613536       
                  3.576573635       1.103613536       -0.1314276935     -0.3088894167     
6885001710        -0.09851396768    -0.2383660112     -0.8084755463     -3.45787271       
                  -0.8084755463     -3.45787271       -0.1882315291     0.3879814756      
6970001620        -0.2090899389     0.2291799029      -2.609488274      2.199775889       
                  -2.609488274      2.199775889       0.4233244734      0.02348597873     
7055001530        0.2588902242      0.2088007931      3.187303674       1.227574869       
                  3.187303674       1.227574869       -0.2571491853     -0.2713740773     
7140001440        0.08386270102     -0.2964878942     -0.5328593389     -3.199866547      
                  -0.5328593389     -3.199866547      -0.06332421881    0.4540447817      
7225001350        -0.2952647941     0.09295516121     -2.557042925      1.878643564       
                  -2.557042925      1.878643564       0.4526117336      -0.1034070233     
7310001260        0.1669211721      0.3467162903      2.840971954       1.154398305       
                  2.840971954       1.154398305       -0.3588003677     -0.1857072928     
7395001170        0.2856426528      -0.2245059226     -0.2406592395     -2.943488018      
                  -0.2406592395     -2.943488018      0.07722908242     0.4820825557      
7480001080        -0.2963555411     -0.112994185      -2.396374028      1.594956504       
                  -2.396374028      1.594956504       0.3948650973      -0.2371676993     
7565000990        -0.03382036902    0.3982011217      2.593951793       1.159258634       
                  2.593951793       1.159258634       -0.4249385275     -0.08463436451    
7650000900        0.3999142483      -0.05421613548    -0.0499635546     -2.594950277      
                  -0.0499635546     -2.594950277      0.2129169647      0.4388856384      
7735000810        -0.1589671222     -0.3069058681     -2.286923233      1.334260222       
                  -2.286923233      1.334260222       0.3175298023      -0.3462542265     
7820000720        -0.2084824212     0.3153653444      2.261954248       1.239254825       
                  2.261954248       1.239254825       -0.4060671731     0.02487231081     
7905000630        0.4132144648      0.1401279559      0.1009294105      -2.290583296      
                  0.1009294105      -2.290583296      0.3244401526      0.3624451004      
7990000540        0.06795364739     -0.3901936815     -2.207199761      0.9149426413      
                  -2.207199761      0.9149426413      0.2212534332      -0.4072215431     
8075000450        -0.3507535307     0.1181716705      1.894564151       1.432065986       
                  1.894564151       1.432065986       -0.3880738746     0.1182335961      
8160000360        0.2960924074      0.313875379       0.2561453462      -2.181745835      
                  0.2561453462      -2.181745835      0.3994259238      0.2800540841      
8245000270        0.2584226756      -0.3359919519     -2.034448985      0.6095452434      
                  -2.034448985      0.6095452434      0.1144162241      -0.4442791053     
8330000180        -0.3656036289     -0.1335612853     1.628462405       1.497799021       
                  1.628462405       1.497799021       -0.3433732364     0.1935712089      
8415000090        0.07731499925     0.3927410708      0.3879824173      -1.990921051      
                  0.3879824173      -1.990921051      0.4358464759      0.1673138071      
8500000000        0.3832286957      -0.1849775003     -1.828593925      0.4418732387      
                  -1.828593925      0.4418732387      -0.004349584347   -0.4606688763     
