! RsaToolbox (C) 2013 Rohde & Schwarz America
! 
! Number of points: 101
! Number of ports: 2
! Balanced ports?: 0
! 
! 
# Hz S RI R 50
9000              0.9945037287      -0.01278034768    6.829021581e-05   -1.658794177e-05  
                  6.829021581e-05   -1.658794177e-05  1.005006892       -0.02001108207    
85008910          -0.007545370653   0.1366809114      3.072745329       5.217118832       
                  3.072745329       5.217118832       -0.09237064519    -0.1164076789     
170008820         0.1259048161      -0.02861441699    3.073966677       -5.055692832      
                  3.073966677       -5.055692832      -0.02092909048    0.1718292361      
255008730         -0.161438609      -0.07032856901    -5.90862555       -0.1279151921     
                  -5.90862555       -0.1279151921     0.07776846686     -0.02664285791    
340008640         -0.06365706573    0.1521318528      2.611438812       5.195425198       
                  2.611438812       5.195425198       -0.1269607786     -0.05417819748    
425008550         0.1435195566      -0.0412210072     3.267991965       -4.77097915       
                  3.267991965       -4.77097915       0.0163327107      0.1029359228      
510008460         -0.09146597534    -0.151853258      -5.768225762      -0.5694608621     
                  -5.768225762      -0.5694608621     0.07089284025     -0.07985502672    
595008370         -0.09879017782    0.1238815326      2.210815488       5.271640957       
                  2.210815488       5.271640957       -0.08407414277    -0.0123334665     
680008280         0.1898510879      0.03279904833     3.520320961       -4.521724284      
                  3.520320961       -4.521724284      0.09210770625     0.07568407926     
765008190         0.01337289108     -0.1459553471     -5.594196121      -1.025887989      
                  -5.594196121      -1.025887989      0.06034635961     -0.06074733493    
850008100         -0.1708042187     0.1024038951      1.918769461       5.368672895       
                  1.918769461       5.368672895       -0.07204207096    0.06496282473     
935008010         0.1324939339      0.1145124281      3.807433885       -4.183407478      
                  3.807433885       -4.183407478      0.1022202113      0.03897351133     
1020007920        0.07104494224     -0.1376554048     -5.46953679       -1.354385592      
                  -5.46953679       -1.354385592      -0.004944991452   -0.07607385056    
1105007830        -0.2121546829     -0.01178476952    1.581521274       5.430571663       
                  1.581521274       5.430571663       -0.06350980311    0.0752517834      
1190007740        0.0636682392      0.1242017259      4.049575977       -3.80305529       
                  4.049575977       -3.80305529       0.1243579684      -0.04237202349    
1275007650        0.1537160022      -0.09712497614    -5.37281946       -1.686393545      
                  -5.37281946       -1.686393545      -0.030214294      -0.08928849543    
1360007560        -0.1489904881     -0.09408180792    1.13473443        5.485405748       
                  1.13473443        5.485405748       -0.005815446952   0.1021047091      
1445007470        0.001937303113    0.1225275633      4.250098973       -3.503260625      
                  4.250098973       -3.503260625      0.147398287       -0.08826864617    
1530007380        0.1664934493      -0.006302837607   -5.215882254      -1.989761688      
                  -5.215882254      -1.989761688      -0.06955242043    -0.06481892338    
1615007290        -0.08040154816    -0.1026967407     0.7353333703      5.399612467       
                  0.7353333703      5.399612467       0.02282590755     0.1425143411      
1700007200        -0.07463100542    0.0782088909      4.445311827       -3.253470457      
                  4.445311827       -3.253470457      0.1110634714      -0.1335146634     
1785007110        0.1031414303      0.02411053341     -4.960712568      -2.311646517      
                  -4.960712568      -2.311646517      -0.1323736284     -0.06437782142    
1870007020        -0.02113206392    -0.107066469      0.3774828138      5.40369967        
                  0.3774828138      5.40369967        0.06544119266     0.1325481829      
1955006930        -0.08075376433    0.01106763354     4.618642049       -2.938453035      
                  4.618642049       -2.938453035      0.0894777799      -0.1941557463     
2040006840        0.06024496858     0.01479203428     -4.730623627      -2.550039797      
                  -4.730623627      -2.550039797      -0.1553258525     -0.04192960387    
2125006750        0.02012375858     -0.06428364162    0.01744080634     5.425861688       
                  0.01744080634     5.425861688       0.1308243178      0.1372812612      
2210006660        -0.05610570087    0.004114677845    4.661864993       -2.623522769      
                  4.661864993       -2.623522769      0.04816575793     -0.2185979141     
2295006570        0.01984796348     -0.002455808356   -4.503281917      -2.815894327      
                  -4.503281917      -2.815894327      -0.1867511665     0.01493502142     
2380006480        -0.006992928494   -0.03003611589    -0.2857504354     5.325788163       
                  -0.2857504354     5.325788163       0.1668170046      0.1141949239      
2465006390        -0.04997654215    0.01092742669     4.671292435       -2.353382336      
                  4.671292435       -2.353382336      -0.01947081976    -0.2602867318     
2550006300        0.02104113253     -0.04483748999    -4.195327346      -3.105325456      
                  -4.195327346      -3.105325456      -0.1915266804     0.06042404814     
2635006210        -0.02939375277    -0.04150658925    -0.5053734483     5.217905233       
                  -0.5053734483     5.217905233       0.2137273093      0.06420931519     
2720006120        -0.05662346488    0.03786365726     4.702489527       -2.023243963      
                  4.702489527       -2.023243963      -0.09051835813    -0.2653678417     
2805006030        0.05293059529     -0.04276428595    -3.942980091      -3.255037635      
                  -3.942980091      -3.255037635      -0.1635650338     0.1230961101      
2890005940        -0.04117665166    -0.06509764528    -0.7255477013     5.040163417       
                  -0.7255477013     5.040163417       0.2325640562      0.008918652322    
2975005850        -0.09232288608    0.05655965931     4.677876147       -1.603400419      
                  4.677876147       -1.603400419      -0.162219804      -0.2485899934     
3060005760        0.07885484091     -0.01343595672    -3.690532332      -3.495866825      
                  -3.690532332      -3.495866825      -0.1192883352     0.1684971024      
3145005670        -0.01079890849    -0.09896560909    -1.081812197      4.900994194       
                  -1.081812197      4.900994194       0.2325092036      -0.07172411454    
3230005580        -0.1294333684     0.02928404482     4.760690837       -1.252855901      
                  4.760690837       -1.252855901      -0.2267642381     -0.2088920363     
3315005490        0.09011172143     0.04191734901     -3.473143468      -3.568157784      
                  -3.473143468      -3.568157784      -0.04604296475    0.202725809       
3400005400        0.039506868       -0.1138532023     -1.294030704      4.697829174       
                  -1.294030704      4.697829174       0.2024869991      -0.1451287962     
3485005310        -0.1651165573     -0.0113338976     4.732531994       -1.010443145      
                  4.732531994       -1.010443145      -0.2819499679     -0.1304589644     
3570005220        0.0617043952      0.1048060254      -3.320678734      -3.567262409      
                  -3.320678734      -3.567262409      0.0336782068      0.2113640977      
3655005130        0.08856731182     -0.09763908393    -1.36154313       4.504235483       
                  -1.36154313       4.504235483       0.135876497       -0.2086297276     
3740005040        -0.1744174486     -0.07446908643    4.611238739       -0.7826369593     
                  4.611238739       -0.7826369593     -0.3118247841     -0.04008270647    
3825004950        -0.0001486124689  0.142738186       -3.067497818      -3.483863334      
                  -3.067497818      -3.483863334      0.1140310357      0.177149593       
3910004860        0.1404472881      -0.05968095471    -1.587870375      4.247438588       
                  -1.587870375      4.247438588       0.05185335113     -0.2589869996     
3995004770        -0.1486914361     -0.1447150549     4.442510549       -0.613995674      
                  4.442510549       -0.613995674      -0.3055026445     0.06539215548     
4080004680        -0.0771166903     0.1454278007      -2.784262963      -3.507950893      
                  -2.784262963      -3.507950893      0.1918728965      0.1287348138      
4165004590        0.1583717595      0.009268529423    -1.784775012      4.07075169        
                  -1.784775012      4.07075169        -0.04580482955    -0.272839845      
4250004500        -0.09087538104    -0.1777525589     4.393663136       -0.4182164437     
                  4.393663136       -0.4182164437     -0.2656885044     0.1759347506      
4335004410        -0.1546283716     0.1160645927      -2.53115141       -3.531306582      
                  -2.53115141       -3.531306582      0.2309156585      0.04485473508     
4420004320        0.1358740153      0.07814503222     -1.875273551      3.901667736       
                  -1.875273551      3.901667736       -0.1636467051     -0.2515085087     
4505004230        -0.02193915609    -0.1898993856     4.242333408       -0.2932475447     
                  4.242333408       -0.2932475447     -0.1970767009     0.2593826542      
4590004140        -0.2083793254     0.0542855185      -2.276500314      -3.487800064      
                  -2.276500314      -3.487800064      0.2301591163      -0.05740969267    
4675004050        0.09217031423     0.1299384261      -1.895000617      3.703708017       
                  -1.895000617      3.703708017       -0.2556579668     -0.1918234363     
4760003960        0.05995103725     -0.1682131568     4.064453305       -0.1007822165     
                  4.064453305       -0.1007822165     -0.08706594426    0.3116216903      
4845003870        -0.2203872405     -0.01648841583    -2.027614945      -3.461100953      
                  -2.027614945      -3.461100953      0.2007560265      -0.1547464695     
4930003780        0.02285924336     0.1595763892      -2.006539422      3.460904368       
                  -2.006539422      3.460904368       -0.3202073349     -0.1001405211     
5015003690        0.1187370615      -0.105942896      3.909413475       0.1125536554      
                  3.909413475       0.1125536554      0.03511044301     0.3353734414      
5100003600        -0.2070847299     -0.07441905722    -1.842319372      -3.405466109      
                  -1.842319372      -3.405466109      0.1198655934      -0.2295128813     
5185003510        -0.05149454662    0.1569110136      -2.055455524      3.200777226       
                  -2.055455524      3.200777226       -0.3504991071     0.01093081508     
5270003420        0.1371591989      -0.03049665792    3.761311874       0.3411277083      
                  3.761311874       0.3411277083      0.1492256249      0.3006295272      
5355003330        -0.1745645925     -0.1110196365     -1.703724511      -3.345703557      
                  -1.703724511      -3.345703557      -0.001918266381   -0.2797607725     
5440003240        -0.09903831256    0.115066215       -2.069567862      3.031337467       
                  -2.069567862      3.031337467       -0.3204605011     0.1317732687      
5525003150        0.1316933475      0.0233691993      3.679342729       0.449336714       
                  3.679342729       0.449336714       0.2690227767      0.2022359129      
5610003060        -0.1168549904     -0.1080525448     -1.593582628      -3.256890874      
                  -1.593582628      -3.256890874      -0.1363761236     -0.2685084819     
5695002970        -0.1027463856     0.08376082588     -2.09033649       2.817977572       
                  -2.09033649       2.817977572       -0.2220599003     0.2528709757      
5780002880        0.1208579802      0.05922919594     3.560417828       0.5415348813      
                  3.560417828       0.5415348813      0.3300340554      0.05879837136     
5865002790        -0.08791810874    -0.07772990743    -1.426087511      -3.138270171      
                  -1.426087511      -3.138270171      -0.2718809831     -0.1861677231     
5950002700        -0.09330446732    0.07946242879     -2.12455731       2.625767435       
                  -2.12455731       2.625767435       -0.08335652431    0.333569468       
6035002610        0.0930355866      0.05783809723     3.354898976       0.543649151       
                  3.354898976       0.543649151       0.2996710943      -0.09661132076    
6120002520        -0.08845690701    -0.0655224841     -1.263652416      -3.013766353      
                  -1.263652416      -3.013766353      -0.3582797634     -0.04623825726    
6205002430        -0.07203448799    0.09579726478     -2.091023665      2.467425852       
                  -2.091023665      2.467425852       0.1023225212      0.3384924925      
6290002340        0.1136329864      0.0415730663      3.192370225       0.5350710976      
                  3.192370225       0.5350710976      0.1966739707      -0.2479582424     
6375002250        -0.112286659      -0.0903068175     -1.1365036        -2.898364457      
                  -1.1365036        -2.898364457      -0.3763056524     0.1290224113      
6460002160        -0.09251463621    0.1554550001      -2.007844595      2.323046492       
                  -2.007844595      2.323046492       0.2712602047      0.2730194237      
6545002070        0.1670395303      0.07361658026     2.959982451       0.5471008654      
                  2.959982451       0.5471008654      0.02973057744     -0.3206396471     
6630001980        -0.08126160025    -0.1538581395     -0.9936713859     -2.746140739      
                  -0.9936713859     -2.746140739      -0.299336024      0.302385923       
6715001890        -0.1540400057     0.1855519467      -1.882002965      2.084994901       
                  -1.882002965      2.084994901       0.3843707505      0.1570267809      
6800001800        0.2073440746      0.1597666003      2.689686828       0.6467104686      
                  2.689686828       0.6467104686      -0.1310522952     -0.3092226805     
6885001710        0.01590006143     -0.2256407361     -0.7420794531     -2.569884779      
                  -0.7420794531     -2.569884779      -0.188856991      0.3886095962      
6970001620        -0.2432783591     0.1292209551      -1.911382244      1.80083595        
                  -1.911382244      1.80083595        0.4238656948      0.02436796939     
7055001530        0.1811617154      0.2680248997      2.497884275       0.7973667691      
                  2.497884275       0.7973667691      -0.2573133773     -0.2716932864     
7140001440        0.1595740897      -0.2479106785     -0.5332977888     -2.516529067      
                  -0.5332977888     -2.516529067      -0.06403252852    0.4546795085      
7225001350        -0.287265793      0.004414398994    -1.969002494      1.591271892       
                  -1.969002494      1.591271892       0.4532193481      -0.1027974833     
7310001260        0.09409434544     0.3622950042      2.336760882       0.8265360628      
                  2.336760882       0.8265360628      -0.3592282871     -0.1853760413     
7395001170        0.3237071454      -0.1591823196     -0.2883581842     -2.382129811      
                  -0.2883581842     -2.382129811      0.07655702155     0.4828702957      
7480001080        -0.2529325707     -0.1827428575     -1.883998104      1.351785855       
                  -1.883998104      1.351785855       0.3952668114      -0.2369225301     
7565000990        -0.1041141451     0.3825057751      2.13207414        0.8650671647      
                  2.13207414        0.8650671647      -0.4258521289     -0.08498210384    
7650000900        0.4062637938      0.003498109364    -0.1096134173     -2.193346431      
                  -0.1096134173     -2.193346431      0.2122650888      0.4396772309      
7735000810        -0.112405989      -0.3349763897     -1.931077386      1.181023333       
                  -1.931077386      1.181023333       0.3178781681      -0.3464345088     
7820000720        -0.2518715649     0.2846213965      1.952710999       1.016875658       
                  1.952710999       1.016875658       -0.4071563857     0.02444230126     
7905000630        0.4002319635      0.1791498211      0.04920435083     -2.017034584      
                  0.04920435083     -2.017034584      0.3241982771      0.3634007107      
7990000540        0.1123098068      -0.394141158      -1.90670741       0.8205945216      
                  -1.90670741       0.8205945216      0.2220147062      -0.4080554477     
8075000450        -0.3719207424     0.07834812441     1.667142017       1.23312383        
                  1.667142017       1.23312383        -0.3890552324     0.1184984861      
8160000360        0.2701508792      0.3426152255      0.1994278366      -1.934187772      
                  0.1994278366      -1.934187772      0.3996876052      0.28052478        
8245000270        0.2882022274      -0.3240818828     -1.824453981      0.5741385628      
                  -1.824453981      0.5741385628      0.1146783039      -0.4450676362     
8330000180        -0.3648262427     -0.1683688055     1.474466158       1.325446526       
                  1.474466158       1.325446526       -0.3438593605     0.1932375844      
8415000090        0.04845743529     0.4039678876      0.3304917532      -1.805210667      
                  0.3304917532      -1.805210667      0.4366309263      0.1675529202      
8500000000        0.3994592495      -0.1675107842     -1.684148326      0.426718881       
                  -1.684148326      0.426718881       -0.003908829178   -0.4617308631     
