! RsaToolbox (C) 2013 Rohde & Schwarz America
! 
! Number of points: 101
! Number of ports: 2
! Balanced ports?: 0
! 
! 
# Hz S RI R 50
9000              1.009202151       -0.02015863178    5.180960427e-05   -8.83930166e-05   
                  5.180960427e-05   -8.83930166e-05   1.019582911       -0.02400577926    
85008910          0.00228948626     0.1587088964      3.195261976       5.503988867       
                  3.195261976       5.503988867       -0.09213315881    -0.1155174451     
170008820         0.1420483721      -0.04399537431    3.185213064       -5.223927677      
                  3.185213064       -5.223927677      -0.02049994743    0.1714855634      
255008730         -0.1757972702     -0.0756492537     -6.056311447      -0.1629229934     
                  -6.056311447      -0.1629229934     0.07772000899     -0.02658780217    
340008640         -0.06348156759    0.1695057409      2.654829859       5.351725544       
                  2.654829859       5.351725544       -0.1264997181     -0.0536889942     
425008550         0.1591122129      -0.04638197074    3.384449727       -4.87036439       
                  3.384449727       -4.87036439       0.01674248689     0.1029073974      
510008460         -0.1015574233     -0.1632866499     -5.905868379      -0.6405394298     
                  -5.905868379      -0.6405394298     0.0708022555      -0.07966315732    
595008370         -0.1071784161     0.1396246315      2.232772176       5.424338706       
                  2.232772176       5.424338706       -0.08355413677    -0.01220924089    
680008280         0.2040605981      0.03378247406     3.654284617       -4.581401103      
                  3.654284617       -4.581401103      0.09212933787     0.07527683812     
765008190         0.009419578601    -0.1634793259     -5.732143677      -1.097632978      
                  -5.732143677      -1.097632978      0.06013180156     -0.06046913743    
850008100         -0.1816731447     0.1114499804      1.875111297       5.520406351       
                  1.875111297       5.520406351       -0.07176499073    0.06507015495     
935008010         0.1453484585      0.1232970239      3.942357449       -4.23350698       
                  3.942357449       -4.23350698       0.1021289362      0.0389652688      
1020007920        0.07540378647     -0.1535195635     -5.589244473      -1.442243321      
                  -5.589244473      -1.442243321      -0.004541189602   -0.07570021486    
1105007830        -0.2250842614     -0.008317365928   1.485216997       5.613638122       
                  1.485216997       5.613638122       -0.06297397892    0.0752889475      
1190007740        0.071164856       0.1400211391      4.189631507       -3.861193486      
                  4.189631507       -3.861193486      0.1241779175      -0.04260014904    
1275007650        0.164212551       -0.1084212123     -5.466910101      -1.823427097      
                  -5.466910101      -1.823427097      -0.02999612214    -0.08908533442    
1360007560        -0.1631501788     -0.1005351269     1.049632084       5.638582678       
                  1.049632084       5.638582678       -0.005413385224   0.1017055444      
1445007470        0.0005606530374   0.14168217        4.405190822       -3.545836033      
                  4.405190822       -3.545836033      0.1470625686      -0.08844213598    
1530007380        0.1842589669      -0.01129002206    -5.306405298      -2.180097461      
                  -5.306405298      -2.180097461      -0.06917070804    -0.0646632803     
1615007290        -0.09406657243    -0.1236740695     0.625846995       5.598492643       
                  0.625846995       5.598492643       0.02312450204     0.141988816       
1700007200        -0.08823946858    0.09678873515     4.662694368       -3.246522252      
                  4.662694368       -3.246522252      0.1108346339      -0.1334310235     
1785007110        0.1277480529      0.03167785489     -5.064236389      -2.521575583      
                  -5.064236389      -2.521575583      -0.131728912      -0.06409783086    
1870007020        -0.0218263526     -0.1354471091     0.2316800029      5.604612081       
                  0.2316800029      5.604612081       0.06576419518     0.1322170986      
1955006930        -0.106411919      0.0212605308      4.869947624       -2.892642562      
                  4.869947624       -2.892642562      0.08919986937     -0.1939426872     
2040006840        0.08253631155     0.0387972591      -4.82682896       -2.806024573      
                  -4.82682896       -2.806024573      -0.1547495205     -0.04176281398    
2125006750        0.03595012319     -0.09249498206    -0.1855050969     5.633004846       
                  -0.1855050969     5.633004846       0.1310053358      0.1370012006      
2210006660        -0.09181525462    -0.0009044159009  4.965467598       -2.537723785      
                  4.965467598       -2.537723785      0.04793733094     -0.2179562929     
2295006570        0.02923908704     0.03596108806     -4.595818331      -3.135137941      
                  -4.595818331      -3.135137941      -0.1861433364     0.01544605006     
2380006480        0.02848642474     -0.05213869082    -0.548451495      5.569220136       
                  -0.548451495      5.569220136       0.1668787047      0.1139884127      
2465006390        -0.08738799418    -0.01633072121    5.042582909       -2.220976504      
                  5.042582909       -2.220976504      -0.01957666514    -0.2595272069     
2550006300        0.01168988564     0.0003764125219   -4.286369483      -3.472677939      
                  -4.286369483      -3.472677939      -0.1907222934     0.06059006713     
2635006210        0.02505357266     -0.04481597805    -0.8879320155     5.509137635       
                  -0.8879320155     5.509137635       0.2135623215      0.06415531834     
2720006120        -0.0819659311     -0.01011980904    5.116550955       -1.848100976      
                  5.116550955       -1.848100976      -0.09055342048    -0.264459409      
2805006030        0.01819645148     -0.0006549498886  -4.001219754      -3.719334251      
                  -4.001219754      -3.719334251      -0.1630049609     0.1233924248      
2890005940        0.02057855533     -0.03686780796    -1.224165017      5.384859321       
                  -1.224165017      5.384859321       0.2319720715      0.009015085169    
2975005850        -0.09466305895    -0.007354385294   5.147951047       -1.391023272      
                  5.147951047       -1.391023272      -0.1622170202     -0.2474543377     
3060005760        0.01929666146     0.009619750023    -3.702669436      -4.060273171      
                  -3.702669436      -4.060273171      -0.1189452318     0.1686075305      
3145005670        0.03534807162     -0.04527951652    -1.620682746      5.231490865       
                  -1.620682746      5.231490865       0.2319175127      -0.0715853836     
3230005580        -0.1019176448     -0.03220025997    5.255958833       -0.988261999      
                  5.255958833       -0.988261999      -0.2269264864     -0.207958721      
3315005490        0.01237315053     0.03197978327     -3.430079477      -4.285364981      
                  -3.430079477      -4.285364981      -0.0460273675     0.2027546238      
3400005400        0.06086430691     -0.03005084159    -1.973151016      5.063793426       
                  -1.973151016      5.063793426       0.2014584942      -0.1449098564     
3485005310        -0.09874909049    -0.06310962228    5.355440746       -0.6242379133     
                  5.355440746       -0.6242379133     -0.2820287318     -0.1296171349     
3570005220        -0.01906602663    0.04996765199     -3.251163855      -4.472308041      
                  -3.251163855      -4.472308041      0.03358807343     0.210692122       
3655005130        0.06913627278     0.002456966813    -2.16809007       4.929867846       
                  -2.16809007       4.929867846       0.1345417871      -0.2089001274     
3740005040        -0.07844027994    -0.09314964033    5.342734283       -0.2717541185     
                  5.342734283       -0.2717541185     -0.3120255984     -0.03956847327    
3825004950        -0.05818646864    0.03854486051     -2.980595516      -4.600292089      
                  -2.980595516      -4.600292089      0.1134252589      0.1761686009      
3910004860        0.06488853148     0.03650088709     -2.584257584      4.707202511       
                  -2.584257584      4.707202511       0.05040438525     -0.2589908874     
3995004770        -0.03224595642    -0.1118415367     5.371978783       0.04961069363     
                  5.371978783       0.04961069363     -0.3052440367     0.06545080651     
4080004680        -0.08485310121    0.009661464344    -2.703044804      -4.77198032       
                  -2.703044804      -4.77198032       0.1908585156      0.1281314091      
4165004590        0.04115505257     0.06965974869     -2.851211802      4.56589171        
                  -2.851211802      4.56589171        -0.0464414066     -0.2718127681     
4250004500        0.01038144832     -0.0894517953     5.456708247       0.2969759948      
                  5.456708247       0.2969759948      -0.2659529759     0.1755195029      
4335004410        -0.1024917712     -0.01814846625    -2.445921668      -4.87952854       
                  -2.445921668      -4.87952854       0.2299466603      0.04448578906     
4420004320        -0.005649760999   0.08388860217     -3.048388947      4.451758873       
                  -3.048388947      4.451758873       -0.1640429029     -0.2507304321     
4505004230        0.03769207888     -0.05891974712    5.403256051       0.4729187363      
                  5.403256051       0.4729187363      -0.1968905196     0.2590527985      
4590004140        -0.1019530152     -0.05084268849    -2.182187688      -4.91154153       
                  -2.182187688      -4.91154153       0.2295699513      -0.05762372026    
4675004050        -0.04319317685    0.07185003647     -3.140601117      4.332940298       
                  -3.140601117      4.332940298       -0.2553188523     -0.1912167096     
4760003960        0.0576438833      -0.01840154322    5.25225681        0.705518099       
                  5.25225681        0.705518099       -0.08638620613    0.3111242764      
4845003870        -0.07896806347    -0.0683584114     -1.934294138      -4.957783493      
                  -1.934294138      -4.957783493      0.2004406777      -0.15487542       
4930003780        -0.07536767335    0.04317962353     -3.319835791      4.146789932       
                  -3.319835791      4.146789932       -0.3196272386     -0.09961231978    
5015003690        0.05168282651     0.03569983203     5.123797018       0.9461544395      
                  5.123797018       0.9461544395      0.03555726093     0.334645215       
5100003600        -0.05456051778    -0.05755747502    -1.761763642      -5.024229447      
                  -1.761763642      -5.024229447      0.1193672563      -0.2292655572     
5185003510        -0.09113473908    0.007322784811    -3.371326255      3.923016515       
                  -3.371326255      3.923016515       -0.3497595153     0.01083732529     
5270003420        0.01732557021     0.07038347289     4.984797229       1.175454113       
                  4.984797229       1.175454113       0.1500318762      0.2996311156      
5355003330        -0.04412713583    -0.02503732544    -1.649215391      -5.076972998      
                  -1.649215391      -5.076972998      -0.002269520877   -0.2792098553     
5440003240        -0.07325779164    -0.03675395209    -3.317906933      3.75612196        
                  -3.317906933      3.75612196        -0.3193991865     0.1323278404      
5525003150        -0.01535227006    0.06126856265     4.964385176       1.28815714        
                  4.964385176       1.28815714        0.2687127245      0.2016033454      
5610003060        -0.03916604574    0.0240184702      -1.590554948      -4.917157833      
                  -1.590554948      -4.917157833      -0.1365931264     -0.2676614154     
5695002970        -0.01684580626    -0.04129972162    -3.31589074       3.538583143       
                  -3.31589074       3.538583143       -0.221257958      0.2528917006      
5780002880        -0.02334478737    0.02547494221     4.911017051       1.379393092       
                  4.911017051       1.379393092       0.3294657096      0.05794178438     
5865002790        -0.07542748577    0.07238373262     -1.487905406      -4.65858001       
                  -1.487905406      -4.65858001       -0.2721522146     -0.1853290031     
5950002700        0.03254330893     0.005284857757    -3.349291785      3.329945523       
                  -3.349291785      3.329945523       -0.08284984576    0.3329660613      
6035002610        -0.0171787754     -0.03570961153    4.695940979       1.277530223       
                  4.695940979       1.277530223       0.2985504416      -0.09764181256    
6120002520        -0.1420285462     0.07107792591     -1.367343255      -4.406542794      
                  -1.367343255      -4.406542794      -0.3584391317     -0.04544525342    
6205002430        0.06791449592     0.08703147444     -3.242014175      3.124273741       
                  -3.242014175      3.124273741       0.101894762       0.3374857256      
6290002340        0.06020506975     -0.08706043697    4.471425049       1.145953075       
                  4.471425049       1.145953075       0.1950043854      -0.2477625251     
6375002250        -0.2116480314     0.007281074949    -1.265531138      -4.120623128      
                  -1.265531138      -4.120623128      -0.3761679707     0.1298919107      
6460002160        0.02741635789     0.2036067824      -3.00456032       2.926737327       
                  -3.00456032       2.926737327       0.2707925833      0.2723513995      
6545002070        0.1744922355      -0.05671810642    4.074787077       1.054321614       
                  4.074787077       1.054321614       0.02870234587     -0.3200134094     
6630001980        -0.2035850568     -0.1104467738     -1.120516499      -3.820043468      
                  -1.120516499      -3.820043468      -0.29873158       0.3020823787      
6715001890        -0.07261519106    0.2719080422      -2.709718698      2.612743715       
                  -2.709718698      2.612743715       0.3838973228      0.1561231442      
6800001800        0.2632593616      0.05716714729     3.59839156        1.116458126       
                  3.59839156        1.116458126       -0.1314158229     -0.3088729414     
6885001710        -0.1005034214     -0.2388975302     -0.8097408381     -3.478801086      
                  -0.8097408381     -3.478801086      -0.1880911033     0.3881425314      
6970001620        -0.2092571122     0.2308888843      -2.625352684      2.208572743       
                  -2.625352684      2.208572743       0.423383267       0.02358943471     
7055001530        0.2598630169      0.208401789       3.202368186       1.236926874       
                  3.202368186       1.236926874       -0.2571897066     -0.2713600839     
7140001440        0.08274438119     -0.297452624      -0.5335085357     -3.213031325      
                  -0.5335085357     -3.213031325      -0.06329172003    0.454192634       
7225001350        -0.2954511209     0.09446431457     -2.568782164      1.885736705       
                  -2.568782164      1.885736705       0.452602128       -0.1032978681     
7310001260        0.168172542       0.3466897549      2.85171144        1.15951162        
                  2.85171144        1.15951162        -0.35874376       -0.1851294563     
7395001170        0.2852740499      -0.2255530159     -0.2408684739     -2.953806069      
                  -0.2408684739     -2.953806069      0.0771024321      0.48205289        
7480001080        -0.2972933486     -0.1121719586     -2.40671362       1.600510005       
                  -2.40671362       1.600510005       0.3948270186      -0.2371012827     
7565000990        -0.03272768834    0.3985933584      2.602992916       1.163682489       
                  2.602992916       1.163682489       -0.424913152      -0.08444812234    
7650000900        0.4001074812      -0.05522633251    -0.04991686206    -2.601797244      
                  -0.04991686206    -2.601797244      0.2129664698      0.438728108       
7735000810        -0.1598602137     -0.3066288937     -2.292105849      1.338788218       
                  -2.292105849      1.338788218       0.3171076988      -0.3463055719     
7820000720        -0.2079185121     0.3160968597      2.26826052        1.241682729       
                  2.26826052        1.241682729       -0.4057053575     0.0248947416      
7905000630        0.4137128496      0.139658965       0.1004659638      -2.295059119      
                  0.1004659638      -2.295059119      0.3245116422      0.3622605489      
7990000540        0.06732032256     -0.3904273419     -2.211953809      0.9181317108      
                  -2.211953809      0.9181317108      0.2214685841      -0.4072490223     
8075000450        -0.350583716      0.1188564446      1.899591737       1.434130127       
                  1.899591737       1.434130127       -0.3877117855     0.1188835169      
8160000360        0.2963785068      0.313666747       0.255561548       -2.185540672      
                  0.255561548       -2.185540672      0.3993908399      0.279971894       
8245000270        0.2581334715      -0.3363063382     -2.037439487      0.6107819714      
                  -2.037439487      0.6107819714      0.1144541885      -0.4441492528     
8330000180        -0.3657621965     -0.1331339327     1.632050819       1.499289975       
                  1.632050819       1.499289975       -0.3432288286     0.1933955182      
8415000090        0.07767956268     0.392696726       0.3872734491      -1.993590789      
                  0.3872734491      -1.993590789      0.4358758845      0.1672936269      
8500000000        0.3830409986      -0.185300369      -1.830614974      0.4431287757      
                  -1.830614974      0.4431287757      -0.004457817476   -0.4604811737     
