! RsaToolbox (C) 2013 Rohde & Schwarz America
! 
! Number of points: 101
! Number of ports: 2
! Balanced ports?: 0
! 
! 
# Hz S RI R 50
9000              0.9989032105      -0.01447179284    7.190530732e-05   4.593635884e-07   
                  7.190530732e-05   4.593635884e-07   1.008221684       -0.02143562241    
85008910          -0.0009481600613  0.1508979578      3.164784561       5.412192615       
                  3.164784561       5.412192615       -0.0924087087     -0.116145177      
170008820         0.1364359552      -0.03857913717    3.141463782       -5.165528748      
                  3.141463782       -5.165528748      -0.02076858266    0.1717747326      
255008730         -0.1702934673     -0.07344263429    -6.003154387      -0.1499241854     
                  -6.003154387      -0.1499241854     0.07771910364     -0.02663906567    
340008640         -0.06339368818    0.1630229809      2.6391042         5.295698376       
                  2.6391042         5.295698376       -0.1268360258     -0.05406077453    
425008550         0.1532333446      -0.04451390771    3.339916287       -4.834920425      
                  3.339916287       -4.834920425      0.01645531333     0.1029004676      
510008460         -0.0978502337     -0.158701935      -5.856718746      -0.6142809125     
                  -5.856718746      -0.6142809125     0.07086717638     -0.07979762044    
595008370         -0.1041660707     0.1336835608      2.229840338       5.365573645       
                  2.229840338       5.365573645       -0.08401748559    -0.01217356353    
680008280         0.1984535536      0.03309210305     3.607586606       -4.558780106      
                  3.607586606       -4.558780106      0.09213733798     0.07554861612     
765008190         0.01094618196     -0.1570838419     -5.684408403      -1.06309044       
                  -5.684408403      -1.06309044       0.0602621488      -0.06072351131    
850008100         -0.1770019682     0.1079846506      1.892537554       5.465569691       
                  1.892537554       5.465569691       -0.07188705769    0.06502505812     
935008010         0.1403230125      0.1198435151      3.887500609       -4.219291911      
                  3.887500609       -4.219291911      0.102203662       0.03888831179     
1020007920        0.07387770217     -0.1476523434     -5.547594276      -1.401091077      
                  -5.547594276      -1.401091077      -0.0048173777     -0.07586559883    
1105007830        -0.219448775      -0.008931096464   1.520103536       5.55380213        
                  1.520103536       5.55380213        -0.06328569301    0.07527842443     
1190007740        0.0681768698      0.1338947151      4.130567923       -3.846052346      
                  4.130567923       -3.846052346      0.1244022205      -0.04240352023    
1275007650        0.1597868638      -0.1039111442     -5.435692564      -1.761716956      
                  -5.435692564      -1.761716956      -0.03015101976    -0.08920008904    
1360007560        -0.1574520387     -0.09776927199    1.087260651       5.579681501       
                  1.087260651       5.579681501       -0.005610848446   0.1019799809      
1445007470        0.001039669026    0.1341131363      4.337885439       -3.540241522      
                  4.337885439       -3.540241522      0.1472967208      -0.0883747352     
1530007380        0.1770959079      -0.009435222339   -5.277588426      -2.105999114      
                  -5.277588426      -2.105999114      -0.0694221853     -0.06472261127    
1615007290        -0.08884947939    -0.1156838727     0.6792453161      5.52496228        
                  0.6792453161      5.52496228        0.02300762399     0.1424262137      
1700007200        -0.08316350973    0.0896918315      4.574889875       -3.259817485      
                  4.574889875       -3.259817485      0.1109747632      -0.1335034178     
1785007110        0.1183149165      0.02902590805     -5.032210689      -2.431815755      
                  -5.032210689      -2.431815755      -0.1321878739     -0.06421661517    
1870007020        -0.0211958056     -0.1247724466     0.2989843079      5.52922139        
                  0.2989843079      5.52922139        0.0656055682      0.1324054045      
1955006930        -0.09696548749    0.01706645325     4.76850644        -2.922136134      
                  4.76850644        -2.922136134      0.08938988809     -0.1940756129     
2040006840        0.07375254023     0.03009535982     -4.797376525      -2.697195082      
                  -4.797376525      -2.697195082      -0.1551239345     -0.04176267359    
2125006750        0.03070821767     -0.0818006991     -0.09600848918    5.554011469       
                  -0.09600848918    5.554011469       0.1309078863      0.1371126859      
2210006660        -0.07868753276    0.0002982125003   4.844188683       -2.579666292      
                  4.844188683       -2.579666292      0.04805570237     -0.2184292596     
2295006570        0.02510667213     0.02221064942     -4.565768204      -3.004058508      
                  -4.565768204      -3.004058508      -0.1865978524     0.01497675889     
2380006480        0.01646234446     -0.04367753093    -0.4422659726     5.478832561       
                  -0.4422659726     5.478832561       0.1669091023      0.114078227       
2465006390        -0.07378551776    -0.007865510427   4.902589449       -2.272647095      
                  4.902589449       -2.272647095      -0.01956407576    -0.2600819644     
2550006300        0.01404333867     -0.01583136085    -4.256462264      -3.328632923      
                  -4.256462264      -3.328632923      -0.1914200885     0.06050419035     
2635006210        0.007168047854    -0.04256858891    -0.7389790818     5.409269533       
                  -0.7389790818     5.409269533       0.2135943531      0.06417747828     
2720006120        -0.07254255561    0.005612388538    4.963073202       -1.919837058      
                  4.963073202       -1.919837058      -0.09061406755    -0.2651485325     
2805006030        0.02918607039     -0.01578826228    -3.985041132      -3.543376037      
                  -3.985041132      -3.543376037      -0.1633781737     0.1232466789      
2890005940        -0.0003368490822  -0.04526703409    -1.033007685      5.26833607        
                  -1.033007685      5.26833607        0.2324297126      0.008914626516    
2975005850        -0.09283604324    0.01441746375     4.975647184       -1.474845068      
                  4.975647184       -1.474845068      -0.1622394883     -0.2483423565     
3060005760        0.0385705308      0.0003823547451   -3.703361802      -3.85448904       
                  -3.703361802      -3.85448904       -0.1192388951     0.1685578443      
3145005670        0.01882308568     -0.06206380077    -1.414157127      5.117728327       
                  -1.414157127      5.117728327       0.2321381848      -0.07162215496    
3230005580        -0.1100879723     -0.01092569261    5.075280122       -1.091907715      
                  5.075280122       -1.091907715      -0.226971642      -0.2084678468     
3315005490        0.03746929244     0.03354256219     -3.462747948      -4.032145181      
                  -3.462747948      -4.032145181      -0.04601900489    0.2027361878      
3400005400        0.05284958074     -0.05820709758    -1.704106738      4.947327343       
                  -1.704106738      4.947327343       0.2017427177      -0.1452558282     
3485005310        -0.1207161619     -0.04489590196    5.135946577       -0.7848323988     
                  5.135946577       -0.7848323988     -0.2821763742     -0.1300557154     
3570005220        0.008651354276    0.06757472412     -3.31258331       -4.138260894      
                  -3.31258331       -4.138260894      0.03365459899     0.2110295275      
3655005130        0.07554022443     -0.03304633703    -1.832981651      4.797383506       
                  -1.832981651      4.797383506       0.1352132768      -0.2088176894     
3740005040        -0.1119894953     -0.08588393068    5.085280641       -0.4940105279     
                  5.085280641       -0.4940105279     -0.3120653459     -0.03978196205    
3825004950        -0.0367337322     0.07663667047     -3.08051898       -4.154478707      
                  -3.08051898       -4.154478707      0.11388241        0.1767651524      
3910004860        0.09441767142     -0.0003870047292  -2.140306807      4.571491252       
                  -2.140306807      4.571491252       0.0512304653      -0.2591158651     
3995004770        -0.07842143067    -0.12528817       5.014663728       -0.2867702417     
                  5.014663728       -0.2867702417     -0.3054591546     0.06522919934     
4080004680        -0.08249991807    0.06645321371     -2.820785669      -4.214784249      
                  -2.820785669      -4.214784249      0.1914339307      0.1286018269      
4165004590        0.09110939124     0.04518225275     -2.354222542      4.4043725         
                  -2.354222542      4.4043725         -0.04601190254    -0.2723396288     
4250004500        -0.03324242012    -0.129047576      5.013175484       -0.09660426588    
                  5.013175484       -0.09660426588    -0.2657089663     0.1758046487      
4335004410        -0.1275493491     0.04294326827     -2.577609685      -4.237619111      
                  -2.577609685      -4.237619111      0.2306047272      0.04473644169     
4420004320        0.05963706056     0.08268360146     -2.444836508      4.263715547       
                  -2.444836508      4.263715547       -0.1636835802     -0.251227473      
4505004230        0.01017323237     -0.1223563306     4.872985316       0.007110954444    
                  4.872985316       0.007110954444    -0.196940611      0.2592332472      
4590004140        -0.1555996223     7.437948866e-06   -2.33167598       -4.188581416      
                  -2.33167598       -4.188581416      0.229930266       -0.05747672412    
4675004050        0.02396324939     0.102286614       -2.441831877      4.092326436       
                  -2.441831877      4.092326436       -0.2555541697     -0.1916629931     
4760003960        0.06024965352     -0.09475025405    4.679017911       0.1937068279      
                  4.679017911       0.1937068279      -0.08686694423    0.3114444252      
4845003870        -0.154362317      -0.0421051776     -2.093250388      -4.145218239      
                  -2.093250388      -4.145218239      0.2006005231      -0.154851755      
4930003780        -0.02328585248    0.106763577       -2.530374581      3.855893045       
                  -2.530374581      3.855893045       -0.3199511611     -0.09999769613    
5015003690        0.08918048255     -0.0402724236     4.506014777       0.3948928528      
                  4.506014777       0.3948928528      0.03530161724     0.3351473687      
5100003600        -0.1410802987     -0.06784434858    -1.925916979      -4.079745372      
                  -1.925916979      -4.079745372      0.1198280604      -0.2293812976     
5185003510        -0.06947215318    0.09120964192     -2.552217606      3.594545732       
                  -2.552217606      3.594545732       -0.3501843135     0.0110725799      
5270003420        0.08487287048     0.01412411766     4.335581488       0.6047617845      
                  4.335581488       0.6047617845      0.1494877454      0.3002677131      
5355003330        -0.1216166755     -0.07596560899    -1.806288645      -4.014252148      
                  -1.806288645      -4.014252148      -0.001949243394   -0.2794810676     
5440003240        -0.08828231444    0.04952557717     -2.529737102      3.410468465       
                  -2.529737102      3.410468465       -0.3200760621     0.13194635        
5525003150        0.06976337001     0.03850431766     4.253686349       0.6963706723      
                  4.253686349       0.6963706723      0.2689760403      0.2019252296      
5610003060        -0.08579845015    -0.05432343908    -1.707512879      -3.880573203      
                  -1.707512879      -3.880573203      -0.1365188259     -0.268220449      
5695002970        -0.06647890517    0.03133635123     -2.527747173      3.18185341        
                  -2.527747173      3.18185341        -0.2217547303     0.2529197855      
5780002880        0.06440604753     0.04415763766     4.120558871       0.7641143994      
                  4.120558871       0.7641143994      0.3297842628      0.0583681007      
5865002790        -0.08348209406    -0.01539648647    -1.550361172      -3.707724242      
                  -1.550361172      -3.707724242      -0.272112358      -0.1859175768     
5950002700        -0.04110314815    0.0498526878      -2.547670616      2.972486591       
                  -2.547670616      2.972486591       -0.0831508162     0.3333757861      
6035002610        0.05082307909     0.01919144183     3.892793245       0.7260101731      
                  3.892793245       0.7260101731      0.299230499       -0.09712008841    
6120002520        -0.1120323265     -0.008474206696   -1.390842142      -3.534364187      
                  -1.390842142      -3.534364187      -0.3583624217     -0.04598527058    
6205002430        -0.01406191015    0.09325013853     -2.48877152       2.787721352       
                  -2.48877152       2.787721352       0.1022235812      0.3380137072      
6290002340        0.09401994085     -0.01137526797    3.698086802       0.6846879845      
                  3.698086802       0.6846879845      0.1960816868      -0.2479149156     
6375002250        -0.156393923      -0.04883209177    -1.256955541      -3.368360344      
                  -1.256955541      -3.368360344      -0.3762654139     0.1293446975      
6460002160        -0.04088543281    0.1773241504      -2.366999748      2.617275149       
                  -2.366999748      2.617275149       0.2711706639      0.2727420457      
6545002070        0.1719491376      0.0183872519      3.411476447       0.6815302929      
                  3.411476447       0.6815302929      0.02936256044     -0.3204192638     
6630001980        -0.1368897826     -0.1354766814     -1.101081376      -3.174789069      
                  -1.101081376      -3.174789069      -0.2990721405     0.3023895732      
6715001890        -0.117376362      0.2256278467      -2.196271648      2.345527891       
                  -2.196271648      2.345527891       0.3841306508      0.1567326646      
6800001800        0.2333382246      0.114529928       3.078529597       0.7908822623      
                  3.078529597       0.7908822623      -0.1312220256     -0.3091023288     
6885001710        -0.0384552437     -0.2326682261     -0.8134963596     -2.950294468      
                  -0.8134963596     -2.950294468      -0.1885869956     0.3885549963      
6970001620        -0.2275123413     0.17853431        -2.204237309      2.011690859       
                  -2.204237309      2.011690859       0.423853511       0.02365655317     
7055001530        0.2198561356      0.2395588221      2.825943273       0.9602102526      
                  2.825943273       0.9602102526      -0.257244217      -0.2716591994     
7140001440        0.1197124687      -0.2737816989     -0.5581563587     -2.847015442      
                  -0.5581563587     -2.847015442      -0.06305688779    0.4545794825      
7225001350        -0.2918590509     0.05088418633     -2.242690451      1.753250131       
                  -2.242690451      1.753250131       0.4530771449      -0.1030824719     
7310001260        0.133740214       0.3540763991      2.600177461       0.9744124041      
                  2.600177461       0.9744124041      -0.3591111277     -0.1852845382     
7395001170        0.3028205047      -0.1950442936     -0.280786121      -2.669088325      
                  -0.280786121      -2.669088325      0.07681106244     0.4825850346      
7480001080        -0.2765174769     -0.1458825291     -2.128776007      1.488501155       
                  -2.128776007      1.488501155       0.3951457754      -0.2370140561     
7565000990        -0.06599075162    0.3914961657      2.372705177       0.9988888596      
                  2.372705177       0.9988888596      -0.4254713135     -0.08472104882    
7650000900        0.4024271457      -0.02977906367    -0.08511854212    -2.411602142      
                  -0.08511854212    -2.411602142      0.212540583       0.4394874823      
7735000810        -0.140009282      -0.3183516651     -2.125844235      1.271808233       
                  -2.125844235      1.271808233       0.3177434896      -0.3464997553     
7820000720        -0.226334783      0.3026583652      2.127002054       1.134244999       
                  2.127002054       1.134244999       -0.4067507334     0.02467562572     
7905000630        0.4076161308      0.1552104437      0.07746522281     -2.17485099       
                  0.07746522281     -2.17485099       0.3242196056      0.363106922       
7990000540        0.08578741013     -0.3915730004     -2.074839739      0.8762212087      
                  -2.074839739      0.8762212087      0.2218570964      -0.4076800775     
8075000450        -0.3590357493     0.1020626242      1.796791135       1.343667891       
                  1.796791135       1.343667891       -0.3886849515     0.1186581684      
8160000360        0.2854954305      0.324859593       0.2312124081      -2.077031682      
                  0.2312124081      -2.077031682      0.3995278857      0.2803160839      
8245000270        0.2699083447      -0.3308875957     -1.94650905       0.5941566116      
                  -1.94650905       0.5941566116      0.1145398239      -0.4446777583     
8330000180        -0.3647442477     -0.1473763599     1.563958902       1.426037475       
                  1.563958902       1.426037475       -0.3436222147     0.193011569       
8415000090        0.06593054999     0.3966280225      0.3649649686      -1.91445127       
                  0.3649649686      -1.91445127       0.4364728479      0.1674812349      
8500000000        0.3892666226      -0.1779219622     -1.770090064      0.4335741906      
                  -1.770090064      0.4335741906      -0.004772593454   -0.46111868       
