! RsaToolbox (C) 2013 Rohde & Schwarz America
! 
! Number of points: 101
! Number of ports: 2
! Balanced ports?: 0
! 
! 
# Hz S RI R 50
9000              1.012710613       -0.02262063336    6.124684639e-05   -4.250631703e-05  
                  6.124684639e-05   -4.250631703e-05  1.018905711       -0.03198316132    
85008910          0.002786455442    0.1591513147      3.192451546       5.52554774        
                  3.192451546       5.52554774        -0.09196707742    -0.11582296       
170008820         0.1426296206      -0.04484221353    3.20079584        -5.230219212      
                  3.20079584        -5.230219212      -0.0207952196     0.1715445306      
255008730         -0.1766175491     -0.0758741608     -6.065463706      -0.172668889      
                  -6.065463706      -0.172668889      0.07727730941     -0.02612791599    
340008640         -0.06332405754    0.1704058981      2.654132741       5.361115117       
                  2.654132741       5.361115117       -0.1267725145     -0.05366376892    
425008550         0.1599644287      -0.0463210691     3.398734399       -4.869027701      
                  3.398734399       -4.869027701      0.01711339947     0.1029280753      
510008460         -0.1021093517     -0.1636694036     -5.913934826      -0.6515919039     
                  -5.913934826      -0.6515919039     0.07038374703     -0.0789563197     
595008370         -0.1076297428     0.1399091915      2.224335703       5.436709134       
                  2.224335703       5.436709134       -0.08315096666    -0.01230392334    
680008280         0.204713322       0.0339148247      3.673996406       -4.577203721      
                  3.673996406       -4.577203721      0.09238277439     0.0750440568      
765008190         0.009285241824    -0.1640786915     -5.737218076      -1.109853562      
                  -5.737218076      -1.109853562      0.05988100981     -0.06076546685    
850008100         -0.1825260397     0.1117757943      1.867952641       5.530817768       
                  1.867952641       5.530817768       -0.07176318388    0.0649399736      
935008010         0.146262547       0.1236317833      3.954513927       -4.232429358      
                  3.954513927       -4.232429358      0.1014623108      0.03955455131     
1020007920        0.07575815934     -0.1546339575     -5.594727413      -1.453210113      
                  -5.594727413      -1.453210113      -0.004405498205   -0.07546348708    
1105007830        -0.2258568376     -0.00834825681    1.471708336       5.623929573       
                  1.471708336       5.623929573       -0.0628277379     0.07561331191     
1190007740        0.07168253614     0.1407978521      4.203174234       -3.864136686      
                  4.203174234       -3.864136686      0.1242213157      -0.0425236606     
1275007650        0.1647202219      -0.1089624565     -5.474849345      -1.835159482      
                  -5.474849345      -1.835159482      -0.03015002522    -0.08902153113    
1360007560        -0.1639245208     -0.1008192764     1.035608447       5.653184812       
                  1.035608447       5.653184812       -0.005520911138   0.1017926033      
1445007470        0.0007782149135   0.1425790575      4.421813434       -3.542984083      
                  4.421813434       -3.542984083      0.1465139933      -0.0883708891     
1530007380        0.1850524354      -0.01192142862    -5.308178881      -2.195890497      
                  -5.308178881      -2.195890497      -0.06937433629    -0.0645313031     
1615007290        -0.09428633778    -0.1244009714     0.6133135719      5.60986855        
                  0.6133135719      5.60986855        0.02289054821     0.142067089       
1700007200        -0.08885684459    0.09773730249     4.676367159       -3.241600166      
                  4.676367159       -3.241600166      0.1110321184      -0.1339565021     
1785007110        0.1290404527      0.03209138771     -5.065458537      -2.534735343      
                  -5.065458537      -2.534735343      -0.1317068923     -0.06397643629    
1870007020        -0.0220679862     -0.1366460372     0.2189216055      5.61227798        
                  0.2189216055      5.61227798        0.0660385241      0.1318020807      
1955006930        -0.1074207293     0.02191199963     4.884172728       -2.884757954      
                  4.884172728       -2.884757954      0.08911850061     -0.1940597883     
2040006840        0.08349127214     0.03941222454     -4.829399453      -2.822757866      
                  -4.829399453      -2.822757866      -0.1546023676     -0.04119193828    
2125006750        0.03632076756     -0.09355445913    -0.2010545322     5.640460049       
                  -0.2010545322     5.640460049       0.131211435       0.1366282608      
2210006660        -0.09278316214    -0.0005418572489  4.978990183       -2.530121156      
                  4.978990183       -2.530121156      0.04750286512     -0.2180288508     
2295006570        0.0300793279      0.03772292831     -4.596930756      -3.150998042      
                  -4.596930756      -3.150998042      -0.1856419933     0.01497204053     
2380006480        0.02934682085     -0.05303459605    -0.5601283539     5.578597249       
                  -0.5601283539     5.578597249       0.1668096734      0.1140312729      
2465006390        -0.08891409137    -0.01660431019    5.05837201        -2.211751774      
                  5.05837201        -2.211751774      -0.01943832224    -0.2596028904     
2550006300        0.01164384912     0.001928410388    -4.289552076      -3.492759199      
                  -4.289552076      -3.492759199      -0.190828777      0.06040533434     
2635006210        0.0260113892      -0.04528009266    -0.902792023      5.522900984       
                  -0.902792023      5.522900984       0.2139523282      0.0642604851      
2720006120        -0.08294681364    -0.01158427991    5.135717866       -1.838769963      
                  5.135717866       -1.838769963      -0.09040212098    -0.2648923691     
2805006030        0.01701326909     0.001018556471    -4.005756556      -3.736939418      
                  -4.005756556      -3.736939418      -0.1628585448     0.1233613751      
2890005940        0.02199282142     -0.03587823782    -1.24348835       5.3983208         
                  -1.24348835       5.3983208         0.2322215653      0.009209294163    
2975005850        -0.09557488242    -0.008708446767   5.169810261       -1.38430607       
                  5.169810261       -1.38430607       -0.1624387285     -0.2473566013     
3060005760        0.01785704748     0.01093667512     -3.707416994      -4.082001205      
                  -3.707416994      -4.082001205      -0.1193375437     0.1686741461      
3145005670        0.03712273849     -0.04471445616    -1.640055167      5.247080191       
                  -1.640055167      5.247080191       0.2312648517      -0.07138807056    
3230005580        -0.1017388407     -0.03347401964    5.27751891        -0.9838083779     
                  5.27751891        -0.9838083779     -0.2272104161     -0.2075678575     
3315005490        0.01096935022     0.03226002636     -3.434455374      -4.307981361      
                  -3.434455374      -4.307981361      -0.04535391112    0.2028450746      
3400005400        0.06117713335     -0.02819759196    -1.995125388      5.079426424       
                  -1.995125388      5.079426424       0.2016318508      -0.1448369908     
3485005310        -0.09739101236    -0.06414515395    5.378683063       -0.6125943857     
                  5.378683063       -0.6125943857     -0.2821075121     -0.1302083809     
3570005220        -0.02064052063    0.0493956347      -3.25204422       -4.501377447      
                  -3.25204422       -4.501377447      0.03319200816     0.2101777539      
3655005130        0.06953982732     0.004805379353    -2.194416886      4.946675681       
                  -2.194416886      4.946675681       0.1349981129      -0.2079321348     
3740005040        -0.07662770759    -0.0928175332     5.372137401       -0.2570681777     
                  5.372137401       -0.2570681777     -0.3121077973     -0.03895196387    
3825004950        -0.05946426248    0.03738517661     -2.978113703      -4.638319358      
                  -2.978113703      -4.638319358      0.1132327788      0.1759978542      
3910004860        0.06351164016     0.03787802138     -2.614982088      4.724164515       
                  -2.614982088      4.724164515       0.05060493644     -0.2590593892     
3995004770        -0.031262414      -0.1109998687     5.403289049       0.06701871723     
                  5.403289049       0.06701871723     -0.3056769178     0.06521306043     
4080004680        -0.0848187908     0.008081732547    -2.707872544      -4.807838971      
                  -2.707872544      -4.807838971      0.1901106711      0.1281482552      
4165004590        0.03925013065     0.07057020234     -2.87590145       4.591103047       
                  -2.87590145       4.591103047       -0.0464268001     -0.2714067071     
4250004500        0.0112181787      -0.08796261725    5.492703828       0.30953867        
                  5.492703828       0.30953867        -0.2656764708     0.1754698485      
4335004410        -0.1009521673     -0.02018231959    -2.450027541      -4.920978924      
                  -2.450027541      -4.920978924      0.2296098022      0.04440065095     
4420004320        -0.007932727997   0.08326708036     -3.07950027       4.476575          
                  -3.07950027       4.476575          -0.16447862       -0.2507106351     
4505004230        0.03793115566     -0.05677704173    5.445242757       0.4917242483      
                  5.445242757       0.4917242483      -0.1958383273     0.258865032       
4590004140        -0.09956852938    -0.05185125836    -2.185865778      -4.955746099      
                  -2.185865778      -4.955746099      0.2291339818      -0.05787526649    
4675004050        -0.04527441715    0.07035357186     -3.179449725      4.362539809       
                  -3.179449725      4.362539809       -0.2551882118     -0.1908034607     
4760003960        0.05704436026     -0.01582841692    5.295158607       0.7253101561      
                  5.295158607       0.7253101561      -0.08658455259    0.3105943447      
4845003870        -0.07641924578    -0.06851012499    -1.93911433       -5.008643657      
                  -1.93911433       -5.008643657      0.2000286597      -0.1551399588     
4930003780        -0.07658381587    0.04051953676     -3.363704909      4.177387512       
                  -3.363704909      4.177387512       -0.3195919188     -0.09962180802    
5015003690        0.04948492988     0.03811181405     5.166870259       0.9736394588      
                  5.166870259       0.9736394588      0.03650577619     0.3340410312      
5100003600        -0.05179916621    -0.05679696179    -1.762240817      -5.083324271      
                  -1.762240817      -5.083324271      0.1185143471      -0.2290198738     
5185003510        -0.09125429208    0.00408186403     -3.418716538      3.955238912       
                  -3.418716538      3.955238912       -0.3497345564     0.01132115636     
5270003420        0.01411088789     0.07124316833     5.03377111        1.197991305       
                  5.03377111        1.197991305       0.1500555293      0.2997842914      
5355003330        -0.04223843379    -0.02265316371    -1.649251148      -5.1459048        
                  -1.649251148      -5.1459048        -0.002433378415   -0.2789373355     
5440003240        -0.07096409989    -0.03934010844    -3.365400266      3.791319359       
                  -3.365400266      3.791319359       -0.3196369174     0.1320157084      
5525003150        -0.0187010119     0.06068759955     5.019289505       1.313372661       
                  5.019289505       1.313372661       0.2689525117      0.2010423624      
5610003060        -0.03856733948    0.0287878784      -1.602081219      -4.98482938       
                  -1.602081219      -4.98482938       -0.136385803      -0.2675051877     
5695002970        -0.01309024359    -0.04316456452    -3.363667051      3.572903738       
                  -3.363667051      3.572903738       -0.2209277798     0.2523088275      
5780002880        -0.02646691654    0.0230920309      4.971364843       1.408551328       
                  4.971364843       1.408551328       0.3291348502      0.05777138512     
5865002790        -0.07705814516    0.07657621436     -1.495855389      -4.722694394      
                  -1.495855389      -4.722694394      -0.272200808      -0.1854827982     
5950002700        0.0366612643      0.005492836122    -3.398686194      3.364036793       
                  -3.398686194      3.364036793       -0.08276613229    0.3329428527      
6035002610        -0.01868703196    -0.03954243523    4.757419801       1.304713059       
                  4.757419801       1.304713059       0.2979198056      -0.09758215131    
6120002520        -0.1452681745     0.07356465459     -1.379784914      -4.464989858      
                  -1.379784914      -4.464989858      -0.3582830967     -0.0453562821     
6205002430        0.07112681024     0.08853836779     -3.285136839      3.157717778       
                  -3.285136839      3.157717778       0.1017825881      0.3369032537      
6290002340        0.06060796099     -0.09102738097    4.53186615        1.1650458         
                  4.53186615        1.1650458         0.1943289934      -0.2478932318     
6375002250        -0.215652092      0.008311581765    -1.280699205      -4.168899917      
                  -1.280699205      -4.168899917      -0.3761850117     0.1302039957      
6460002160        0.02980735368     0.206680013       -3.038396253      2.957754485       
                  -3.038396253      2.957754485       0.2705542891      0.2724997575      
6545002070        0.1769601329      -0.06020507298    4.12466379        1.066679852       
                  4.12466379        1.066679852       0.02868155892     -0.3199512961     
6630001980        -0.2074842556     -0.1112484143     -1.135604257      -3.861096378      
                  -1.135604257      -3.861096378      -0.2984368259     0.3020264284      
6715001890        -0.07176822318    0.2753440319      -2.733839938      2.638668192       
                  -2.733839938      2.638668192       0.3834522311      0.1561563548      
6800001800        0.2665626465      0.0549495497      3.638083789       1.123695178       
                  3.638083789       1.123695178       -0.1316497747     -0.3087036393     
6885001710        -0.1033157733     -0.2407063541     -0.8218006174     -3.509207179      
                  -0.8218006174     -3.509207179      -0.1875950559     0.387724881       
6970001620        -0.2103742581     0.2341745414      -2.644165754      2.230358035       
                  -2.644165754      2.230358035       0.4232816435      0.02309693783     
7055001530        0.2637804729      0.2076063592      3.229911098       1.24273626        
                  3.229911098       1.24273626        -0.2568393699     -0.2712384803     
7140001440        0.08142741469     -0.3004710838     -0.5341599116     -3.235802859      
                  -0.5341599116     -3.235802859      -0.06306179487    0.4536243997      
7225001350        -0.2965971554     0.09694747966     -2.583257885      1.903180148       
                  -2.583257885      1.903180148       0.4524124222      -0.1031863357     
7310001260        0.1706862876      0.3472112533      2.869643743       1.160735573       
                  2.869643743       1.160735573       -0.3585189195     -0.1850475325     
7395001170        0.2846240433      -0.2278932006     -0.2467663782     -2.971933771      
                  -0.2467663782     -2.971933771      0.07786936968     0.4823848423      
7480001080        -0.2997216098     -0.1108999456     -2.418921776      1.614156192       
                  -2.418921776      1.614156192       0.3949894788      -0.2373206146     
7565000990        -0.03059172331    0.4004031326      2.619363373       1.164589729       
                  2.619363373       1.164589729       -0.4249454548     -0.08452530552    
7650000900        0.4011119418      -0.05674709998    -0.05505817999    -2.613044415      
                  -0.05505817999    -2.613044415      0.212493236       0.4383648351      
7735000810        -0.161193485      -0.3061584333     -2.299465013      1.348111318       
                  -2.299465013      1.348111318       0.3174065644      -0.3462322881     
7820000720        -0.2074740756     0.3176424257      2.279968887       1.242067696       
                  2.279968887       1.242067696       -0.405970949      0.02501629929     
7905000630        0.4144605563      0.1385192272      0.09540393209     -2.3027128        
                  0.09540393209     -2.3027128        0.3240983653      0.3621933461      
7990000540        0.06665418501     -0.3903759765     -2.216744203      0.9271454788      
                  -2.216744203      0.9271454788      0.2200502622      -0.4068556075     
8075000450        -0.350617029      0.119913144       1.909466654       1.432823804       
                  1.909466654       1.432823804       -0.3875565644     0.1188067431      
8160000360        0.2980532788      0.3137083841      0.2504264304      -2.192035207      
                  0.2504264304      -2.192035207      0.3994092883      0.2792283156      
8245000270        0.2569432627      -0.3370517131     -2.040049316      0.6167016579      
                  -2.040049316      0.6167016579      0.1136805755      -0.444019429      
8330000180        -0.3663552934     -0.1333530861     1.638668965       1.499506273       
                  1.638668965       1.499506273       -0.3431412196     0.1943099844      
8415000090        0.07918183201     0.3928744301      0.3844135543      -1.997946862      
                  0.3844135543      -1.997946862      0.4357169745      0.1673724256      
8500000000        0.3830471044      -0.1856439437     -1.831358006      0.445948001       
                  -1.831358006      0.445948001       -0.003795352065   -0.4602605892     
