! RsaToolbox (C) 2013 Rohde & Schwarz America
! 
! Number of points: 101
! Number of ports: 2
! Balanced ports?: 0
! 
! 
# Hz S RI R 50
9000              1.016262499       -0.02344751211    6.821257215e-05   1.971283276e-05   
                  6.821257215e-05   1.971283276e-05   1.021797378       -0.03021025923    
85008910          0.002510564893    0.1592951447      3.194529202       5.520098198       
                  3.194529202       5.520098198       -0.09244432432    -0.1153790747     
170008820         0.1424430982      -0.04434171211    3.195547133       -5.228400452      
                  3.195547133       -5.228400452      -0.02015857765    0.1716692334      
255008730         -0.1762309991     -0.07588820333    -6.066563518      -0.1718620607     
                  -6.066563518      -0.1718620607     0.07751734561     -0.02603124712    
340008640         -0.06363345913    0.170028408       2.651326894       5.36209398        
                  2.651326894       5.36209398        -0.1265894434     -0.05374622127    
425008550         0.1595724855      -0.04650706894    3.394486977       -4.871017888      
                  3.394486977       -4.871017888      0.01668552618     0.1032139771      
510008460         -0.101995083      -0.1635975771     -5.91138799       -0.6490691332     
                  -5.91138799       -0.6490691332     0.07040800994     -0.07978132611    
595008370         -0.1075711404     0.1401465888      2.227003273       5.432548298       
                  2.227003273       5.432548298       -0.08350613101    -0.01190233861    
680008280         0.2046560442      0.03371222545     3.668510168       -4.576243704      
                  3.668510168       -4.576243704      0.09195314397     0.07518480727     
765008190         0.009415715923    -0.1640510424     -5.737194502      -1.10743542       
                  -5.737194502      -1.10743542       0.0599106995      -0.06064485872    
850008100         -0.1819661585     0.1116149018      1.868637277       5.53005039        
                  1.868637277       5.53005039        -0.07161485286    0.06486425685     
935008010         0.145967876       0.1236512708      3.953054546       -4.232286437      
                  3.953054546       -4.232286437      0.1023208715      0.03889679457     
1020007920        0.075429199       -0.1540531577     -5.593445228      -1.4512005        
                  -5.593445228      -1.4512005        -0.004749558747   -0.07531412202    
1105007830        -0.2254295917     -0.008125839318   1.47755891        5.623591407       
                  1.47755891        5.623591407       -0.06283431455    0.07535790522     
1190007740        0.07188799031     0.1407731012      4.200881535       -3.862831855      
                  4.200881535       -3.862831855      0.1242453827      -0.0427342578     
1275007650        0.1646101037      -0.1087245891     -5.472689879      -1.833953758      
                  -5.472689879      -1.833953758      -0.02974052363    -0.08920793435    
1360007560        -0.1637743247     -0.1004339524     1.045548909       5.647383894       
                  1.045548909       5.647383894       -0.005393078728   0.1017047795      
1445007470        0.0005726576868   0.1423838573      4.414524653       -3.544531537      
                  4.414524653       -3.544531537      0.1471654743      -0.08821928308    
1530007380        0.1849612788      -0.01140811681    -5.310777391      -2.191802831      
                  -5.310777391      -2.191802831      -0.06919331111    -0.06440624007    
1615007290        -0.09442874005    -0.1241999104     0.6165892776      5.609179877       
                  0.6165892776      5.609179877       0.02355466265     0.1421508478      
1700007200        -0.0885838379     0.09769904226     4.674585721       -3.244243638      
                  4.674585721       -3.244243638      0.110671871       -0.1333385711     
1785007110        0.1287734839      0.03208176207     -5.066178648      -2.534054626      
                  -5.066178648      -2.534054626      -0.1318700408     -0.06409556495    
1870007020        -0.02167062399    -0.1364503114     0.2227189901      5.612431285       
                  0.2227189901      5.612431285       0.06585930224     0.1317497717      
1955006930        -0.1072495404     0.02168117831     4.88143899        -2.88853939       
                  4.88143899        -2.88853939       0.0895917149      -0.1938443001     
2040006840        0.0832695616      0.03937922826     -4.829558603      -2.819112103      
                  -4.829558603      -2.819112103      -0.1547944206     -0.04140901032    
2125006750        0.03637474262     -0.09360587791    -0.1956429094     5.64271063        
                  -0.1956429094     5.64271063        0.1310131096      0.1367461209      
2210006660        -0.0927223406     -0.0008207151262  4.977783375       -2.532114609      
                  4.977783375       -2.532114609      0.04759925322     -0.2182292727     
2295006570        0.02982787446     0.03714785522     -4.598204825      -3.149111905      
                  -4.598204825      -3.149111905      -0.1861093356     0.01518842028     
2380006480        0.02956730644     -0.05287220013    -0.5568064197     5.577393833       
                  -0.5568064197     5.577393833       0.1668924271      0.1137692135      
2465006390        -0.088576419      -0.01660720698    5.058030046       -2.214944841      
                  5.058030046       -2.214944841      -0.019810424      -0.2595798567     
2550006300        0.01194452945     0.001734163281    -4.289257023      -3.486887565      
                  -4.289257023      -3.486887565      -0.1908677305     0.06098717207     
2635006210        0.02607127611     -0.0450189751     -0.8995255882     5.520669573       
                  -0.8995255882     5.520669573       0.2137021394      0.06399811697     
2720006120        -0.08301915902    -0.01118880569    5.133414395       -1.839595538      
                  5.133414395       -1.839595538      -0.09049219929    -0.264248758      
2805006030        0.01732987154     0.0005588314019   -4.004473526      -3.735900123      
                  -4.004473526      -3.735900123      -0.1628623741     0.1237737336      
2890005940        0.02187280714     -0.03663288859    -1.242365993      5.395972167       
                  -1.242365993      5.395972167       0.2321291131      0.009121948891    
2975005850        -0.09517717668    -0.008765075444   5.163585895       -1.384872026      
                  5.163585895       -1.384872026      -0.162256311      -0.2472683306     
3060005760        0.01865627523     0.01007627662     -3.705541897      -4.079444055      
                  -3.705541897      -4.079444055      -0.1186054648     0.1688546116      
3145005670        0.03671999802     -0.04435903078    -1.637196578      5.243855208       
                  -1.637196578      5.243855208       0.2315597627      -0.07158399244    
3230005580        -0.1019121227     -0.03355547017    5.274144057       -0.9808057735     
                  5.274144057       -0.9808057735     -0.2271132863     -0.2076901671     
3315005490        0.01133564778     0.03191503113     -3.432072389      -4.306695311      
                  -3.432072389      -4.306695311      -0.04560922079    0.2028042701      
3400005400        0.06142433919     -0.02862261294    -1.99336201       5.075637287       
                  -1.99336201       5.075637287       0.2015008585      -0.1448544592     
3485005310        -0.09783472501    -0.06407659746    5.372474892       -0.6189987439     
                  5.372474892       -0.6189987439     -0.2820377186     -0.1297299701     
3570005220        -0.02048265339    0.04927301127     -3.253292149      -4.498022941      
                  -3.253292149      -4.498022941      0.03353917912     0.2102566165      
3655005130        0.06928887478     0.004349217674    -2.192779051      4.944296345       
                  -2.192779051      4.944296345       0.1340291611      -0.2086848081     
3740005040        -0.07722643891    -0.09330264792    5.367313426       -0.2577653505     
                  5.367313426       -0.2577653505     -0.3117600909     -0.03954064736    
3825004950        -0.05910071106    0.03734754404     -2.978423553      -4.634139465      
                  -2.978423553      -4.634139465      0.1134144553      0.175634235       
3910004860        0.06366286749     0.03781134191     -2.612663056      4.72284039        
                  -2.612663056      4.72284039        0.05032265214     -0.2592260233     
3995004770        -0.03083364583    -0.1114834878     5.400006818       0.06593979381     
                  5.400006818       0.06593979381     -0.3052598997     0.06539567332     
4080004680        -0.08509091604    0.008143447526    -2.70625789       -4.803959856      
                  -2.70625789       -4.803959856      0.1902762879      0.1280436425      
4165004590        0.03913550779     0.07040903396     -2.873703428      4.586039017       
                  -2.873703428      4.586039017       -0.0466758229     -0.271739085      
4250004500        0.01210257192     -0.08808152972    5.486961605       0.3101880875      
                  5.486961605       0.3101880875      -0.2656060168     0.1754479102      
4335004410        -0.1013587035     -0.01986434622    -2.447712044      -4.915165567      
                  -2.447712044      -4.915165567      0.2298697494      0.04447164316     
4420004320        -0.00763300698    0.0835581513      -3.077060345      4.471974913       
                  -3.077060345      4.471974913       -0.164082794      -0.2507809415     
4505004230        0.0382345117      -0.05696216221    5.438928596       0.4904839265      
                  5.438928596       0.4904839265      -0.1964169855     0.2587571272      
4590004140        -0.0997383617     -0.05190275073    -2.183670717      -4.950062238      
                  -2.183670717      -4.950062238      0.2294001742      -0.05766976253    
4675004050        -0.04488030869    0.07045036433     -3.17595562       4.354946144       
                  -3.17595562       4.354946144       -0.2554284634     -0.191070152      
4760003960        0.05714118436     -0.01641648895    5.288885354       0.7251980119      
                  5.288885354       0.7251980119      -0.08571173638    0.3112250084      
4845003870        -0.07621467278    -0.06836046563    -1.934701699      -5.003246407      
                  -1.934701699      -5.003246407      0.2003195449      -0.155054051      
4930003780        -0.07640501296    0.04070919869     -3.359121883      4.171835473       
                  -3.359121883      4.171835473       -0.3196175069     -0.09940724813    
5015003690        0.04974689153     0.03744023644     5.160152546       0.9728819181      
                  5.160152546       0.9728819181      0.03555618859     0.3342844217      
5100003600        -0.05210521401    -0.05630928635    -1.761577922      -5.076623782      
                  -1.761577922      -5.076623782      0.1193001913      -0.2289931819     
5185003510        -0.09059811029    0.003821906817    -3.413715828      3.949386332       
                  -3.413715828      3.949386332       -0.3492904335     0.01115353101     
5270003420        0.01464041955     0.07143392005     5.027032229       1.198703517       
                  5.027032229       1.198703517       0.1499750667      0.2997187805      
5355003330        -0.04219295576    -0.0224014406     -1.648428843      -5.13554029       
                  -1.648428843      -5.13554029       -0.002383974604   -0.2790444124     
5440003240        -0.07134319488    -0.03952677032    -3.360851018      3.783910118       
                  -3.360851018      3.783910118       -0.3194668224     0.1322790753      
5525003150        -0.01843110754    0.06092911908     5.011272279       1.313328587       
                  5.011272279       1.313328587       0.2692100071      0.2011623519      
5610003060        -0.03852772338    0.02795165862     -1.591678695      -4.978956694      
                  -1.591678695      -4.978956694      -0.1370037235     -0.2676610407     
5695002970        -0.01378034845    -0.04327013772    -3.360002322      3.566042025       
                  -3.360002322      3.566042025       -0.2211661862     0.2529749241      
5780002880        -0.02581644789    0.02331837109     4.962775965       1.407691541       
                  4.962775965       1.407691541       0.3291884086      0.05729295311     
5865002790        -0.07666034421    0.0757615751      -1.491851303      -4.716074532      
                  -1.491851303      -4.716074532      -0.2728926887     -0.1849869269     
5950002700        0.03622076837     0.005035093918    -3.393950099      3.358486221       
                  -3.393950099      3.358486221       -0.08285573597    0.3330078019      
6035002610        -0.0188667899     -0.0388637653     4.74788915        1.303991793       
                  4.74788915        1.303991793       0.2982454974      -0.09774055064    
6120002520        -0.1446846382     0.07351237081     -1.375360467      -4.457203563      
                  -1.375360467      -4.457203563      -0.3584893555     -0.04550145245    
6205002430        0.07094228982     0.08824214809     -3.283100437      3.152769328       
                  -3.283100437      3.152769328       0.101978506       0.3375255781      
6290002340        0.06032499002     -0.09085588713    4.523980697       1.16522985        
                  4.523980697       1.16522985        0.194704859       -0.2479645711     
6375002250        -0.2151029914     0.008862142348    -1.276412005      -4.163875011      
                  -1.276412005      -4.163875011      -0.3761824311     0.130108356       
6460002160        0.02964826438     0.2061017254      -3.036562134      2.952459786       
                  -3.036562134      2.952459786       0.2707167678      0.272055721       
6545002070        0.1761450275      -0.0596003776     4.118414132       1.068031922       
                  4.118414132       1.068031922       0.02902062255     -0.3196262502     
6630001980        -0.2070197507     -0.1108338973     -1.131887936      -3.856048777      
                  -1.131887936      -3.856048777      -0.2986652356     0.3021248617      
6715001890        -0.07172597894    0.2747601395      -2.732996286      2.635545434       
                  -2.732996286      2.635545434       0.3837961145      0.1558254485      
6800001800        0.2655488461      0.05553223392     3.631596619       1.127050316       
                  3.631596619       1.127050316       -0.1316847621     -0.3089084263     
6885001710        -0.1031515222     -0.2406621057     -0.817931881      -3.507304622      
                  -0.817931881      -3.507304622      -0.1878023698     0.3878544371      
6970001620        -0.2092934158     0.2334324867      -2.643184607      2.227380886       
                  -2.643184607      2.227380886       0.4234094448      0.02320587099     
7055001530        0.263088079       0.2075876395      3.226473129       1.243619294       
                  3.226473129       1.243619294       -0.257120455      -0.2715130959     
7140001440        0.08177447176     -0.2995979435     -0.5398308764     -3.231932526      
                  -0.5398308764     -3.231932526      -0.06352838456    0.4536403715      
7225001350        -0.2964165906     0.0961028421      -2.581998978      1.899678599       
                  -2.581998978      1.899678599       0.4527254486      -0.1036169878     
7310001260        0.1699373554      0.3470812959      2.86781352        1.163154481       
                  2.86781352        1.163154481       -0.3583612689     -0.1852266083     
7395001170        0.2852629356      -0.227431559      -0.2469884407     -2.96813971       
                  -0.2469884407     -2.96813971       0.07778950231     0.4817607726      
7480001080        -0.2989603896     -0.1106001632     -2.417394076      1.612851613       
                  -2.417394076      1.612851613       0.3947369453      -0.23732516       
7565000990        -0.03124535316    0.3999442136      2.617753173       1.165878636       
                  2.617753173       1.165878636       -0.4247511641     -0.08412262326    
7650000900        0.4009537263      -0.05621528942    -0.05433325398    -2.611934485      
                  -0.05433325398    -2.611934485      0.2129628399      0.4385685355      
7735000810        -0.1611636675     -0.3065969168     -2.29876052       1.34730989        
                  -2.29876052       1.34730989        0.3175365601      -0.3462175915     
7820000720        -0.2072004299     0.3177016242      2.278926021       1.242215111       
                  2.278926021       1.242215111       -0.4057886894     0.02492687447     
7905000630        0.4144034845      0.1388517905      0.096574947       -2.300757185      
                  0.096574947       -2.300757185      0.3242848479      0.3626830091      
7990000540        0.06620464557     -0.390522291      -2.216012188      0.9259799461      
                  -2.216012188      0.9259799461      0.2223780058      -0.407301313      
8075000450        -0.3506067528     0.1200681999      1.908078827       1.433389256       
                  1.908078827       1.433389256       -0.3880014569     0.118451555       
8160000360        0.2972744762      0.3135051919      0.2519965495      -2.190946786      
                  0.2519965495      -2.190946786      0.3994714959      0.2799675191      
8245000270        0.2577336084      -0.3372227007     -2.039924274      0.6156000387      
                  -2.039924274      0.6156000387      0.113708194       -0.4444073436     
8330000180        -0.3662064147     -0.1323092888     1.637483535       1.50012486        
                  1.637483535       1.50012486        -0.3428769651     0.1935864734      
8415000090        0.07818857034     0.3929979189      0.3847518197      -1.997836317      
                  0.3847518197      -1.997836317      0.4359237222      0.1670199187      
8500000000        0.3825743683      -0.1863092009     -1.83180461       0.4465896479      
                  -1.83180461       0.4465896479      -0.004631624383   -0.4603718823     
