! RsaToolbox (C) 2013 Rohde & Schwarz America
! 
! Number of points: 101
! Number of ports: 2
! Balanced ports?: 0
! 
! 
# Hz S RI R 50
9000              0.9913770478      -0.01113781845    7.61239667e-05    -1.165222646e-05  
                  7.61239667e-05    -1.165222646e-05  1.002617043       -0.01948241308    
85008910          -0.02512447155    0.0970981312      2.818050755       4.712593795       
                  2.818050755       4.712593795       -0.09225962808    -0.1164559642     
170008820         0.1013586848      -0.002923184672   2.8448467         -4.761665114      
                  2.8448467         -4.761665114      -0.02105871454    0.1718915282      
255008730         -0.1381795368     -0.06572851902    -5.569534893      -0.03540602675    
                  -5.569534893      -0.03540602675    0.07782689469     -0.02663193161    
340008640         -0.06704217583    0.125988668       2.542103674       4.86109454        
                  2.542103674       4.86109454        -0.1270869336     -0.05439071213    
425008550         0.1207519862      -0.02982622731    3.026283402       -4.570385308      
                  3.026283402       -4.570385308      0.0162783271      0.1029480941      
510008460         -0.07299344358    -0.1375262681     -5.462191417      -0.426839146      
                  -5.462191417      -0.426839146      0.07095892224     -0.07997661095    
595008370         -0.08778703481    0.09805481707     2.170345882       4.990261663       
                  2.170345882       4.990261663       -0.08420388451    -0.01236430952    
680008280         0.1699150977      0.03742452699     3.238063236       -4.367837161      
                  3.238063236       -4.367837161      0.09210188362     0.07573555187     
765008190         0.02238337413     -0.1188120816     -5.342513665      -0.9117721145     
                  -5.342513665      -0.9117721145     0.06040549635     -0.06085769517    
850008100         -0.1603771467     0.08600595148     1.953556148       5.045004714       
                  1.953556148       5.045004714       -0.07210374055    0.0649322132      
935008010         0.1120410392      0.105690963       3.563078967       -4.066964038      
                  3.563078967       -4.066964038      0.1022295803      0.03900361985     
1020007920        0.06714810837     -0.1130655599     -5.256099379      -1.228880789      
                  -5.256099379      -1.228880789      -0.004988732244   -0.07616543678    
1105007830        -0.1977046783     -0.02217393068    1.663470995       5.062711754       
                  1.663470995       5.062711754       -0.06363607066    0.07526700869     
1190007740        0.05073729409     0.1008635692      3.854423866       -3.683690527      
                  3.854423866       -3.683690527      0.1243739956      -0.04233167871    
1275007650        0.1432449433      -0.07868813477    -5.166525501      -1.487201571      
                  -5.166525501      -1.487201571      -0.03029201281    -0.08935948619    
1360007560        -0.1283384425     -0.08969357309    1.222851457       5.199033921       
                  1.222851457       5.199033921       -0.005912362071   0.1021536812      
1445007470        0.001802505856    0.09427619415     4.034553946       -3.40619093       
                  4.034553946       -3.40619093       0.147464911       -0.08817810243    
1530007380        0.1396705679      0.0041273839      -4.978051882      -1.704129467      
                  -4.978051882      -1.704129467      -0.06961988804    -0.0649095241     
1615007290        -0.05671800299    -0.0703753387     0.8321382896      5.07026857        
                  0.8321382896      5.07026857        0.02275161013     0.1425886182      
1700007200        -0.05297548922    0.04765312603     4.112114379       -3.198824764      
                  4.112114379       -3.198824764      0.1111261644      -0.1335196069     
1785007110        0.0625651765      0.01186059869     -4.744109201      -2.032347379      
                  -4.744109201      -2.032347379      -0.1325014384     -0.06447839356    
1870007020        -0.0200963318     -0.06152806745    0.5423914929      5.082391448       
                  0.5423914929      5.082391448       0.0653824065      0.1325991133      
1955006930        -0.03779622996    -0.004609565345   4.244633113       -2.940968916      
                  4.244633113       -2.940968916      0.08949796229     -0.1942181304     
2040006840        0.02880440643     -0.02006437924    -4.554302054      -2.253575914      
                  -4.554302054      -2.253575914      -0.1554323113     -0.04196627329    
2125006750        -0.004800469931   -0.02300960825    0.2338860164      5.122891299       
                  0.2338860164      5.122891299       0.1308182535      0.1373444699      
2210006660        -0.006833292011   0.01182835737     4.28623891        -2.672518411      
                  4.28623891        -2.672518411      0.04828662441     -0.2186841332     
2295006570        0.008972168302    -0.05094527936    -4.355902103      -2.475984598      
                  -4.355902103      -2.475984598      -0.1868102679     0.01487661895     
2380006480        -0.05102551022    -0.003904504161   -0.02728979414    5.026313006       
                  -0.02728979414    5.026313006       0.1668948995      0.1142058504      
2465006390        -0.006674135631   0.04341116255     4.269278103       -2.447461739      
                  4.269278103       -2.447461739      -0.01943928527    -0.2604216778     
2550006300        0.03212274403     -0.09324884047    -4.073058795      -2.74877692       
                  -4.073058795      -2.74877692       -0.1915607054     0.06036048624     
2635006210        -0.08721528941    -0.03852451661    -0.1701414383     4.884274835       
                  -0.1701414383     4.884274835       0.2138160523      0.06421021279     
2720006120        -0.03052558193    0.08899940598     4.283555298       -2.1494199        
                  4.283555298       -2.1494199        -0.09055678674    -0.2656016966     
2805006030        0.08904788782     -0.08306094597    -3.852308316      -2.828230185      
                  -3.852308316      -2.828230185      -0.1636476351     0.1229481924      
2890005940        -0.09629686156    -0.09049721092    -0.3523880319     4.697448311       
                  -0.3523880319     4.697448311       0.2327748047      0.008899306592    
2975005850        -0.09145162195    0.1146676189      4.256779855       -1.74363644       
                  4.256779855       -1.74363644       -0.1619316165     -0.2490049846     
3060005760        0.134917824       -0.03197492485    -3.624396193      -3.00443213       
                  -3.624396193      -3.00443213       -0.1192940702     0.1684775503      
3145005670        -0.04959832946    -0.1460413036     -0.698583215      4.578257711       
                  -0.698583215      4.578257711       0.2326469027      -0.07181217374    
3230005580        -0.1552480523     0.08262675076     4.324547339       -1.416169032      
                  4.324547339       -1.416169032      -0.2267964923     -0.2090735875     
3315005490        0.1536717306      0.05120772412     -3.406328058      -3.016913912      
                  -3.406328058      -3.016913912      -0.04598472615    0.2028441736      
3400005400        0.02298982226     -0.1750154762     -0.896593395      4.363472139       
                  -0.896593395      4.363472139       0.2027945886      -0.1451946345     
3485005310        -0.2132831822     0.02622570115     4.259898176       -1.189704657      
                  4.259898176       -1.189704657      -0.2819862758     -0.130686414      
3570005220        0.1164331729      0.1400178063      -3.228971303      -3.003819985      
                  -3.228971303      -3.003819985      0.03378704143     0.2114734456      
3655005130        0.09831037496     -0.1604843677     -0.9716221698     4.154779177       
                  -0.9716221698     4.154779177       0.1361466496      -0.2086670134     
3740005040        -0.2335335147     -0.06170471714    4.120896845       -0.974818301      
                  4.120896845       -0.974818301      -0.311809444      -0.04019899553    
3825004950        0.03356437987     0.1956341165      -2.949921268      -2.944224278      
                  -2.949921268      -2.944224278      0.114228456       0.1775404041      
3910004860        0.1747905001      -0.1102499932     -1.196490232      3.908412521       
                  -1.196490232      3.908412521       0.05230921002     -0.2589567056     
3995004770        -0.2051988853     -0.1572141767     3.949245958       -0.7866291648     
                  3.949245958       -0.7866291648     -0.3055134078     0.0654371453      
4080004680        -0.06931666618    0.2041752915      -2.659716663      -2.994066821      
                  -2.659716663      -2.994066821      0.1922374447      0.1289158784      
4165004590        0.2075089816      -0.02071337934    -1.407560066      3.746973265       
                  -1.407560066      3.746973265       -0.04571576448    -0.2732116125     
4250004500        -0.1345487963     -0.2112290054     3.908746463       -0.5700800192     
                  3.908746463       -0.5700800192     -0.2655879997     0.1760952332      
4335004410        -0.171010963      0.1684118648      -2.41302257       -3.048486132      
                  -2.41302257       -3.048486132      0.2312465799      0.04505858385     
4420004320        0.1899792487      0.07253107813     -1.522953329      3.578108664       
                  -1.522953329      3.578108664       -0.1635028262     -0.251661225      
4505004230        -0.04598210779    -0.2357950208     3.778381951       -0.4246337479     
                  3.778381951       -0.4246337479     -0.1970915436     0.2595249077      
4590004140        -0.2423317231     0.09241116214     -2.160228145      -3.028346457      
                  -2.160228145      -3.028346457      0.230366726       -0.05734059562    
4675004050        0.1396200082      0.1471248978      -1.571691014      3.380670696       
                  -1.571691014      3.380670696       -0.2557268784     -0.1920281317     
4760003960        0.05803637481     -0.2173949049     3.628285454       -0.227058422      
                  3.628285454       -0.227058422      -0.08730378978    0.3117255083      
4845003870        -0.263486623      0.001686246524    -1.912796193      -3.022544573      
                  -1.912796193      -3.022544573      0.2008372022      -0.1547868037     
4930003780        0.05428558847     0.1938599273      -1.704757662      3.151690186       
                  -1.704757662      3.151690186       -0.3204531428     -0.1003149693     
5015003690        0.1370972411      -0.1494980304     3.493592175       -0.009006725783   
                  3.493592175       -0.009006725783   0.0350691007      0.3356764516      
5100003600        -0.2493298098     -0.07789157622    -1.726607805      -2.988060892      
                  -1.726607805      -2.988060892      0.1199645073      -0.2295497073     
5185003510        -0.03945818272    0.1993582742      -1.77556263       2.905759879       
                  -1.77556263       2.905759879       -0.3508617204     0.01080377498     
5270003420        0.1706100308      -0.05931437356    3.372706435       0.2277986135      
                  3.372706435       0.2277986135      0.1490918953      0.3008899841      
5355003330        -0.2078569896     -0.1324290767     -1.583379609      -2.948159762      
                  -1.583379609      -2.948159762      -0.001873157683   -0.2799600289     
5440003240        -0.1060126816     0.1578513032      -1.809515873      2.750413399       
                  -1.809515873      2.750413399       -0.3207431126     0.1316070298      
5525003150        0.1711121036      0.01422980633     3.300769142       0.3443861046      
                  3.300769142       0.3443861046      0.2690724943      0.2025014598      
5610003060        -0.1366707206     -0.1426681883     -1.466988411      -2.882327265      
                  -1.466988411      -2.882327265      -0.1362521094     -0.2687759788     
5695002970        -0.126676819      0.1176761636      -1.842811027      2.552562699       
                  -1.842811027      2.552562699       -0.2223545139     0.2528136829      
5780002880        0.156840561       0.06983921047     3.193059561       0.4455388857      
                  3.193059561       0.4455388857      0.3301858285      0.05908533082     
5865002790        -0.09044834019    -0.118008886      -1.305646737      -2.796407514      
                  -1.305646737      -2.796407514      -0.2717336102     -0.1865003137     
5950002700        -0.1276811023     0.09805147368     -1.885103348      2.376150132       
                  -1.885103348      2.376150132       -0.08351865148    0.3337784602      
6035002610        0.1193418794      0.08337732761     3.0109407         0.468584917       
                  3.0109407         0.468584917       0.3001014589      -0.09633343191    
6120002520        -0.07184988578    -0.1033249109     -1.145344419      -2.694882608      
                  -1.145344419      -2.694882608      -0.3581459009     -0.04648880355    
6205002430        -0.110537035      0.09672119088     -1.863727949      2.23424784        
                  -1.863727949      2.23424784        0.1023574017      0.3388457897      
6290002340        0.1255844872      0.07717931059     2.865429288       0.4759748843      
                  2.865429288       0.4759748843      0.1971697084      -0.247765401      
6375002250        -0.08107722733    -0.1178137157     -1.02418281       -2.604720474      
                  -1.02418281       -2.604720474      -0.3763553805     0.1287824132      
6460002160        -0.1274712229     0.1395644379      -1.800164606      2.104860016       
                  -1.800164606      2.104860016       0.2714446664      0.273331815       
6545002070        0.1623772655      0.1106378572      2.667079055       0.4922120043      
                  2.667079055       0.4922120043      0.03004585924     -0.3208173857     
6630001980        -0.04246750636    -0.1652374996     -0.8940398434     -2.478066441      
                  -0.8940398434     -2.478066441      -0.2995754274     0.3023968596      
6715001890        -0.1786797698     0.1568543145      -1.698467068      1.891811898       
                  -1.698467068      1.891811898       0.3844868168      0.157360597       
6800001800        0.1883458739      0.1904246805      2.432073016       0.5818428065      
                  2.432073016       0.5818428065      -0.1310157323     -0.3093519591     
6885001710        0.05467529205     -0.2192999629     -0.6669304015     -2.323308163      
                  -0.6669304015     -2.323308163      -0.1890828452     0.3888264623      
6970001620        -0.253377481      0.09342272324     -1.734075542      1.63793114        
                  -1.734075542      1.63793114        0.4240397968      0.02465532439     
7055001530        0.1526211982      0.2875128145      2.268167186       0.7154224074      
                  2.268167186       0.7154224074      -0.2574169924     -0.2718537143     
7140001440        0.1891707399      -0.2273143351     -0.4893504557     -2.289230719      
                  -0.4893504557     -2.289230719      -0.0642646857     0.4549054644      
7225001350        -0.2821588275     -0.03118741958    -1.788989687      1.453941587       
                  -1.788989687      1.453941587       0.4533472293      -0.1025618543     
7310001260        0.06276360655     0.36762601        2.135942697       0.7426195451      
                  2.135942697       0.7426195451      -0.3594821832     -0.1855465453     
7395001170        0.3394741165      -0.1299829582     -0.2712342493     -2.172486249      
                  -0.2712342493     -2.172486249      0.07634442687     0.4831129118      
7480001080        -0.2331508019     -0.2105751823     -1.718262206      1.235651486       
                  -1.718262206      1.235651486       0.395358553       -0.2368531011     
7565000990        -0.1338477271     0.3738791797      1.950094486       0.7869130705      
                  1.950094486       0.7869130705      -0.4261505731     -0.08507859758    
7650000900        0.4086549779      0.03316540859     -0.1118737517     -2.014567622      
                  -0.1118737517     -2.014567622      0.2120670458      0.4399567112      
7735000810        -0.08644347403    -0.3491340193     -1.774927899      1.090592417       
                  -1.774927899      1.090592417       0.3179717048      -0.3466754929     
7820000720        -0.2741027264     0.2671856325      1.80147393        0.9335418392      
                  1.80147393        0.9335418392      -0.4075459286     0.024220474       
7905000630        0.391889915       0.2035353355      0.03607907048     -1.867373709      
                  0.03607907048     -1.867373709      0.3240941907      0.3636365994      
7990000540        0.1381882213      -0.3956157382     -1.761488707      0.7590924224      
                  -1.761488707      0.7590924224      0.2221120896      -0.4083297024     
8075000450        -0.3838670836     0.05417440678     1.542128189       1.142748126       
                  1.542128189       1.142748126       -0.3894340327     0.1184577458      
8160000360        0.2538194137      0.3607851323      0.180948328       -1.795940448      
                  0.180948328       -1.795940448      0.3998039127      0.2806559922      
8245000270        0.308365457       -0.3162636373     -1.700964214      0.5431197231      
                  -1.700964214      0.5431197231      0.114664519       -0.4452909517     
8330000180        -0.3643831292     -0.19125036       1.376840222       1.232341076       
                  1.376840222       1.232341076       -0.3439773886     0.193075466       
8415000090        0.02885083647     0.4119811905      0.3037359959      -1.690262053      
                  0.3037359959      -1.690262053      0.4368899537      0.1675288226      
8500000000        0.4120978901      -0.1548041907     -1.585626488      0.4118538755      
                  -1.585626488      0.4118538755      -0.00372447127    -0.4619876921     
