! RsaToolbox (C) 2013 Rohde & Schwarz America
! 
! Number of points: 101
! Number of ports: 2
! Balanced ports?: 0
! 
! 
# Hz S RI R 50
9000              1.002870823       -0.02442096426    -9.135963104e-05  -1.643769826e-05  
                  -9.135963104e-05  -1.643769826e-05  1.020465673       -0.02773565413    
85008910          0.00257186373     0.1592024393      3.190168403       5.527094271       
                  3.190168403       5.527094271       -0.09343224827    -0.1154954202     
170008820         0.1427754495      -0.04466897585    3.20071304        -5.230314618      
                  3.20071304        -5.230314618      -0.01994890179    0.1721096663      
255008730         -0.1760557911     -0.07610414775    -6.063095119      -0.1757097426     
                  -6.063095119      -0.1757097426     0.0775757049      -0.02628111258    
340008640         -0.06312907723    0.170528127       2.65270369        5.362391253       
                  2.65270369        5.362391253       -0.1266723395     -0.053316126      
425008550         0.1596678954      -0.0465331992     3.398526379       -4.869445765      
                  3.398526379       -4.869445765      0.01659462282     0.1032921449      
510008460         -0.1024543716     -0.1639303841     -5.914278362      -0.6532837785     
                  -5.914278362      -0.6532837785     0.07086494005     -0.07928953738    
595008370         -0.1073579306     0.1402770896      2.216252504       5.438687404       
                  2.216252504       5.438687404       -0.08345485344    -0.0116857649     
680008280         0.2043693636      0.03363845206     3.675789981       -4.575801786      
                  3.675789981       -4.575801786      0.0921073966      0.07482573568     
765008190         0.00909305411     -0.1636228919     -5.738523638      -1.111014177      
                  -5.738523638      -1.111014177      0.05933250466     -0.06063294451    
850008100         -0.1820455766     0.1117170974      1.863487172       5.530764493       
                  1.863487172       5.530764493       -0.07103584096    0.06536048044     
935008010         0.1457431865      0.123929268       3.955276709       -4.230880413      
                  3.955276709       -4.230880413      0.1017631567      0.03894070556     
1020007920        0.07570992052     -0.1542861661     -5.59371955       -1.45606867       
                  -5.59371955       -1.45606867       -0.004684005521   -0.07592723231    
1105007830        -0.2259555384     -0.008146950109   1.472072704       5.624375645       
                  1.472072704       5.624375645       -0.06297779802    0.07515495844     
1190007740        0.07136810887     0.1408342261      4.204534451       -3.859250644      
                  4.204534451       -3.859250644      0.1244819589      -0.04275737288    
1275007650        0.1644429556      -0.1089471627     -5.471019624      -1.839153031      
                  -5.471019624      -1.839153031      -0.03026320302    -0.0891280611     
1360007560        -0.1639157476     -0.1010492357     1.037540553       5.650038524       
                  1.037540553       5.650038524       -0.004972787689   0.1016420745      
1445007470        0.0005338522313   0.1423452781      4.419351577       -3.536383392      
                  4.419351577       -3.536383392      0.1470762775      -0.08813362667    
1530007380        0.1848905447      -0.01119298552    -5.307181804      -2.194243128      
                  -5.307181804      -2.194243128      -0.06910121994    -0.06463571646    
1615007290        -0.09446514054    -0.1242743299     0.6122058396      5.607047575       
                  0.6122058396      5.607047575       0.02321227229     0.1421438208      
1700007200        -0.08884013505    0.0974946258      4.678067079       -3.241949918      
                  4.678067079       -3.241949918      0.1112221205      -0.1333138997     
1785007110        0.1287615117      0.03199460919     -5.063404308      -2.538914042      
                  -5.063404308      -2.538914042      -0.1318100149     -0.06358850408    
1870007020        -0.02211598552    -0.1366854026     0.216091392       5.614648931       
                  0.216091392       5.614648931       0.06630649624     0.1320615177      
1955006930        -0.107289379      0.02153804902     4.885418067       -2.883506885      
                  4.885418067       -2.883506885      0.08896214098     -0.1939574604     
2040006840        0.08381264933     0.03953235752     -4.829541745      -2.824071226      
                  -4.829541745      -2.824071226      -0.1548149767     -0.04216941558    
2125006750        0.03650839932     -0.09362858483    -0.1987853719     5.642710552       
                  -0.1987853719     5.642710552       0.1310435674      0.1368595835      
2210006660        -0.09283059249    -0.001082420201   4.980843586       -2.530635364      
                  4.980843586       -2.530635364      0.04782518076     -0.2179627589     
2295006570        0.02992093414     0.03700020136     -4.594992518      -3.155266694      
                  -4.594992518      -3.155266694      -0.185920274      0.01599409293     
2380006480        0.02985827996     -0.05337288504    -0.562490609      5.580740457       
                  -0.562490609      5.580740457       0.1669774976      0.1136057276      
2465006390        -0.08860626467    -0.01684664659    5.062290396       -2.211535299      
                  5.062290396       -2.211535299      -0.01974940296    -0.2591440912     
2550006300        0.01135543996     0.002066640539    -4.29035142       -3.491355226      
                  -4.29035142       -3.491355226      -0.1912858921     0.06066466961     
2635006210        0.02651900077     -0.04499206969    -0.9030982805     5.521768695       
                  -0.9030982805     5.521768695       0.2135940642      0.06428510231     
2720006120        -0.0825428841     -0.01163058864    5.133557572       -1.840295965      
                  5.133557572       -1.840295965      -0.09088077017    -0.2643023347     
2805006030        0.01770219099     0.0007396890902   -4.006957299      -3.736817337      
                  -4.006957299      -3.736817337      -0.162524219      0.123418782       
2890005940        0.02217676553     -0.03605893038    -1.242860377      5.398799116       
                  -1.242860377      5.398799116       0.2323710818      0.00901813527     
2975005850        -0.09518016857    -0.00889580669    5.168078693       -1.387540804      
                  5.168078693       -1.387540804      -0.1623687004     -0.2474019849     
3060005760        0.01798242958     0.0104211421      -3.706186648      -4.085348762      
                  -3.706186648      -4.085348762      -0.1185290461     0.1692629438      
3145005670        0.03759136568     -0.04421401273    -1.642909539      5.245259158       
                  -1.642909539      5.245259158       0.2318681912      -0.07228376132    
3230005580        -0.1019400783     -0.03336152762    5.276969903       -0.9852682595     
                  5.276969903       -0.9852682595     -0.2274638529     -0.207958282      
3315005490        0.01194248577     0.03208845108     -3.434086606      -4.31058916       
                  -3.434086606      -4.31058916       -0.0453964735     0.2028651474      
3400005400        0.0615720898      -0.02905301052    -1.998164495      5.078492019       
                  -1.998164495      5.078492019       0.2009090819      -0.1455394645     
3485005310        -0.09731996922    -0.06458077323    5.379557174       -0.6149431712     
                  5.379557174       -0.6149431712     -0.2826461533     -0.1294576666     
3570005220        -0.02035712935    0.04935706549     -3.25220433       -4.500409389      
                  -3.25220433       -4.500409389      0.03392238819     0.2105610367      
3655005130        0.06916735299     0.005040009615    -2.195732029      4.946217504       
                  -2.195732029      4.946217504       0.1350898655      -0.2085383479     
3740005040        -0.07686363561    -0.09391310065    5.370210746       -0.256578532      
                  5.370210746       -0.256578532      -0.3124908686     -0.03927876028    
3825004950        -0.05908607153    0.03681138905     -2.983245534      -4.640034709      
                  -2.983245534      -4.640034709      0.1141374904      0.175801672       
3910004860        0.06365197128     0.03737923273     -2.617686962      4.725536157       
                  -2.617686962      4.725536157       0.05009770189     -0.2585064388     
3995004770        -0.03132383405    -0.1113557895     5.406106303       0.06568553784     
                  5.406106303       0.06568553784     -0.3057008823     0.06530955798     
4080004680        -0.08440139003    0.007579859509    -2.70893362       -4.810481633      
                  -2.70893362       -4.810481633      0.1905479202      0.1279515294      
4165004590        0.03969594246     0.07008787766     -2.877193806      4.589877249       
                  -2.877193806      4.589877249       -0.04680106297    -0.2717508671     
4250004500        0.01156998466     -0.08846037709    5.494330276       0.3100090792      
                  5.494330276       0.3100090792      -0.2654206086     0.1758767294      
4335004410        -0.1013698574     -0.01989054425    -2.449877583      -4.920478504      
                  -2.449877583      -4.920478504      0.2301578119      0.04403854492     
4420004320        -0.008583343652   0.08326995834     -3.08007739       4.476825778       
                  -3.08007739       4.476825778       -0.1640772038     -0.2509640971     
4505004230        0.03869152503     -0.05699739575    5.446591136       0.4914410048      
                  5.446591136       0.4914410048      -0.1965052593     0.2593483084      
4590004140        -0.09967791472    -0.05165401706    -2.186036884      -4.95795778       
                  -2.186036884      -4.95795778       0.2294296004      -0.05802852093    
4675004050        -0.04533887368    0.07022774957     -3.182722246      4.361853851       
                  -3.182722246      4.361853851       -0.2558495571     -0.1906782209     
4760003960        0.05676038627     -0.01500979065    5.295902389       0.730788043       
                  5.295902389       0.730788043       -0.08628472306    0.3110163332      
4845003870        -0.07589793164    -0.06844135545    -1.936836664      -5.009109097      
                  -1.936836664      -5.009109097      0.2001720615      -0.1551563642     
4930003780        -0.07607451561    0.04038141279     -3.36253222       4.182813155       
                  -3.36253222       4.182813155       -0.3193605163     -0.09904115266    
5015003690        0.04943286569     0.03785113873     5.170877554       0.967833319       
                  5.170877554       0.967833319       0.03635568612     0.334151661       
5100003600        -0.05186768201    -0.05584336164    -1.766742975      -5.082195268      
                  -1.766742975      -5.082195268      0.1195561105      -0.2301217976     
5185003510        -0.09049318766    0.003465254382    -3.417988208      3.955674165       
                  -3.417988208      3.955674165       -0.3492130387     0.01119592332     
5270003420        0.0141010076      0.07162326662     5.033985555       1.202848779       
                  5.033985555       1.202848779       0.1499437441      0.2995918978      
5355003330        -0.04199957741    -0.0216725302     -1.655128615      -5.144190511      
                  -1.655128615      -5.144190511      -0.002740861088   -0.2789614919     
5440003240        -0.07099966775    -0.03969551987    -3.364558847      3.793116199       
                  -3.364558847      3.793116199       -0.3198234263     0.132515361       
5525003150        -0.01858277536    0.05995145231     5.02064342        1.314699592       
                  5.02064342        1.314699592       0.2689464299      0.2014129521      
5610003060        -0.0392105888     0.02853425237     -1.595223159      -4.987469484      
                  -1.595223159      -4.987469484      -0.1370144935     -0.2676060391     
5695002970        -0.01316259159    -0.04281692368    -3.364468143      3.571285589       
                  -3.364468143      3.571285589       -0.2207690866     0.2531514346      
5780002880        -0.02636259624    0.02305040382     4.972626337       1.406917535       
                  4.972626337       1.406917535       0.3289973331      0.05699664654     
5865002790        -0.07719956793    0.07659690481     -1.496364098      -4.723654984      
                  -1.496364098      -4.723654984      -0.2721860131     -0.1851695264     
5950002700        0.03669835765     0.00523383257     -3.399029655      3.36640103        
                  -3.399029655      3.36640103        -0.0825157026     0.3331185485      
6035002610        -0.01826156304    -0.03993061118    4.758829713       1.304955509       
                  4.758829713       1.304955509       0.2982942213      -0.09773667259    
6120002520        -0.1456852376     0.07372268482     -1.38070086       -4.464479073      
                  -1.38070086       -4.464479073      -0.3586088388     -0.04573885761    
6205002430        0.0715039472      0.08839920889     -3.28576829       3.160222721       
                  -3.28576829       3.160222721       0.1018263656      0.3371120716      
6290002340        0.06024145223     -0.09099915489    4.53200514        1.162061254       
                  4.53200514        1.162061254       0.1946821997      -0.2478642851     
6375002250        -0.2161429249     0.008605163949    -1.280809902      -4.169971933      
                  -1.280809902      -4.169971933      -0.3754115628     0.130223958       
6460002160        0.02969333206     0.2067569617      -3.038263427      2.959098437       
                  -3.038263427      2.959098437       0.2706701596      0.271963595       
6545002070        0.1768866443      -0.06039083904    4.126894007       1.065415986       
                  4.126894007       1.065415986       0.02821768799     -0.3200421501     
6630001980        -0.2073976572     -0.110294774      -1.135007139      -3.860093155      
                  -1.135007139      -3.860093155      -0.2981228514     0.302316352       
6715001890        -0.07201546083    0.275938528       -2.734402024      2.640226443       
                  -2.734402024      2.640226443       0.3839328925      0.1564171981      
6800001800        0.266325215       0.05522303822     3.637078937       1.12609836        
                  3.637078937       1.12609836        -0.1313882018     -0.3090737808     
6885001710        -0.10326727       -0.2405306932     -0.8211569662     -3.510432807      
                  -0.8211569662     -3.510432807      -0.1884359416     0.3879319732      
6970001620        -0.2096878004     0.2341889962      -2.64451347       2.230798741       
                  -2.64451347       2.230798741       0.423509323       0.02320718435     
7055001530        0.2638264         0.2076466832      3.229336674       1.243251563       
                  3.229336674       1.243251563       -0.2570060087     -0.2719499353     
7140001440        0.08200878553     -0.3004272634     -0.5428565249     -3.236156819      
                  -0.5428565249     -3.236156819      -0.06302394661    0.454238406       
7225001350        -0.2969331745     0.09651768865     -2.583277114      1.900991235       
                  -2.583277114      1.900991235       0.453065266       -0.1034338988     
7310001260        0.1704692033      0.3477462527      2.868881247       1.162322036       
                  2.868881247       1.162322036       -0.3589209844     -0.185244416      
7395001170        0.2848433952      -0.2278512957     -0.2471355922     -2.969112491      
                  -0.2471355922     -2.969112491      0.07806964308     0.4826063678      
7480001080        -0.2992294469     -0.1109030865     -2.418635028      1.614829764       
                  -2.418635028      1.614829764       0.3945718831      -0.2374625979     
7565000990        -0.0310920933     0.3999915652      2.619959239       1.165521827       
                  2.619959239       1.165521827       -0.4254397884     -0.0853012199     
7650000900        0.40145689        -0.05637957755    -0.05549390098    -2.6132423        
                  -0.05549390098    -2.6132423        0.2134394906      0.4378800469      
7735000810        -0.1609611546     -0.3066721722     -2.299478996      1.350228579       
                  -2.299478996      1.350228579       0.3175966344      -0.3460356289     
7820000720        -0.2066304194     0.3173065015      2.279362185       1.241570143       
                  2.279362185       1.241570143       -0.4057129701     0.02478298156     
7905000630        0.4145307433      0.1392747952      0.09554629841     -2.30161034       
                  0.09554629841     -2.30161034       0.3242471255      0.3622786751      
7990000540        0.06579216879     -0.3912064633     -2.217346201      0.9279261104      
                  -2.217346201      0.9279261104      0.2214812342      -0.4066692207     
8075000450        -0.3512739268     0.1195165175      1.909362661       1.434013729       
                  1.909362661       1.434013729       -0.3874778666     0.1188916048      
8160000360        0.2975347805      0.3137056864      0.2508206838      -2.191054705      
                  0.2508206838      -2.191054705      0.3994120057      0.2798596527      
8245000270        0.2571985199      -0.3376202622     -2.039994946      0.6157703859      
                  -2.039994946      0.6157703859      0.1138829393      -0.443372048      
8330000180        -0.3660991457     -0.1329087296     1.639856531       1.499300414       
                  1.639856531       1.499300414       -0.3434343495     0.19310939        
8415000090        0.07937078966     0.3934896606      0.3835118141      -1.997917602      
                  0.3835118141      -1.997917602      0.4357386229      0.1667214224      
8500000000        0.3825729641      -0.1857513921     -1.832209239      0.4473265906      
                  -1.832209239      0.4473265906      -0.005256437285   -0.460372272      
