! RsaToolbox (C) 2013 Rohde & Schwarz America
! 
! Number of points: 101
! Number of ports: 2
! Balanced ports?: 0
! 
! 
# Hz S RI R 50
9000              0.9956980934      -0.01324699166    7.794383507e-05   -1.944754629e-05  
                  7.794383507e-05   -1.944754629e-05  1.006669944       -0.02008734744    
85008910          -0.004979254893   0.1418345154      3.114168412       5.308455953       
                  3.114168412       5.308455953       -0.0922365654     -0.116224492      
170008820         0.1297851957      -0.03236976634    3.101269784       -5.098079215      
                  3.101269784       -5.098079215      -0.02088295726    0.1717642209      
255008730         -0.1645347304     -0.07116869808    -5.946653736      -0.1402901599     
                  -5.946653736      -0.1402901599     0.07773264675     -0.02661727542    
340008640         -0.06330398858    0.1559840028      2.619181763       5.237812453       
                  2.619181763       5.237812453       -0.1269128841     -0.05415255687    
425008550         0.1468459419      -0.0425050032     3.299824079       -4.79246069       
                  3.299824079       -4.79246069       0.01635286923     0.1029950008      
510008460         -0.09390359732    -0.1539860896     -5.803811763      -0.5908803023     
                  -5.803811763      -0.5908803023     0.07091628256     -0.07983439829    
595008370         -0.1007420827     0.1273809313      2.217849798       5.306963525       
                  2.217849798       5.306963525       -0.08403613613    -0.01234197586    
680008280         0.1927542574      0.03251789747     3.557781605       -4.535692638      
                  3.557781605       -4.535692638      0.09213025911     0.07560696447     
765008190         0.01246105396     -0.1500162915     -5.62824687       -1.039802845      
                  -5.62824687       -1.039802845      0.06038658983     -0.06071890385    
850008100         -0.1725377644     0.1045803058      1.905586714       5.409680732       
                  1.905586714       5.409680732       -0.0720118734     0.06497382512     
935008010         0.1352454825      0.1162914759      3.837314969       -4.19648667       
                  3.837314969       -4.19648667       0.1021521374      0.03893607667     
1020007920        0.07195540625     -0.1411419704     -5.498529714      -1.370714111      
                  -5.498529714      -1.370714111      -0.004871288035   -0.07599771574    
1105007830        -0.2143029241     -0.01024213496    1.557220846       5.483380847       
                  1.557220846       5.483380847       -0.06346878559    0.07528274134     
1190007740        0.06529861625     0.1276438258      4.078408343       -3.820256127      
                  4.078408343       -3.820256127      0.1243861258      -0.04240244323    
1275007650        0.1556806167      -0.09960334453    -5.396548577      -1.716150863      
                  -5.396548577      -1.716150863      -0.03025049768    -0.08931962286    
1360007560        -0.1519405936     -0.09517243678    1.116669707       5.520176349       
                  1.116669707       5.520176349       -0.005946850473   0.1019954202      
1445007470        0.001680790481    0.1265871449      4.277961286       -3.520215878      
                  4.277961286       -3.520215878      0.147335716       -0.08834162855    
1530007380        0.1701181981      -0.007632971126   -5.241132237      -2.036572459      
                  -5.241132237      -2.036572459      -0.06952698128    -0.06477497521    
1615007290        -0.08356987381    -0.1073216655     0.7161490481      5.446991358       
                  0.7161490481      5.446991358       0.02280760867     0.1425194737      
1700007200        -0.07767949419    0.08235912049     4.493267505       -3.257735764      
                  4.493267505       -3.257735764      0.1110428771      -0.1334774308     
1785007110        0.1087363963      0.02583402954     -4.990468448      -2.354297057      
                  -4.990468448      -2.354297057      -0.1323686679     -0.06435297573    
1870007020        -0.02120924933    -0.1134810971     0.352403643       5.450764655       
                  0.352403643       5.450764655       0.06544523668     0.1325606835      
1955006930        -0.0866229017     0.01324567628     4.672580912       -2.936437766      
                  4.672580912       -2.936437766      0.08930382264     -0.1941194384     
2040006840        0.06503828206     0.02024860574     -4.757576363      -2.599770868      
                  -4.757576363      -2.599770868      -0.1553348891     -0.04188211204    
2125006750        0.02398992106     -0.07052409638    -0.01947413975    5.472861572       
                  -0.01947413975    5.472861572       0.1308488713      0.1372843167      
2210006660        -0.06420107703    0.002644733504    4.72623195        -2.611464199      
                  4.72623195        -2.611464199      0.04813241575     -0.2185200004     
2295006570        0.02169025863     0.006251787658    -4.528478963      -2.879302998      
                  -4.528478963      -2.879302998      -0.1867147649     0.01501966993     
2380006480        0.001362244592    -0.03487294167    -0.3374312541     5.380732684       
                  -0.3374312541     5.380732684       0.1669811012      0.1141500716      
2465006390        -0.05856264216    0.004109867405    4.753744886       -2.32927637       
                  4.753744886       -2.32927637       -0.01956070263    -0.2602696257     
2550006300        0.0186062602      -0.03482576228    -4.216855887      -3.182917166      
                  -4.216855887      -3.182917166      -0.1914525809     0.06042050256     
2635006210        -0.01660062041    -0.04195547589    -0.5819896509     5.286861475       
                  -0.5819896509     5.286861475       0.2137259747      0.06417079142     
2720006120        -0.06214683587    0.02666098291     4.792470416       -1.991629017      
                  4.792470416       -1.991629017      -0.09049312578    -0.2652874504     
2805006030        0.04489371454     -0.03365024912    -3.959476808      -3.352420863      
                  -3.959476808      -3.352420863      -0.1634631235     0.1230066777      
2890005940        -0.0278698279     -0.05885704012    -0.8202146305     5.118454055       
                  -0.8202146305     5.118454055       0.2325616738      0.009001548141    
2975005850        -0.09260217717    0.04265343264     4.77688234        -1.565554392      
                  4.77688234        -1.565554392      -0.1621982688     -0.2484081012     
3060005760        0.06539650695     -0.008816465926   -3.699582739      -3.613916496      
                  -3.699582739      -3.613916496      -0.1193109208     0.1685715629      
3145005670        -0.001180738702   -0.08703679843    -1.183682684      4.974010611       
                  -1.183682684      4.974010611       0.232386971       -0.07180327422    
3230005580        -0.1232085458     0.01628477471     4.8634421         -1.205652899      
                  4.8634421         -1.205652899      -0.2269349844     -0.2087231428     
3315005490        0.07365782993     0.03929268361     -3.478250422      -3.711587347      
                  -3.478250422      -3.711587347      -0.04612276895    0.2027842113      
3400005400        0.04357863073     -0.09695853365    -1.411934461      4.779925877       
                  -1.411934461      4.779925877       0.202295331       -0.1451182738     
3485005310        -0.1517030365     -0.0215904015     4.857804051       -0.9494236189     
                  4.857804051       -0.9494236189     -0.2820235498     -0.1303196666     
3570005220        0.04632607706     0.09428404395     -3.329802409      -3.730366519      
                  -3.329802409      -3.730366519      0.03360104558     0.2111518169      
3655005130        0.08534416935     -0.07930917551    -1.487211824      4.595473887       
                  -1.487211824      4.595473887       0.1355862402      -0.2086633314     
3740005040        -0.1568973823     -0.07785659622    4.74929083        -0.7113665841     
                  4.74929083        -0.7113665841     -0.311838903      -0.03994137951    
3825004950        -0.01047862157    0.1251531459      -3.085805752      -3.662491946      
                  -3.085805752      -3.662491946      0.1139072348      0.1769878555      
3910004860        0.1287065675      -0.04389273508    -1.723706626      4.34376233        
                  -1.723706626      4.34376233        0.0515407579      -0.2590174661     
3995004770        -0.1305231901     -0.1401179994     4.595182585       -0.5438293724     
                  4.595182585       -0.5438293724     -0.3054602851     0.06535805542     
4080004680        -0.07882212424    0.1262735371      -2.80821611       -3.677255077      
                  -2.80821611       -3.677255077      0.1918155711      0.1287474468      
4165004590        0.1417108277      0.01867290377     -1.919920085      4.16601499        
                  -1.919920085      4.16601499        -0.04592612434    -0.2726869455     
4250004500        -0.076783292      -0.1662791433     4.548505712       -0.3539125303     
                  4.548505712       -0.3539125303     -0.2656801261     0.1759390731      
4335004410        -0.1485227568     0.0986103543      -2.556390273      -3.697626317      
                  -2.556390273      -3.697626317      0.2308353437      0.04485913343     
4420004320        0.1176747539      0.07956788829     -2.003411056      3.999421702       
                  -2.003411056      3.999421702       -0.1636647274     -0.2513733901     
4505004230        -0.01422755331    -0.1742133764     4.394876108       -0.2357059233     
                  4.394876108       -0.2357059233     -0.197042565      0.2593374278      
4590004140        -0.1962276049     0.04137725847     -2.303172952      -3.650808134      
                  -2.303172952      -3.650808134      0.2301342552      -0.05736578546    
4675004050        0.07650295947     0.123844288       -2.012265269      3.80257499        
                  -2.012265269      3.80257499        -0.255636633      -0.1918146649     
4760003960        0.06024002888     -0.1508556468     4.214067593       -0.04370629498    
                  4.214067593       -0.04370629498    -0.08704915257    0.3115634085      
4845003870        -0.2051911772     -0.02260604484    -2.055302483      -3.617806858      
                  -2.055302483      -3.617806858      0.2007521516      -0.1547559614     
4930003780        0.01230669466     0.1476200565      -2.117852394      3.559057819       
                  -2.117852394      3.559057819       -0.320167617      -0.1001296787     
5015003690        0.1122359754      -0.09091340896    4.049737625       0.1661436095      
                  4.049737625       0.1661436095      0.03511515393     0.3353691742      
5100003600        -0.1924502871     -0.07271603442    -1.874050547      -3.551345992      
                  -1.874050547      -3.551345992      0.1198595201      -0.2294732666     
5185003510        -0.05564131743    0.1419724817      -2.160462925      3.29761349        
                  -2.160462925      3.29761349        -0.3504125148     0.01097110229     
5270003420        0.1252832301      -0.02037847081    3.895548161       0.3908810341      
                  3.895548161       0.3908810341      0.1492586342      0.3005666373      
5355003330        -0.1629877149     -0.1033268873     -1.735969459      -3.488590891      
                  -1.735969459      -3.488590891      -0.002001831109   -0.279689136      
5440003240        -0.09666549492    0.1000767542      -2.166711356      3.123162411       
                  -2.166711356      3.123162411       -0.3204062531     0.1317467994      
5525003150        0.1179065878      0.02661383612     3.810097601       0.4950680287      
                  3.810097601       0.4950680287      0.2690352432      0.2021028486      
5610003060        -0.1100970881     -0.09629131759    -1.62679888       -3.389883702      
                  -1.62679888       -3.389883702      -0.1364124249     -0.2685023453     
5695002970        -0.09459476776    0.07207141063     -2.181448509      2.904702313       
                  -2.181448509      2.904702313       -0.2219771024     0.2528958594      
5780002880        0.1084747649      0.05569390288     3.68520449        0.5822246063      
                  3.68520449        0.5822246063      0.3300003507      0.05869522227     
5865002790        -0.08704310366    -0.06369472565    -1.4615288        -3.26139981       
                  -1.4615288        -3.26139981       -0.2719506114     -0.1861732422     
5950002700        -0.08164316282    0.07305060349     -2.212333129      2.707480095       
                  -2.212333129      2.707480095       -0.08327738095    0.3335567519      
6035002610        0.08370814772     0.04896321367     3.475920201       0.5765965127      
                  3.475920201       0.5765965127      0.2996362624      -0.09685391019    
6120002520        -0.09400646315    -0.05277179797    -1.298439367      -3.125655718      
                  -1.298439367      -3.125655718      -0.3582591619     -0.04618506292    
6205002430        -0.05927362532    0.09538096474     -2.172558896      2.54248451        
                  -2.172558896      2.54248451        0.1022991241      0.3384027186      
6290002340        0.1095848583      0.02963309168     3.304357455       0.5616032162      
                  3.304357455       0.5616032162      0.1964250435      -0.2479518212     
6375002250        -0.1225516044     -0.08105098519    -1.169333591      -3.00036244       
                  -1.169333591      -3.00036244       -0.3762846574     0.1291200882      
6460002160        -0.08088070261    0.1605889631      -2.082590588      2.392585384       
                  -2.082590588      2.392585384       0.2713513403      0.2729625427      
6545002070        0.1683880616      0.06114960089     3.060189464       0.5708685114      
                  3.060189464       0.5708685114      0.02965782116     -0.3205750219     
6630001980        -0.0941034591     -0.149813842      -1.022980399      -2.839667663      
                  -1.022980399      -2.839667663      -0.2992751599     0.3023421979      
6715001890        -0.1456981055     0.1949197826      -1.948038013      2.147356835       
                  -1.948038013      2.147356835       0.3842988951      0.1570298685      
6800001800        0.213416872       0.1496221998      2.776952388       0.6733456047      
                  2.776952388       0.6733456047      -0.1311010235     -0.3091998266     
6885001710        0.0032609709      -0.2274422463     -0.7631502824     -2.654081657      
                  -0.7631502824     -2.654081657      -0.1887625096     0.3885739475      
6970001620        -0.2397156189     0.1409738609      -1.975115988      1.852963646       
                  -1.975115988      1.852963646       0.4238686211      0.02430424578     
7055001530        0.1903760404      0.2615544         2.574490475       0.8296508016      
                  2.574490475       0.8296508016      -0.2573122958     -0.2717365505     
7140001440        0.149929686       -0.2543789431     -0.5435882998     -2.593797449      
                  -0.5435882998     -2.593797449      -0.06387505553    0.454645181       
7225001350        -0.2885209604     0.01553986603     -2.030181076      1.632426807       
                  -2.030181076      1.632426807       0.4531775027      -0.1028510019     
7310001260        0.1039419991      0.3604822049      2.401366963       0.8584863879      
                  2.401366963       0.8584863879      -0.3591812964     -0.185427052      
7395001170        0.3186729672      -0.1681619862     -0.290035611      -2.4504068        
                  -0.290035611      -2.4504068        0.07652000761     0.4829036468      
7480001080        -0.2587944537     -0.1739070001     -1.939397859      1.386605162       
                  -1.939397859      1.386605162       0.395203894       -0.2369061479     
7565000990        -0.09463391425    0.3849617298      2.191261638       0.8941076522      
                  2.191261638       0.8941076522      -0.4258616763     -0.08484423593    
7650000900        0.405299244       -0.005314851343   -0.105755578      -2.249227675      
                  -0.105755578      -2.249227675      0.2124580169      0.4397007341      
7735000810        -0.1201060166     -0.3305193236     -1.98130342       1.207227183       
                  -1.98130342       1.207227183       0.3178579436      -0.3465478659     
7820000720        -0.2450672086     0.2895347734      1.998718338       1.044995066       
                  1.998718338       1.044995066       -0.4072175796     0.02447009218     
7905000630        0.4024343746      0.1722151376      0.05533184684     -2.061315723      
                  0.05533184684     -2.061315723      0.3242180538      0.3633544346      
7990000540        0.104795593       -0.3934366861     -1.951729375      0.8374216666      
                  -1.951729375      0.8374216666      0.2219933911      -0.4079253405     
8075000450        -0.3684430097     0.0850590784      1.703605297       1.261615917       
                  1.703605297       1.261615917       -0.3890450265     0.1186510715      
8160000360        0.274653203       0.3374634101      0.2066043315      -1.974377415      
                  0.2066043315      -1.974377415      0.3996540065      0.2805613339      
8245000270        0.2824698615      -0.3261530884     -1.857876368      0.5824146434      
                  -1.857876368      0.5824146434      0.1146686317      -0.4449519091     
8330000180        -0.3648551731     -0.1623344938     1.500590607       1.352499593       
                  1.500590607       1.352499593       -0.3437995923     0.1931832332      
8415000090        0.05339936437     0.4017945621      0.3409939186      -1.836318062      
                  0.3409939186      -1.836318062      0.4365871895      0.167502366       
8500000000        0.3956104506      -0.1712324627     -1.70943748       0.429436408       
                  -1.70943748       0.429436408       -0.003962499487   -0.461613432      
