! RsaToolbox (C) 2013 Rohde & Schwarz America
! 
! Number of points: 101
! Number of ports: 2
! Balanced ports?: 0
! 
! 
# Hz S RI R 50
9000              1.017944399       -0.02338086062    5.220549315e-05   1.993046889e-05   
                  5.220549315e-05   1.993046889e-05   1.021043416       -0.02951499559    
85008910          0.002634822923    0.1591156066      3.19389326        5.522517605       
                  3.19389326        5.522517605       -0.09272294388    -0.1157075005     
170008820         0.142497165       -0.04456600582    3.195895647       -5.228540704      
                  3.195895647       -5.228540704      -0.02052312589    0.1712769459      
255008730         -0.1763763278     -0.07581815651    -6.065755805      -0.171353364      
                  -6.065755805      -0.171353364      0.07781183965     -0.02668966985    
340008640         -0.06361999653    0.1700360419      2.651530952       5.361007569       
                  2.651530952       5.361007569       -0.1266688647     -0.05372633204    
425008550         0.1597839278      -0.04651487133    3.396804015       -4.871042941      
                  3.396804015       -4.871042941      0.01687746839     0.1028190284      
510008460         -0.1020894662     -0.1633380801     -5.911092125      -0.6498010876     
                  -5.911092125      -0.6498010876     0.07093267368     -0.07939156025    
595008370         -0.1075906263     0.1400575437      2.225422753       5.433489095       
                  2.225422753       5.433489095       -0.08335213818    -0.01235306565    
680008280         0.2045173515      0.033858849       3.665259899       -4.58048066       
                  3.665259899       -4.58048066       0.09226159599     0.07515584147     
765008190         0.009319687843    -0.1638186316     -5.738192499      -1.10662666       
                  -5.738192499      -1.10662666       0.0601001384      -0.0603821006     
850008100         -0.1823319122     0.1114370576      1.867661143       5.530730158       
                  1.867661143       5.530730158       -0.07144287354    0.06506519649     
935008010         0.1459549365      0.1235964371      3.953010303       -4.232272504      
                  3.953010303       -4.232272504      0.1017277313      0.03855771941     
1020007920        0.07544129618     -0.1540713352     -5.593971471      -1.452501775      
                  -5.593971471      -1.452501775      -0.00485601209    -0.07543434373    
1105007830        -0.2255990645     -0.008535577457   1.47429219        5.625002139       
                  1.47429219        5.625002139       -0.06286128311    0.07517702123     
1190007740        0.07149949089     0.1407200685      4.201392192       -3.862916726      
                  4.201392192       -3.862916726      0.1243775105      -0.04246030796    
1275007650        0.1646743989      -0.1089810909     -5.471095324      -1.838135951      
                  -5.471095324      -1.838135951      -0.03006859502    -0.08926082189    
1360007560        -0.1636153013     -0.1008603233     1.041812796       5.64789994        
                  1.041812796       5.64789994        -0.005135726925   0.1017502117      
1445007470        0.0006659136257   0.1423798775      4.416178535       -3.54483164       
                  4.416178535       -3.54483164       0.1472070865      -0.08880136033    
1530007380        0.1852584759      -0.01140514364    -5.312600732      -2.192921796      
                  -5.312600732      -2.192921796      -0.06889299033    -0.06457496058    
1615007290        -0.0945087967     -0.124520897      0.6176952479      5.608599079       
                  0.6176952479      5.608599079       0.02342927681     0.1420698284      
1700007200        -0.08873755288    0.09781300405     4.674804936       -3.244633916      
                  4.674804936       -3.244633916      0.1109661106      -0.1335269582     
1785007110        0.1289123465      0.0320357122      -5.06880399       -2.533102569      
                  -5.06880399       -2.533102569      -0.1320185213     -0.06376430179    
1870007020        -0.02186236351    -0.1366483931     0.2227509582      5.613260653       
                  0.2227509582      5.613260653       0.06598681633     0.1323584034      
1955006930        -0.1071130591     0.02196548809     4.881498324       -2.889283359      
                  4.881498324       -2.889283359      0.08918034894     -0.1935557968     
2040006840        0.08341800304     0.03954023983     -4.830095077      -2.81886262       
                  -4.830095077      -2.81886262       -0.1546009423     -0.04183087151    
2125006750        0.03651575489     -0.09346317796    -0.1954201416     5.641717371       
                  -0.1954201416     5.641717371       0.1311246293      0.1370170142      
2210006660        -0.09308433272    -0.0007986873101  4.977686339       -2.533102477      
                  4.977686339       -2.533102477      0.04782145985     -0.2180245263     
2295006570        0.02990684611     0.0371730974      -4.596243833      -3.149199556      
                  -4.596243833      -3.149199556      -0.1857953711     0.0155455645      
2380006480        0.02949480605     -0.05283205738    -0.5588966327     5.576265859       
                  -0.5588966327     5.576265859       0.1670067226      0.1137808553      
2465006390        -0.0885946584     -0.01694744093    5.057237463       -2.213505104      
                  5.057237463       -2.213505104      -0.01980330001    -0.2590981592     
2550006300        0.01188631475     0.001625067121    -4.289631451      -3.48961561       
                  -4.289631451      -3.48961561       -0.1908950897     0.06069029958     
2635006210        0.02600470999     -0.04540624612    -0.9012266966     5.521779512       
                  -0.9012266966     5.521779512       0.213401892       0.06413759633     
2720006120        -0.0827898402     -0.01085234064    5.132968482       -1.841793513      
                  5.132968482       -1.841793513      -0.09067292556    -0.264688734      
2805006030        0.01750755369     0.0009909037367   -4.003566733      -3.73622883       
                  -4.003566733      -3.73622883       -0.1629317252     0.1233319624      
2890005940        0.02172212418     -0.03656452531    -1.240092926      5.398745048       
                  -1.240092926      5.398745048       0.2317293503      0.008959875022    
2975005850        -0.09508588824    -0.008916212977   5.166098042       -1.3846747        
                  5.166098042       -1.3846747        -0.1623375475     -0.2473753508     
3060005760        0.01785902643     0.01034301946     -3.705949895      -4.079847405      
                  -3.705949895      -4.079847405      -0.1189652098     0.1688416949      
3145005670        0.03680715944     -0.04438663856    -1.636146494      5.242604081       
                  -1.636146494      5.242604081       0.2318775703      -0.07119891111    
3230005580        -0.1017737444     -0.03368895625    5.275635894       -0.9827010651     
                  5.275635894       -0.9827010651     -0.2268244633     -0.2080359468     
3315005490        0.01134270747     0.03192936011     -3.43211933       -4.30579504       
                  -3.43211933       -4.30579504       -0.04597036537    0.2027544701      
3400005400        0.06161316342     -0.02856637647    -1.992588797      5.077001972       
                  -1.992588797      5.077001972       0.2011450481      -0.1449366353     
3485005310        -0.09818445556    -0.06381226165    5.375816964       -0.6160123476     
                  5.375816964       -0.6160123476     -0.2820992842     -0.1294642198     
3570005220        -0.02028099751    0.04944020955     -3.251780177      -4.496689867      
                  -3.251780177      -4.496689867      0.03334258953     0.2101199912      
3655005130        0.06904289821     0.003851596801    -2.191765222      4.945485491       
                  -2.191765222      4.945485491       0.1348817501      -0.2088500637     
3740005040        -0.0774053062     -0.0934048646     5.366523327       -0.2596782726     
                  5.366523327       -0.2596782726     -0.3120351711     -0.03948275615    
3825004950        -0.05871205978    0.03706560239     -2.980161247      -4.632872652      
                  -2.980161247      -4.632872652      0.1136636497      0.1763009448      
3910004860        0.06398157241     0.03723651364     -2.611121731      4.724056721       
                  -2.611121731      4.724056721       0.05026486271     -0.2590411873     
3995004770        -0.031249223      -0.1111227207     5.400007434       0.06469786611     
                  5.400007434       0.06469786611     -0.3051191747     0.06563714038     
4080004680        -0.08516570968    0.007870465428    -2.706402057      -4.804056921      
                  -2.706402057      -4.804056921      0.190606216       0.1286608172      
4165004590        0.03926940664     0.07068283104     -2.874452472      4.586343905       
                  -2.874452472      4.586343905       -0.0467182684     -0.2714619911     
4250004500        0.011325746       -0.08824996306    5.488396245       0.3097414546      
                  5.488396245       0.3097414546      -0.2656584424     0.1754042538      
4335004410        -0.1012360334     -0.0197283939     -2.447201781      -4.916497214      
                  -2.447201781      -4.916497214      0.2299845565      0.04448826963     
4420004320        -0.007471204661   0.08343399739     -3.078282657      4.473666801       
                  -3.078282657      4.473666801       -0.1640714415     -0.2505983383     
4505004230        0.03802148932     -0.05681586195    5.438351219       0.4901134754      
                  5.438351219       0.4901134754      -0.1966200314     0.2590672194      
4590004140        -0.09991985012    -0.05183865508    -2.179035913      -4.954904312      
                  -2.179035913      -4.954904312      0.2294770618      -0.05751894304    
4675004050        -0.0451246414     0.07026421999     -3.17650925       4.355759527       
                  -3.17650925       4.355759527       -0.2553580705     -0.1910713795     
4760003960        0.05709101912     -0.01592257337    5.289317296       0.7260003492      
                  5.289317296       0.7260003492      -0.08628043389    0.3112780334      
4845003870        -0.07657164572    -0.06846591367    -1.935362118      -5.004995869      
                  -1.935362118      -5.004995869      0.1999977155      -0.154658746      
4930003780        -0.07659463324    0.04036375617     -3.360697192      4.172584349       
                  -3.360697192      4.172584349       -0.3197082473     -0.09968790563    
5015003690        0.04992902642     0.03772845314     5.16317201        0.9665143917      
                  5.16317201        0.9665143917      0.03589404659     0.3345387279      
5100003600        -0.05212273387    -0.0562017581     -1.7610451        -5.077285578      
                  -1.7610451        -5.077285578      0.1196390746      -0.2291204382     
5185003510        -0.09104520185    0.00408303182     -3.415017694      3.950735501       
                  -3.415017694      3.950735501       -0.3498565774     0.01150556516     
5270003420        0.01389714401     0.07155935193     5.027847957       1.199293949       
                  5.027847957       1.199293949       0.1499817485      0.2996440263      
5355003330        -0.04218673157    -0.02213533481    -1.647979069      -5.138721953      
                  -1.647979069      -5.138721953      -0.002162435439   -0.2787355521     
5440003240        -0.07136651206    -0.03946467068    -3.361466018      3.785812099       
                  -3.361466018      3.785812099       -0.3194263992     0.1318405671      
5525003150        -0.01850390542    0.06061789375     5.011903069       1.313544133       
                  5.011903069       1.313544133       0.2687290741      0.201283864       
5610003060        -0.0387697988     0.02773732627     -1.592705605      -4.979504835      
                  -1.592705605      -4.979504835      -0.136792787      -0.2677456712     
5695002970        -0.01364636629    -0.04325016803    -3.361371339      3.567240372       
                  -3.361371339      3.567240372       -0.2206655593     0.2530000276      
5780002880        -0.02613783776    0.02334714339     4.964166609       1.407980011       
                  4.964166609       1.407980011       0.3293753758      0.05769438545     
5865002790        -0.07705721519    0.07599400545     -1.492061233      -4.717355086      
                  -1.492061233      -4.717355086      -0.2724127219     -0.1850200042     
5950002700        0.03629512468     0.004911689523    -3.396163105      3.359691499       
                  -3.396163105      3.359691499       -0.08268724673    0.3326542261      
6035002610        -0.01881967189    -0.03908136139    4.750319735       1.302575532       
                  4.750319735       1.302575532       0.2979713056      -0.09768270502    
6120002520        -0.1446221018     0.07349554794     -1.375769434      -4.46013031       
                  -1.375769434      -4.46013031       -0.3585746233     -0.04531756441    
6205002430        0.07106398638     0.08856773391     -3.283384861      3.152613398       
                  -3.283384861      3.152613398       0.1019347549      0.3366041811      
6290002340        0.0603143187      -0.09075815842    4.525597975       1.166008318       
                  4.525597975       1.166008318       0.1943298935      -0.2486220097     
6375002250        -0.2153135157     0.008548370606    -1.277437384      -4.164639578      
                  -1.277437384      -4.164639578      -0.3758394596     0.1301738371      
6460002160        0.02955347376     0.2060510502      -3.036618859      2.953441718       
                  -3.036618859      2.953441718       0.2709023378      0.272219139       
6545002070        0.1763746927      -0.05976078047    4.119779349       1.067259358       
                  4.119779349       1.067259358       0.02835384353     -0.3200396757     
6630001980        -0.2071572156     -0.1106604172     -1.13159689       -3.857877971      
                  -1.13159689       -3.857877971      -0.2981228373     0.3025323226      
6715001890        -0.07166455581    0.2748028524      -2.733492219      2.636180092       
                  -2.733492219      2.636180092       0.3841581757      0.1554585999      
6800001800        0.2659372236      0.05505057051     3.631380785       1.125120278       
                  3.631380785       1.125120278       -0.1313613645     -0.3084932783     
6885001710        -0.1032257674     -0.2406504141     -0.8188847246     -3.508077361      
                  -0.8188847246     -3.508077361      -0.1882869665     0.3879190535      
6970001620        -0.2099233772     0.2335599016      -2.643477386      2.227636683       
                  -2.643477386      2.227636683       0.4230052868      0.02300254373     
7055001530        0.2640466698      0.2072789228      3.228283637       1.23868429        
                  3.228283637       1.23868429        -0.2568799157     -0.2713380109     
7140001440        0.08163833125     -0.2999437067     -0.539988679      -3.232569004      
                  -0.539988679      -3.232569004      -0.06303155322    0.4538974742      
7225001350        -0.2965820616     0.09620112525     -2.582176476      1.899117205       
                  -2.582176476      1.899117205       0.4524332816      -0.1040130316     
7310001260        0.170251891       0.3473469083      2.868547031       1.16332863        
                  2.868547031       1.16332863        -0.3587262206     -0.1847866645     
7395001170        0.2853792099      -0.2275129732     -0.2453127326     -2.968775247      
                  -0.2453127326     -2.968775247      0.07809262832     0.4819735149      
7480001080        -0.2988609818     -0.1109437536     -2.417752333      1.612957511       
                  -2.417752333      1.612957511       0.3947326884      -0.2375210301     
7565000990        -0.03255425242    0.399640452       2.617756924       1.16479837        
                  2.617756924       1.16479837        -0.4248576657     -0.08450531267    
7650000900        0.4012222676      -0.05659072726    -0.05448850233    -2.612780338      
                  -0.05448850233    -2.612780338      0.212888938       0.4388015434      
7735000810        -0.1615716966     -0.3061910148     -2.298565433      1.348296785       
                  -2.298565433      1.348296785       0.3175181639      -0.3462553886     
7820000720        -0.2070291052     0.3173755653      2.278766158       1.242270222       
                  2.278766158       1.242270222       -0.4058463012     0.02547276117     
7905000630        0.4148836753      0.1391573406      0.09599689258     -2.301349932      
                  0.09599689258     -2.301349932      0.3244856987      0.3621915392      
7990000540        0.06628209387     -0.3904539745     -2.216379485      0.9258979861      
                  -2.216379485      0.9258979861      0.2213436557      -0.4070799724     
8075000450        -0.3510453267     0.1202190062      1.9084871         1.434201241       
                  1.9084871         1.434201241       -0.3881684154     0.1190235461      
8160000360        0.2967280613      0.3136728221      0.2517010088      -2.191134678      
                  0.2517010088      -2.191134678      0.3995659154      0.2797569686      
8245000270        0.2570878818      -0.3377747152     -2.040260166      0.615358914       
                  -2.040260166      0.615358914       0.1142562364      -0.4442135597     
8330000180        -0.3665501359     -0.1323968487     1.638687185       1.499649225       
                  1.638687185       1.499649225       -0.3426793939     0.1935571655      
8415000090        0.0788387804      0.3931353905      0.3842300262      -1.997942405      
                  0.3842300262      -1.997942405      0.4358902715      0.1673748029      
8500000000        0.3826576706      -0.1859849457     -1.832040915      0.446713287       
                  -1.832040915      0.446713287       -0.00418705392    -0.4601550378     
