! RsaToolbox (C) 2013 Rohde & Schwarz America
! 
! Number of points: 101
! Number of ports: 2
! Balanced ports?: 0
! 
! 
# Hz S RI R 50
9000              1.002487885       -0.01603896154    8.128385109e-05   -2.07979566e-05   
                  8.128385109e-05   -2.07979566e-05   1.01042888        -0.02196809858    
85008910          -5.580705087e-05  0.1534047582      3.175809822       5.435439459       
                  3.175809822       5.435439459       -0.09265091481    -0.116079607      
170008820         0.1383086843      -0.04023214387    3.154663145       -5.184474229      
                  3.154663145       -5.184474229      -0.02068649123    0.1717857934      
255008730         -0.1719356819     -0.07428558608    -6.01924313       -0.1539821181     
                  -6.01924313       -0.1539821181     0.07767404181     -0.02662728532    
340008640         -0.06354143839    0.164920109       2.644298499       5.312206939       
                  2.644298499       5.312206939       -0.1268388959     -0.05398627974    
425008550         0.1550703908      -0.04507883107    3.353680127       -4.846116195      
                  3.353680127       -4.846116195      0.01650996285     0.1029492956      
510008460         -0.09890875336    -0.1601041585     -5.871285236      -0.6254499033     
                  -5.871285236      -0.6254499033     0.07082201986     -0.07976159445    
595008370         -0.1052557833     0.135440945       2.232576754       5.383851149       
                  2.232576754       5.383851149       -0.08394039561    -0.01226222751    
680008280         0.2001332051      0.03338281974     3.622175448       -4.565294776      
                  3.622175448       -4.565294776      0.09214078619     0.0755076554      
765008190         0.01058744403     -0.1589879581     -5.698737313      -1.072240386      
                  -5.698737313      -1.072240386      0.06019364205     -0.06067406791    
850008100         -0.1784386837     0.108903318       1.888725874       5.48173541        
                  1.888725874       5.48173541        -0.071808989      0.06501862082     
935008010         0.1417172708      0.1210221497      3.9027703         -4.22407695       
                  3.9027703         -4.22407695       0.1022111459      0.03896182384     
1020007920        0.07425684834     -0.1493235844     -5.56008586       -1.412392651      
                  -5.56008586       -1.412392651      -0.004878739239   -0.0758183248     
1105007830        -0.2210612696     -0.008790695144   1.509408383       5.570688871       
                  1.509408383       5.570688871       -0.06319785076    0.07530472673     
1190007740        0.06904352049     0.1357807719      4.146798488       -3.851999487      
                  4.146798488       -3.851999487      0.1243437748      -0.04242572809    
1275007650        0.1611491488      -0.105158093      -5.445018758      -1.781110384      
                  -5.445018758      -1.781110384      -0.03012321594    -0.08915378083    
1360007560        -0.1590947739     -0.09881720404    1.077154494       5.596635555       
                  1.077154494       5.596635555       -0.005625887226   0.1019150858      
1445007470        0.0007526046722   0.1363551291      4.357938693       -3.542625095      
                  4.357938693       -3.542625095      0.1472313208      -0.08824552556    
1530007380        0.1792655661      -0.009853415199   -5.28693885       -2.128673439      
                  -5.28693885       -2.128673439      -0.06939152474    -0.0646816206     
1615007290        -0.09035222386    -0.1182383692     0.6648872604      5.547144233       
                  0.6648872604      5.547144233       0.02293737758     0.1422128885      
1700007200        -0.08482883287    0.0917766412      4.600593465       -3.25676562       
                  4.600593465       -3.25676562       0.1109633406      -0.1334864906     
1785007110        0.1211704203      0.03004297665     -5.041981499      -2.458651176      
                  -5.041981499      -2.458651176      -0.1320810128     -0.06421679455    
1870007020        -0.02115751898    -0.1281912531     0.2777357312      5.551366892       
                  0.2777357312      5.551366892       0.06563320991     0.1323792852      
1955006930        -0.1000500675     0.01815664147     4.799120219       -2.913526554      
                  4.799120219       -2.913526554      0.08932101474     -0.1940152597     
2040006840        0.07627344156     0.03303394598     -4.807328266      -2.729698424      
                  -4.807328266      -2.729698424      -0.1550094083     -0.04174542407    
2125006750        0.0326416765      -0.08511472768    -0.1220720227     5.577928324       
                  -0.1220720227     5.577928324       0.1309915873      0.1370409851      
2210006660        -0.08302562698    -0.0005186833586  4.881144617       -2.567719768      
                  4.881144617       -2.567719768      0.04808355658     -0.2183412527     
2295006570        0.0261465771      0.02682222273     -4.575677592      -3.044425327      
                  -4.575677592      -3.044425327      -0.1864563934     0.01514572005     
2380006480        0.02063272558     -0.04632854344    -0.4762930642     5.508442454       
                  -0.4762930642     5.508442454       0.1668125774      0.1141012262      
2465006390        -0.07822621341    -0.0107223275     4.946181939       -2.25872029       
                  4.946181939       -2.25872029       -0.01957051014    -0.2599206395     
2550006300        0.01298993858     -0.01046930281    -4.266837528      -3.373383541      
                  -4.266837528      -3.373383541      -0.1912435327     0.06044382583     
2635006210        0.01327272697     -0.04291330162    -0.7855036846     5.441395007       
                  -0.7855036846     5.441395007       0.2137030537      0.06421991389     
2720006120        -0.07539887893    -0.0001136148309  5.011765516       -1.896267181      
                  5.011765516       -1.896267181      -0.09026353547    -0.2651714676     
2805006030        0.0248859902      -0.01085396631    -3.988564333      -3.600460729      
                  -3.988564333      -3.600460729      -0.1633331275     0.1231347435      
2890005940        0.007214779841    -0.04167586279    -1.09818265       5.308222694       
                  -1.09818265       5.308222694       0.2323926232      0.009040891286    
2975005850        -0.09318405924    0.0064606114      5.033878195       -1.445620955      
                  5.033878195       -1.445620955      -0.1621492835     -0.2481390614     
3060005760        0.03125902069     0.003329630965    -3.703112027      -3.924839903      
                  -3.703112027      -3.924839903      -0.1191426089     0.1686674303      
3145005670        0.02453471321     -0.05573356041    -1.48229714       5.155862589       
                  -1.48229714       5.155862589       0.2321603417      -0.07155391305    
3230005580        -0.1068755792     -0.01830268375    5.134361068       -1.056308553      
                  5.134361068       -1.056308553      -0.2265254888     -0.2087835882     
3315005490        0.0279939408      0.03241834819     -3.450821034      -4.119693928      
                  -3.450821034      -4.119693928      -0.04601153082    0.2028403284      
3400005400        0.05517521192     -0.0474731013     -1.797325885      4.988186234       
                  -1.797325885      4.988186234       0.2021250985      -0.1448994313     
3485005310        -0.1118143479     -0.05139997056    5.213375833       -0.7258598441     
                  5.213375833       -0.7258598441     -0.2819967234     -0.1301719922     
3570005220        -0.002261764503   0.05977920667     -3.291285578      -4.261719364      
                  -3.291285578      -4.261719364      0.03352259771     0.2110294637      
3655005130        0.07251412495     -0.01888411882    -1.953377086      4.8486182         
                  -1.953377086      4.8486182         0.1354459093      -0.2086172607     
3740005040        -0.09844424785    -0.08845159393    5.181447068       -0.4135527982     
                  5.181447068       -0.4135527982     -0.3118122022     -0.03991550968    
3825004950        -0.04510510175    0.06076394232     -3.053466026      -4.319688542      
                  -3.053466026      -4.319688542      0.1136677783      0.1767699013      
3910004860        0.08233081313     0.01419228258     -2.299608188      4.630534569       
                  -2.299608188      4.630534569       0.05124113859     -0.2589426934     
3995004770        -0.05988632396    -0.1195910397     5.153674207       -0.1698438608     
                  5.153674207       -0.1698438608     -0.3054368422     0.0654271721      
4080004680        -0.08317660404    0.04331321623     -2.790730739      -4.428430089      
                  -2.790730739      -4.428430089      0.1912695865      0.1285830529      
4165004590        0.07121022838     0.05487285763     -2.538577157      4.472604041       
                  -2.538577157      4.472604041       -0.04612148665    -0.2721736618     
4250004500        -0.01606446015    -0.1134869412     5.187635462       0.0379888998      
                  5.187635462       0.0379888998      -0.2657320822     0.1757853058      
4335004410        -0.117846801      0.01914262161     -2.550955326      -4.475143512      
                  -2.550955326      -4.475143512      0.2303641148      0.04481218999     
4420004320        0.03457246529     0.08325272972     -2.656235666      4.349090751       
                  -2.656235666      4.349090751       -0.1637509904     -0.2511179297     
4505004230        0.02045228794     -0.09910638012    5.071598539       0.1496434097      
                  5.071598539       0.1496434097      -0.1969137902     0.2591641069      
4590004140        -0.1362931604     -0.01866334859    -2.306262649      -4.440939863      
                  -2.306262649      -4.440939863      0.2299422414      -0.05748299182    
4675004050        -0.0002092793598  0.09166654386     -2.664596887      4.197581454       
                  -2.664596887      4.197581454       -0.2555059312     -0.1916180147     
4760003960        0.05967309272     -0.06776125124    4.886812302       0.3415757335      
                  4.886812302       0.3415757335      -0.08678408635    0.3113408732      
4845003870        -0.1288192462     -0.05139869194    -2.073612852      -4.412050281      
                  -2.073612852      -4.412050281      0.2005438963      -0.1547654634     
4930003780        -0.04096611554    0.08569671395     -2.763435705      3.977740891       
                  -2.763435705      3.977740891       -0.3198388707     -0.09997858208    
5015003690        0.07706083465     -0.01468174882    4.722545969       0.5451093595      
                  4.722545969       0.5451093595      0.03540061393     0.3350238964      
5100003600        -0.1137818009     -0.06469681783    -1.916699309      -4.365969722      
                  -1.916699309      -4.365969722      0.1197441457      -0.2294060391     
5185003510        -0.07668606166    0.06457712948     -2.780215839      3.724164349       
                  -2.780215839      3.724164349       -0.3501007232     0.01122225808     
5270003420        0.06343375778     0.03243379614     4.555606427       0.7509526835      
                  4.555606427       0.7509526835      0.1494312734      0.3002259254      
5355003330        -0.09875512218    -0.06106248331    -1.807250074      -4.311799515      
                  -1.807250074      -4.311799515      -0.002052817314   -0.2793841484     
5440003240        -0.08392377288    0.02297320118     -2.741658728      3.538773511       
                  -2.741658728      3.538773511       -0.3199089092     0.1319458596      
5525003150        0.04359312267     0.04537384625     4.483344435       0.8393861465      
                  4.483344435       0.8393861465      0.2690149184      0.2018373686      
5610003060        -0.07213963913    -0.03135168503    -1.717956385      -4.16426147       
                  -1.717956385      -4.16426147       -0.1365727009     -0.268151542      
5695002970        -0.05172686171    0.009516635756    -2.733384917      3.310040554       
                  -2.733384917      3.310040554       -0.2216435603     0.2529186608      
5780002880        0.03944987707     0.03836598148     4.356075679       0.8972881205      
                  4.356075679       0.8972881205      0.3297358701      0.05827523582     
5865002790        -0.08107426633    0.01053333636     -1.570297072      -3.961415578      
                  -1.570297072      -3.961415578      -0.2721242629     -0.1858318434     
5950002700        -0.01939816385    0.03676058068     -2.751489717      3.098385729       
                  -2.751489717      3.098385729       -0.0830255141     0.333342724       
6035002610        0.03235365911     0.003613022351    4.11801556        0.8374993217      
                  4.11801556        0.8374993217      0.2991774705      -0.0970888398     
6120002520        -0.121140415      0.01519599535     -1.415986244      -3.767982973      
                  -1.415986244      -3.767982973      -0.3583919745     -0.04584312924    
6205002430        0.009994403519    0.09161081771     -2.67874657       2.903019159       
                  -2.67874657       2.903019159       0.1021938445      0.3379645863      
6290002340        0.08482788937     -0.03321026282    3.913274464       0.7773614256      
                  3.913274464       0.7773614256      0.1956677984      -0.247907018      
6375002250        -0.1734248158     -0.03176061914    -1.28270811       -3.573794107      
                  -1.28270811       -3.573794107      -0.37619531       0.1294707254      
6460002160        -0.02000109778    0.185475891       -2.535164313      2.722153028       
                  -2.535164313      2.722153028       0.2710525446      0.2726595755      
6545002070        0.1730975446      -0.004185276695   3.601771412       0.7629190965      
                  3.601771412       0.7629190965      0.02918444248     -0.32037037       
6630001980        -0.1579621902     -0.1276819413     -1.123796148      -3.356554523      
                  -1.123796148      -3.356554523      -0.2988916299     0.3023189315      
6715001890        -0.1030127964     0.2405865348      -2.338675196      2.435964523       
                  -2.338675196      2.435964523       0.3841079197      0.1565731024      
6800001800        0.242798616       0.09681092216     3.232450467       0.8689781569      
                  3.232450467       0.8689781569      -0.1312330213     -0.3090339505     
6885001710        -0.05879071784    -0.2346904559     -0.824231846      -3.106021702      
                  -0.824231846      -3.106021702      -0.1883768894     0.388369032       
6970001620        -0.2213350136     0.1958814171      -2.326421655      2.07939502        
                  -2.326421655      2.07939502        0.4236149807      0.02393262598     
7055001530        0.2335712675      0.2288375734      2.947421932       1.038273461       
                  2.947421932       1.038273461       -0.2572089746     -0.2717320557     
7140001440        0.1066292857      -0.2816711496     -0.5548249925     -2.96466016       
                  -0.5548249925     -2.96466016       -0.06363931749    0.4544097722      
7225001350        -0.2930965044     0.06608717295     -2.345990259      1.799642002       
                  -2.345990259      1.799642002       0.4530225068      -0.1031093632     
7310001260        0.1455991755      0.3513297226      2.683161144       1.032555261       
                  2.683161144       1.032555261       -0.3589513915     -0.1852825678     
7395001170        0.2963435679      -0.2055235854     -0.2698601578     -2.761858968      
                  -0.2698601578     -2.761858968      0.07688686251     0.4825352367      
7480001080        -0.283514615      -0.1341683783     -2.216090354      1.526695532       
                  -2.216090354      1.526695532       0.3951156748      -0.2370473537     
7565000990        -0.05419722722    0.3938080932      2.45009759        1.051552888       
                  2.45009759        1.051552888       -0.4254197445     -0.08462842218    
7650000900        0.4012428351      -0.03872623387    -0.07242893498    -2.476102025      
                  -0.07242893498    -2.476102025      0.2126778725      0.4393598211      
7735000810        -0.1470428584     -0.3138618184     -2.18295759       1.293163685       
                  -2.18295759       1.293163685       0.3175282743      -0.3463956011     
7820000720        -0.219538288      0.3072065021      2.174438482       1.171743788       
                  2.174438482       1.171743788       -0.4065794309     0.0247559625      
7905000630        0.4094211547      0.1496612258      0.08700238129     -2.214871552      
                  0.08700238129     -2.214871552      0.3242694004      0.3629683617      
7990000540        0.07918960899     -0.3907354645     -2.121434205      0.8882654295      
                  -2.121434205      0.8882654295      0.2218352469      -0.4075832379     
8075000450        -0.3557854368     0.1079181962      1.829421007       1.37556621        
                  1.829421007       1.37556621        -0.3885533147     0.1187345627      
8160000360        0.289107661       0.3205400992      0.2416211547      -2.113867278      
                  0.2416211547      -2.113867278      0.3994042234      0.2805369755      
8245000270        0.2650681457      -0.3326266976     -1.977751671      0.5979934634      
                  -1.977751671      0.5979934634      0.1144476357      -0.4446466855     
8330000180        -0.3648605408     -0.1423733214     1.585547199       1.451950207       
                  1.585547199       1.451950207       -0.3435546249     0.1932816121      
8415000090        0.06994896725     0.3949507145      0.3746858217      -1.941346277      
                  0.3746858217      -1.941346277      0.4362299877      0.1674134806      
8500000000        0.386941011       -0.1803134522     -1.791107795      0.4350650383      
                  -1.791107795      0.4350650383      -0.004201190402   -0.4611854837     
