! RsaToolbox (C) 2013 Rohde & Schwarz America
! 
! Number of points: 101
! Number of ports: 2
! Balanced ports?: 0
! 
! 
# Hz S RI R 50
9000              1.01341647        -0.02840253482    0.0001074740732   -0.000106841053   
                  0.0001074740732   -0.000106841053   1.018274137       -0.02693989557    
85008910          0.002641201419    0.1594299802      3.194205952       5.520837971       
                  3.194205952       5.520837971       -0.09223160661    -0.1156213466     
170008820         0.1427114188      -0.04446985582    3.196144465       -5.227872174      
                  3.196144465       -5.227872174      -0.02034956521    0.1716822226      
255008730         -0.1761913003     -0.07555803145    -6.062988573      -0.1718668823     
                  -6.062988573      -0.1718668823     0.07764969957     -0.0265634471     
340008640         -0.06354210529    0.170217926       2.649014026       5.361574551       
                  2.649014026       5.361574551       -0.1263646431     -0.05364201363    
425008550         0.1594627659      -0.04662059955    3.395908879       -4.871616553      
                  3.395908879       -4.871616553      0.01687644276     0.1029928516      
510008460         -0.1016633389     -0.1638005941     -5.910895314      -0.6514578786     
                  -5.910895314      -0.6514578786     0.07075411822     -0.07985690769    
595008370         -0.1071364743     0.1403179609      2.227694744       5.433581273       
                  2.227694744       5.433581273       -0.08387957549    -0.01218504966    
680008280         0.2044074277      0.03399244959     3.670239885       -4.577363265      
                  3.670239885       -4.577363265      0.09245658911     0.07512454132     
765008190         0.009410698812    -0.1639079719     -5.735797068      -1.107975573      
                  -5.735797068      -1.107975573      0.06003030733     -0.06030571127    
850008100         -0.1821292757     0.1112564553      1.867531503       5.52926443        
                  1.867531503       5.52926443        -0.07176050042    0.06494733849     
935008010         0.1463503985      0.1238566539      3.952749662       -4.231804451      
                  3.952749662       -4.231804451      0.102062163       0.03881880657     
1020007920        0.07571939792     -0.1542441755     -5.594126557      -1.453463689      
                  -5.594126557      -1.453463689      -0.004685404713   -0.07516683763    
1105007830        -0.2255497831     -0.008123148065   1.476685221       5.623097983       
                  1.476685221       5.623097983       -0.0628037042     0.07474365958     
1190007740        0.07151088186     0.1406130307      4.203052669       -3.861939352      
                  4.203052669       -3.861939352      0.1245363099      -0.04279788447    
1275007650        0.1647561494      -0.1090324298     -5.471814927      -1.835414576      
                  -5.471814927      -1.835414576      -0.02998470749    -0.08914170303    
1360007560        -0.1637695527     -0.1009255804     1.04114665        5.648885336       
                  1.04114665        5.648885336       -0.005302930864   0.1017600619      
1445007470        0.0006587465429   0.1423908583      4.415951131       -3.543879211      
                  4.415951131       -3.543879211      0.1471606377      -0.08838923563    
1530007380        0.185031919       -0.01141667342    -5.308664897      -2.19206907       
                  -5.308664897      -2.19206907       -0.0695265578     -0.06431048864    
1615007290        -0.09446338673    -0.1244303997     0.614363257       5.606471454       
                  0.614363257       5.606471454       0.02320868791     0.1418743659      
1700007200        -0.08885666299    0.09759882012     4.674564558       -3.243500852      
                  4.674564558       -3.243500852      0.110772956       -0.1332946292     
1785007110        0.128762045       0.03175077785     -5.065075527      -2.53485395       
                  -5.065075527      -2.53485395       -0.1319173248     -0.06354934305    
1870007020        -0.0217793117     -0.1365113855     0.2205175056      5.612137248       
                  0.2205175056      5.612137248       0.06581439584     0.132098784       
1955006930        -0.1072765359     0.02166357647     4.882649829       -2.886025285      
                  4.882649829       -2.886025285      0.08940478889     -0.1938043279     
2040006840        0.0830791179      0.03940221671     -4.8284835        -2.820370784      
                  -4.8284835        -2.820370784      -0.1544953432     -0.04132620127    
2125006750        0.03637212573     -0.09372145113    -0.1977227123     5.639884888       
                  -0.1977227123     5.639884888       0.1308054345      0.1369754066      
2210006660        -0.09306816587    -0.001123173518   4.978836844       -2.531202722      
                  4.978836844       -2.531202722      0.04778834825     -0.2181304363     
2295006570        0.03006795925     0.03727298578     -4.595576395      -3.149051732      
                  -4.595576395      -3.149051732      -0.1861247157     0.01570118145     
2380006480        0.02914902176     -0.05303040283    -0.5596820199     5.577999796       
                  -0.5596820199     5.577999796       0.1667992766      0.1143565745      
2465006390        -0.08849484613    -0.01658570756    5.056803098       -2.214302924      
                  5.056803098       -2.214302924      -0.01957813104    -0.2595987695     
2550006300        0.01178989581     0.001844805536    -4.290922211      -3.48849685       
                  -4.290922211      -3.48849685       -0.1908561603     0.06054559031     
2635006210        0.02624566911     -0.04513571074    -0.9002584017     5.521488022       
                  -0.9002584017     5.521488022       0.2134514661      0.06402717609     
2720006120        -0.08292932944    -0.01117745482    5.133260647       -1.843500744      
                  5.133260647       -1.843500744      -0.09063104709    -0.2643808715     
2805006030        0.01760835625     0.0004217902783   -4.005420557      -3.737459315      
                  -4.005420557      -3.737459315      -0.1628763739     0.1234549599      
2890005940        0.02200118004     -0.03640857363    -1.239248212      5.397108551       
                  -1.239248212      5.397108551       0.2317723917      0.009334165796    
2975005850        -0.09486487409    -0.008848797937   5.164980477       -1.384887312      
                  5.164980477       -1.384887312      -0.1621981773     -0.2471079272     
3060005760        0.01811709573     0.01064249348     -3.706283319      -4.079281232      
                  -3.706283319      -4.079281232      -0.1191199903     0.168823344       
3145005670        0.03685905924     -0.04449293326    -1.637473967      5.243949111       
                  -1.637473967      5.243949111       0.2313242333      -0.07173403868    
3230005580        -0.1014620024     -0.03361900873    5.274457695       -0.9842938622     
                  5.274457695       -0.9842938622     -0.2268109579     -0.207831082      
3315005490        0.01111057054     0.03186595511     -3.434048975      -4.305986487      
                  -3.434048975      -4.305986487      -0.04582248681    0.2025500207      
3400005400        0.06140719817     -0.02873810619    -1.994210839      5.079669572       
                  -1.994210839      5.079669572       0.2016931519      -0.144700305      
3485005310        -0.09763985912    -0.06430724448    5.374493811       -0.61356482       
                  5.374493811       -0.61356482       -0.2818906631     -0.129957536      
3570005220        -0.02055755998    0.04925234114     -3.253175993      -4.499146425      
                  -3.253175993      -4.499146425      0.03343808231     0.2104980333      
3655005130        0.06896191385     0.003989374211    -2.191186706      4.94499007        
                  -2.191186706      4.94499007        0.1343489406      -0.2091303158     
3740005040        -0.07709068174    -0.09341565319    5.366019313       -0.2585803561     
                  5.366019313       -0.2585803561     -0.3118318414     -0.03927949755    
3825004950        -0.05905256571    0.03666069418     -2.978601528      -4.633369208      
                  -2.978601528      -4.633369208      0.1135300073      0.1759487833      
3910004860        0.06375408328     0.03787143157     -2.613915796      4.723219784       
                  -2.613915796      4.723219784       0.05025212319     -0.2591250594     
3995004770        -0.03113320878    -0.1112270729     5.401241078       0.06699828699     
                  5.401241078       0.06699828699     -0.3054173814     0.06525188826     
4080004680        -0.08465450759    0.007411861507    -2.705419646      -4.806687302      
                  -2.705419646      -4.806687302      0.1907990572      0.1281446684      
4165004590        0.03933246137     0.07002713394     -2.875102939      4.587267579       
                  -2.875102939      4.587267579       -0.0466638728     -0.271457469      
4250004500        0.01185410223     -0.08811291491    5.490070915       0.310916213       
                  5.490070915       0.310916213       -0.2658271124     0.1752625728      
4335004410        -0.1015541776     -0.02011899958    -2.449711973      -4.916965251      
                  -2.449711973      -4.916965251      0.2297549148      0.04509943785     
4420004320        -0.007638853599   0.08367519216     -3.078610246      4.472969411       
                  -3.078610246      4.472969411       -0.1640391691     -0.2508821726     
4505004230        0.03838357621     -0.05653454305    5.440839822       0.4909700929      
                  5.440839822       0.4909700929      -0.1962886067     0.2589999685      
4590004140        -0.09979738594    -0.05210604087    -2.182589164      -4.953261403      
                  -2.182589164      -4.953261403      0.2294761122      -0.05760416131    
4675004050        -0.04496841128    0.07019483599     -3.175365586      4.356161329       
                  -3.175365586      4.356161329       -0.2550937141     -0.1910494828     
4760003960        0.05712561813     -0.01624146391    5.290865038       0.7268546427      
                  5.290865038       0.7268546427      -0.08597257765    0.3111749395      
4845003870        -0.07650721294    -0.06844406286    -1.934557921      -5.005541129      
                  -1.934557921      -5.005541129      0.2003879542      -0.1550997823     
4930003780        -0.07640837748    0.04058531558     -3.361335414      4.173856141       
                  -3.361335414      4.173856141       -0.319536865      -0.09958354011    
5015003690        0.04985025943     0.03755667614     5.165579672       0.9679312131      
                  5.165579672       0.9679312131      0.03577860647     0.3346631254      
5100003600        -0.05122613874    -0.05596309894    -1.763165113      -5.077763883      
                  -1.763165113      -5.077763883      0.119450339       -0.2290074033     
5185003510        -0.09103677088    0.004031908134    -3.416445422      3.950535974       
                  -3.416445422      3.950535974       -0.3495227517     0.01167748362     
5270003420        0.01455526798     0.07184345345     5.029819027       1.199730521       
                  5.029819027       1.199730521       0.1502422865      0.2995252496      
5355003330        -0.04214497779    -0.02202372815    -1.649122951      -5.139024178      
                  -1.649122951      -5.139024178      -0.002397986629   -0.2788356304     
5440003240        -0.07148889813    -0.03931079193    -3.362499089      3.785656378       
                  -3.362499089      3.785656378       -0.3191280335     0.1325243665      
5525003150        -0.01858871607    0.06087081782     5.013980537       1.313994186       
                  5.013980537       1.313994186       0.2691025185      0.2014193909      
5610003060        -0.03902147468    0.02780499427     -1.592378543      -4.980648308      
                  -1.592378543      -4.980648308      -0.1368644115     -0.2676430979     
5695002970        -0.01396705695    -0.04328622618    -3.357096889      3.572492961       
                  -3.357096889      3.572492961       -0.2212268445     0.2526103976      
5780002880        -0.02590291754    0.023431096       4.96562195        1.40879106        
                  4.96562195        1.40879106        0.3293014497      0.05776434254     
5865002790        -0.07709573618    0.07611456033     -1.493213062      -4.718313082      
                  -1.493213062      -4.718313082      -0.2725217586     -0.1852222991     
5950002700        0.03614242956     0.005035298119    -3.396659768      3.359722446       
                  -3.396659768      3.359722446       -0.08271644383    0.3326539284      
6035002610        -0.01859046754    -0.0393075055     4.751682957       1.303833036       
                  4.751682957       1.303833036       0.2981955555      -0.09758580034    
6120002520        -0.1448089162     0.07379296396     -1.375905787      -4.460887213      
                  -1.375905787      -4.460887213      -0.3585664181     -0.04533159255    
6205002430        0.07149647533     0.08821588998     -3.283608857      3.152828848       
                  -3.283608857      3.152828848       0.1020160719      0.3377474532      
6290002340        0.05997661394     -0.09105539042    4.524778018       1.164977782       
                  4.524778018       1.164977782       0.1945091487      -0.248008508      
6375002250        -0.2151536629     0.008692921585    -1.27800344       -4.165530521      
                  -1.27800344       -4.165530521      -0.3761979661     0.1300059514      
6460002160        0.02940584333     0.2061509767      -3.037732148      2.9542785         
                  -3.037732148      2.9542785         0.2706856169      0.272370654       
6545002070        0.1764588843      -0.05986745176    4.121329721       1.067889376       
                  4.121329721       1.067889376       0.02875957378     -0.3199887872     
6630001980        -0.2072511819     -0.1110103369     -1.132496354      -3.858137506      
                  -1.132496354      -3.858137506      -0.2988360065     0.3021157055      
6715001890        -0.07174075548    0.2748921159      -2.734421345      2.637952423       
                  -2.734421345      2.637952423       0.3839158934      0.156169786       
6800001800        0.2664158995      0.05509348453     3.633709787       1.126233406       
                  3.633709787       1.126233406       -0.1311964069     -0.3088218378     
6885001710        -0.1029875261     -0.2404712396     -0.8192259816     -3.508564145      
                  -0.8192259816     -3.508564145      -0.1876602127     0.3880032999      
6970001620        -0.2097227445     0.2333920415      -2.644248758      2.227367317       
                  -2.644248758      2.227367317       0.4223550382      0.0239479685      
7055001530        0.2632750283      0.2071759172      3.226470992       1.243360398       
                  3.226470992       1.243360398       -0.2572058912     -0.2714424968     
7140001440        0.08145685636     -0.2997175186     -0.5408155912     -3.233459141      
                  -0.5408155912     -3.233459141      -0.06302350218    0.4536085963      
7225001350        -0.2966328184     0.09635039214     -2.582228677      1.900376298       
                  -2.582228677      1.900376298       0.4524378477      -0.1036704661     
7310001260        0.1702226127      0.3473296688      2.868385679       1.162075264       
                  2.868385679       1.162075264       -0.3582945052     -0.1846855608     
7395001170        0.2852071772      -0.2276337747     -0.2474332448     -2.969143214      
                  -0.2474332448     -2.969143214      0.07663436503     0.4813232188      
7480001080        -0.2988571143     -0.1106512547     -2.419021381      1.613947062       
                  -2.419021381      1.613947062       0.3948708819      -0.2374865202     
7565000990        -0.03128222458    0.3999934322      2.618859944       1.16486113        
                  2.618859944       1.16486113        -0.4244798888     -0.08423988266    
7650000900        0.4010463152      -0.05642577639    -0.05465734167    -2.61249028       
                  -0.05465734167    -2.61249028       0.2126647175      0.4382312601      
7735000810        -0.1610748968     -0.3065726856     -2.298975804      1.348266856       
                  -2.298975804      1.348266856       0.3172897471      -0.3463547847     
7820000720        -0.2070816932     0.3174133576      2.278684737       1.242583202       
                  2.278684737       1.242583202       -0.4057008833     0.02606437896     
7905000630        0.4143093434      0.1388104646      0.09624471048     -2.301493679      
                  0.09624471048     -2.301493679      0.3242505955      0.3621655192      
7990000540        0.066308597       -0.3909444877     -2.216839678      0.9262106433      
                  -2.216839678      0.9262106433      0.2223923072      -0.4072699683     
8075000450        -0.3506554608     0.1206971342      1.909253873       1.434515945       
                  1.909253873       1.434515945       -0.3878813785     0.1192540393      
8160000360        0.2974834113      0.3132098652      0.2511869278      -2.191481055      
                  0.2511869278      -2.191481055      0.3992795691      0.2804414451      
8245000270        0.2582243348      -0.3368564752     -2.040811363      0.6162199194      
                  -2.040811363      0.6162199194      0.1141763439      -0.444450479      
8330000180        -0.3668995593     -0.1318992317     1.63763939        1.500692248       
                  1.63763939        1.500692248       -0.343338208      0.193483548       
8415000090        0.07867950213     0.3928618813      0.3842003931      -1.997880364      
                  0.3842003931      -1.997880364      0.435796059       0.1666578207      
8500000000        0.3827373844      -0.1856651024     -1.832146542      0.4464311836      
                  -1.832146542      0.4464311836      -0.005231571333   -0.4607763417     
