! RsaToolbox (C) 2013 Rohde & Schwarz America
! 
! Number of points: 101
! Number of ports: 2
! Balanced ports?: 0
! 
! 
# Hz S RI R 50
9000              1.017421224       -0.01794135149    9.740410227e-05   3.680337037e-05   
                  9.740410227e-05   3.680337037e-05   1.018169197       -0.02786261661    
85008910          0.002576190418    0.1591425734      3.19615368        5.522824176       
                  3.19615368        5.522824176       -0.09200953512    -0.1152032654     
170008820         0.1423799133      -0.04433570623    3.195805811       -5.227887768      
                  3.195805811       -5.227887768      -0.0202578912     0.1715892117      
255008730         -0.1765627046     -0.0758865512     -6.063450098      -0.1701238332     
                  -6.063450098      -0.1701238332     0.07769311171     -0.02616004684    
340008640         -0.0631365425     0.1701570009      2.655803804       5.35850764        
                  2.655803804       5.35850764        -0.1263922571     -0.05337970931    
425008550         0.159572823       -0.04681862536    3.393013517       -4.870259459      
                  3.393013517       -4.870259459      0.01690994285     0.1027151061      
510008460         -0.1016688466     -0.1635997662     -5.908717914      -0.6481913388     
                  -5.908717914      -0.6481913388     0.0709663688      -0.07963179961    
595008370         -0.1073682066     0.1399369705      2.227044983       5.430823408       
                  2.227044983       5.430823408       -0.08374855538    -0.01210554409    
680008280         0.2047452659      0.03369687331     3.667754027       -4.576675281      
                  3.667754027       -4.576675281      0.0921038742      0.07539185836     
765008190         0.009347947225    -0.1639530139     -5.736437767      -1.105612287      
                  -5.736437767      -1.105612287      0.06011548185     -0.06070716067    
850008100         -0.1821451213     0.1113562419      1.867580714       5.529372792       
                  1.867580714       5.529372792       -0.07132462653    0.06517822389     
935008010         0.145977389       0.1235679286      3.95105986        -4.231788238      
                  3.95105986        -4.231788238      0.1018423789      0.03878479528     
1020007920        0.07550599486     -0.1541364428     -5.591353504      -1.451391782      
                  -5.591353504      -1.451391782      -0.004876878689   -0.07575223386    
1105007830        -0.2254422771     -0.008406864812   1.475968507       5.623600855       
                  1.475968507       5.623600855       -0.06323772225    0.07495828174     
1190007740        0.07148476437     0.1405120978      4.200273049       -3.860647755      
                  4.200273049       -3.860647755      0.124209992       -0.04285664391    
1275007650        0.1643401205      -0.1091063881     -5.470232304      -1.832798011      
                  -5.470232304      -1.832798011      -0.02995100966    -0.08923927698    
1360007560        -0.1638208333     -0.1009252981     1.042136259       5.646694462       
                  1.042136259       5.646694462       -0.005315810214   0.1018708634      
1445007470        0.0006130327046   0.1422580929      4.417099616       -3.543441666      
                  4.417099616       -3.543441666      0.1468439784      -0.08874582739    
1530007380        0.18501709        -0.01142164868    -5.31126077       -2.192759828      
                  -5.31126077       -2.192759828      -0.06942727869    -0.0645280344     
1615007290        -0.0943038476     -0.124226396      0.6164528015      5.607257692       
                  0.6164528015      5.607257692       0.02316228412     0.141878442       
1700007200        -0.08887475674    0.09753451348     4.673088794       -3.244189464      
                  4.673088794       -3.244189464      0.1111054563      -0.1335785872     
1785007110        0.1288325713      0.03183823619     -5.066896675      -2.532211026      
                  -5.066896675      -2.532211026      -0.1317880756     -0.06391137761    
1870007020        -0.02188521345    -0.1366739775     0.2214295292      5.612526603       
                  0.2214295292      5.612526603       0.06644923645     0.1321025418      
1955006930        -0.1072645679     0.02161126336     4.881939886       -2.887588475      
                  4.881939886       -2.887588475      0.08951923673     -0.1939587536     
2040006840        0.08335561573     0.03940615641     -4.830145199      -2.818004367      
                  -4.830145199      -2.818004367      -0.1545997243     -0.04169901658    
2125006750        0.03640556258     -0.09335100508    -0.1941871159     5.640368743       
                  -0.1941871159     5.640368743       0.1309023616      0.1366843304      
2210006660        -0.09284413418    -0.0006797928061  4.977937997       -2.532885307      
                  4.977937997       -2.532885307      0.04804840041     -0.2178581339     
2295006570        0.02971351498     0.03716084202     -4.598341024      -3.149372204      
                  -4.598341024      -3.149372204      -0.1860698533     0.01542315285     
2380006480        0.02928230538     -0.05289554846    -0.5596263729     5.57918185        
                  -0.5596263729     5.57918185        0.1669082655      0.1140431113      
2465006390        -0.08859420071    -0.01686306279    5.057187676       -2.214175845      
                  5.057187676       -2.214175845      -0.01975522228    -0.2592876391     
2550006300        0.01161646365     0.001995642062    -4.287636451      -3.486583424      
                  -4.287636451      -3.486583424      -0.1908875813     0.06086452176     
2635006210        0.0262132133      -0.0449251819     -0.8981654097     5.51981763        
                  -0.8981654097     5.51981763        0.2136377871      0.06425839867     
2720006120        -0.08296120304    -0.01107184626    5.1304446         -1.842302583      
                  5.1304446         -1.842302583      -0.0902776215     -0.2640898817     
2805006030        0.01742359755     0.0004619250742   -4.004367449      -3.735175505      
                  -4.004367449      -3.735175505      -0.1631959279     0.1234951772      
2890005940        0.02191958363     -0.03664472233    -1.239225603      5.395023292       
                  -1.239225603      5.395023292       0.2320359007      0.00940378803     
2975005850        -0.09533454049    -0.008451920418   5.163601617       -1.3850532        
                  5.163601617       -1.3850532        -0.1622589746     -0.2472340257     
3060005760        0.01815196949     0.01040916859     -3.705995372      -4.078272171      
                  -3.705995372      -4.078272171      -0.1188407531     0.1687180357      
3145005670        0.03647975593     -0.04442653884    -1.637311345      5.243417635       
                  -1.637311345      5.243417635       0.2323521462      -0.07146975967    
3230005580        -0.102237419      -0.033562323      5.27306652        -0.9825419176     
                  5.27306652        -0.9825419176     -0.2267640219     -0.2078475907     
3315005490        0.01139472949     0.03192872256     -3.432848069      -4.304934795      
                  -3.432848069      -4.304934795      -0.04584671206    0.2024230458      
3400005400        0.06162091312     -0.02894571387    -1.994510342      5.077290135       
                  -1.994510342      5.077290135       0.2010743639      -0.1452468391     
3485005310        -0.09794485572    -0.06374212734    5.375325738       -0.6160145773     
                  5.375325738       -0.6160145773     -0.2822922908     -0.1295664625     
3570005220        -0.02040118968    0.04919172155     -3.253168335      -4.497196933      
                  -3.253168335      -4.497196933      0.03311024866     0.2108321227      
3655005130        0.06913094948     0.004484509628    -2.190335311      4.945084786       
                  -2.190335311      4.945084786       0.1349859605      -0.20813591       
3740005040        -0.07720983538    -0.09371017677    5.366301164       -0.2590448505     
                  5.366301164       -0.2590448505     -0.3122673237     -0.03972192837    
3825004950        -0.05920274869    0.03694155311     -2.978129973      -4.634942394      
                  -2.978129973      -4.634942394      0.113183346       0.1759506329      
3910004860        0.064011706       0.03775155494     -2.613930069      4.723495536       
                  -2.613930069      4.723495536       0.0501571625      -0.2590847754     
3995004770        -0.03084514867    -0.1114005925     5.40048188        0.06404766058     
                  5.40048188        0.06404766058     -0.305289405      0.06523027295     
4080004680        -0.08492875779    0.007933475424    -2.704953779      -4.804989532      
                  -2.704953779      -4.804989532      0.1902157214      0.1278011626      
4165004590        0.03948290376     0.07025375231     -2.873261246      4.586376583       
                  -2.873261246      4.586376583       -0.04669582516    -0.2716859905     
4250004500        0.01138861158     -0.08802807687    5.487942715       0.3094754911      
                  5.487942715       0.3094754911      -0.2656058722     0.1759038641      
4335004410        -0.101290229      -0.01971819258    -2.449819143      -4.913973966      
                  -2.449819143      -4.913973966      0.2299628534      0.04432919228     
4420004320        -0.007702793989   0.08345298237     -3.077072109      4.472502592       
                  -3.077072109      4.472502592       -0.1640702385     -0.250706694      
4505004230        0.03834827016     -0.05666527276    5.437957193       0.4893118252      
                  5.437957193       0.4893118252      -0.1967530731     0.2591155658      
4590004140        -0.09991083246    -0.05197810227    -2.182882         -4.950032793      
                  -2.182882         -4.950032793      0.2295612551      -0.05722615735    
4675004050        -0.0450738601     0.07024351189     -3.17344715       4.355065951       
                  -3.17344715       4.355065951       -0.2554985786     -0.1913305899     
4760003960        0.05712812349     -0.01596855527    5.289989762       0.7252050469      
                  5.289989762       0.7252050469      -0.08640832245    0.310999504       
4845003870        -0.07642084062    -0.06857557476    -1.935330467      -5.002289153      
                  -1.935330467      -5.002289153      0.2002763067      -0.1547719024     
4930003780        -0.07648484004    0.04082070674     -3.360784475      4.172391764       
                  -3.360784475      4.172391764       -0.3195154777     -0.0994812422     
5015003690        0.04963796972     0.03750793663     5.159755326       0.9675481332      
                  5.159755326       0.9675481332      0.03583373896     0.3344292864      
5100003600        -0.05191142942    -0.0564406972     -1.761377521      -5.074723091      
                  -1.761377521      -5.074723091      0.1195705454      -0.2290722126     
5185003510        -0.09068213201    0.004311937189    -3.414307724      3.94993448        
                  -3.414307724      3.94993448        -0.3494869328     0.01150818934     
5270003420        0.01461065214     0.07158818604     5.026731088       1.199458606       
                  5.026731088       1.199458606       0.1494863933      0.2993801608      
5355003330        -0.04208565156    -0.02246739912    -1.647363978      -5.136419643      
                  -1.647363978      -5.136419643      -0.002076172347   -0.2790736167     
5440003240        -0.07156760089    -0.03929051937    -3.35995768       3.784717821       
                  -3.35995768       3.784717821       -0.3190354293     0.1322147097      
5525003150        -0.01837040016    0.06089192677     5.010833504       1.313295931       
                  5.010833504       1.313295931       0.2690122446      0.2013036109      
5610003060        -0.03864939229    0.02792272137     -1.598867135      -4.97546846       
                  -1.598867135      -4.97546846       -0.1365960014     -0.2674871702     
5695002970        -0.01385398547    -0.04318875944    -3.360174255      3.56719226        
                  -3.360174255      3.56719226        -0.2210311181     0.2528236406      
5780002880        -0.02604792866    0.02375334167     4.963234231       1.408280407       
                  4.963234231       1.408280407       0.3293181721      0.05801482301     
5865002790        -0.07674617061    0.07573536964     -1.492760352      -4.716216657      
                  -1.492760352      -4.716216657      -0.2722028579     -0.1848916849     
5950002700        0.03610246607     0.004995994268    -3.394619739      3.359151758       
                  -3.394619739      3.359151758       -0.08256940058    0.3327076847      
6035002610        -0.01896490976    -0.03915741933    4.748666748       1.304271788       
                  4.748666748       1.304271788       0.2982762847      -0.09761765796    
6120002520        -0.1448799289     0.07369139481     -1.375479456      -4.4596194        
                  -1.375479456      -4.4596194        -0.3585510463     -0.04557412346    
6205002430        0.07122729916     0.08841584652     -3.282442544      3.153710883       
                  -3.282442544      3.153710883       0.1019736474      0.3369253919      
6290002340        0.06034402273     -0.09084901821    4.523990888       1.164574211       
                  4.523990888       1.164574211       0.1945565733      -0.2479237023     
6375002250        -0.2151196796     0.008289016941    -1.276821417      -4.163845483      
                  -1.276821417      -4.163845483      -0.3759360287     0.130214387       
6460002160        0.02967181313     0.2061232615      -3.036669585      2.95358865        
                  -3.036669585      2.95358865        0.2707113601      0.2724217739      
6545002070        0.1763399068      -0.05975196119    4.119155092       1.067736466       
                  4.119155092       1.067736466       0.02845688246     -0.3198150346     
6630001980        -0.2070010971     -0.1104490737     -1.132268638      -3.855735259      
                  -1.132268638      -3.855735259      -0.2981547502     0.3023641156      
6715001890        -0.07168460262    0.2748843911      -2.733998438      2.636024914       
                  -2.733998438      2.636024914       0.3837828595      0.1558519715      
6800001800        0.2654906447      0.05518234634     3.631983522       1.126831809       
                  3.631983522       1.126831809       -0.1315112283     -0.3086551036     
6885001710        -0.1027891112     -0.2407839016     -0.8177806744     -3.507586959      
                  -0.8177806744     -3.507586959      -0.1881526706     0.387977079       
6970001620        -0.2091994503     0.2335708594      -2.644231999      2.225532357       
                  -2.644231999      2.225532357       0.4232634984      0.02320282175     
7055001530        0.2630619292      0.2073496896      3.225733495       1.242925494       
                  3.225733495       1.242925494       -0.2572514532     -0.2712381239     
7140001440        0.0816554468      -0.2999063322     -0.5404638708     -3.232722266      
                  -0.5404638708     -3.232722266      -0.06335792454    0.4534711938      
7225001350        -0.2966328754     0.09607821483     -2.582055201      1.899015316       
                  -2.582055201      1.899015316       0.4527884309      -0.1035739066     
7310001260        0.1700465044      0.347248898       2.867332013       1.162459          
                  2.867332013       1.162459          -0.3582094618     -0.1853359736     
7395001170        0.28513736        -0.2276230233     -0.2464285854     -2.968742561      
                  -0.2464285854     -2.968742561      0.07744837356     0.4818530274      
7480001080        -0.2989367731     -0.1108485087     -2.41776163       1.612888913       
                  -2.41776163       1.612888913       0.3945974142      -0.2373850943     
7565000990        -0.03081756729    0.4001299727      2.617968808       1.165881161       
                  2.617968808       1.165881161       -0.4246042268     -0.08442761481    
7650000900        0.4007480673      -0.05649139994    -0.05424504676    -2.611794005      
                  -0.05424504676    -2.611794005      0.212707453       0.4386398283      
7735000810        -0.161311395      -0.3067473426     -2.298892342      1.347624421       
                  -2.298892342      1.347624421       0.3173333816      -0.3461460529     
7820000720        -0.2064262833     0.3184578373      2.279107551       1.242505412       
                  2.279107551       1.242505412       -0.4058481054     0.02521266635     
7905000630        0.4138874469      0.1388510137      0.09689306508     -2.300854834      
                  0.09689306508     -2.300854834      0.3243137068      0.3624990918      
7990000540        0.06618131145     -0.3905544629     -2.216169321      0.9265377172      
                  -2.216169321      0.9265377172      0.2213207926      -0.407592326      
8075000450        -0.3507375056     0.1197406597      1.908591941       1.433955712       
                  1.908591941       1.433955712       -0.3876458074     0.1192027061      
8160000360        0.2973487459      0.3135487733      0.2518856876      -2.191533852      
                  0.2518856876      -2.191533852      0.3994433257      0.2798385525      
8245000270        0.2574800813      -0.3372016661     -2.039937247      0.6176819346      
                  -2.039937247      0.6176819346      0.1144134293      -0.443874007      
8330000180        -0.3662374791     -0.1320720304     1.638451384       1.499860155       
                  1.638451384       1.499860155       -0.3428443176     0.1935061904      
8415000090        0.0784243073      0.3934088288      0.3841082046      -1.998244247      
                  0.3841082046      -1.998244247      0.4361811983      0.1673987338      
8500000000        0.3830260122      -0.1857533892     -1.832146585      0.4463257527      
                  -1.832146585      0.4463257527      -0.004969526389   -0.4600327609     
