! RsaToolbox (C) 2013 Rohde & Schwarz America
! 
! Number of points: 101
! Number of ports: 2
! Balanced ports?: 0
! 
! 
# Hz S RI R 50
9000              1.01039401        -0.03080464518    0.0003142787423   0.0001418043759   
                  0.0003142787423   0.0001418043759   1.0200102         -0.02841488307    
85008910          0.003315142545    0.1593557164      3.190803491       5.527282766       
                  3.190803491       5.527282766       -0.09247429402    -0.115936082      
170008820         0.1423718999      -0.04409006664    3.203718135       -5.227202826      
                  3.203718135       -5.227202826      -0.02053773166    0.1719529478      
255008730         -0.1766642344     -0.07632611187    -6.065359555      -0.1758607813     
                  -6.065359555      -0.1758607813     0.07810546497     -0.02661342196    
340008640         -0.06320619098    0.1699909365      2.649410627       5.364358537       
                  2.649410627       5.364358537       -0.1261773728     -0.05309603823    
425008550         0.159750541       -0.04629484007    3.399646405       -4.871119337      
                  3.399646405       -4.871119337      0.01719541897     0.1029394471      
510008460         -0.1018377521     -0.163802687      -5.908772265      -0.6586218502     
                  -5.908772265      -0.6586218502     0.07054282384     -0.07975274618    
595008370         -0.1072469225     0.1400568045      2.225853414       5.437317262       
                  2.225853414       5.437317262       -0.08374658284    -0.01227417322    
680008280         0.2047765463      0.03376247704     3.674163129       -4.57845926       
                  3.674163129       -4.57845926       0.09237893616     0.07467447566     
765008190         0.009157659924    -0.1641348641     -5.736587421      -1.111424162      
                  -5.736587421      -1.111424162      0.05990800897     -0.0602390439     
850008100         -0.1818351581     0.1110813303      1.864538987       5.532420915       
                  1.864538987       5.532420915       -0.07140295436    0.06601475643     
935008010         0.1462963844      0.1241481664      3.954281158       -4.230208811      
                  3.954281158       -4.230208811      0.1019486402      0.03884911016     
1020007920        0.07539607955     -0.1546083208     -5.594468269      -1.457782358      
                  -5.594468269      -1.457782358      -0.004810826532   -0.07501622036    
1105007830        -0.2257071607     -0.008022526038   1.47183484        5.628058037       
                  1.47183484        5.628058037       -0.06270328932    0.07483526455     
1190007740        0.07173966064     0.1404683687      4.205294529       -3.862896679      
                  4.205294529       -3.862896679      0.1237379582      -0.04265940394    
1275007650        0.1649347654      -0.1087852815     -5.472723964      -1.837964626      
                  -5.472723964      -1.837964626      -0.02966634433    -0.0895760645     
1360007560        -0.1639376023     -0.1011285305     1.038176665       5.651361498       
                  1.038176665       5.651361498       -0.005316649657   0.1015193445      
1445007470        0.0005549689325   0.1424945188      4.418485934       -3.541938677      
                  4.418485934       -3.541938677      0.1473405172      -0.08803540522    
1530007380        0.1855971365      -0.01196579638    -5.310843855      -2.193937314      
                  -5.310843855      -2.193937314      -0.06917344208    -0.06433591995    
1615007290        -0.09472643035    -0.1244681864     0.6151929571      5.610979602       
                  0.6151929571      5.610979602       0.02334468483     0.1421940627      
1700007200        -0.08871228344    0.09777865459     4.675931436       -3.243743919      
                  4.675931436       -3.243743919      0.1107871235      -0.1336119629     
1785007110        0.1288936489      0.03225427282     -5.06915433       -2.534402111      
                  -5.06915433       -2.534402111      -0.1317422215     -0.06398285543    
1870007020        -0.02166711615    -0.13656826       0.2205212606      5.615280856       
                  0.2205212606      5.615280856       0.06635495348     0.1319567626      
1955006930        -0.107440544      0.02145580137     4.884101368       -2.886982253      
                  4.884101368       -2.886982253      0.08911476883     -0.193549963      
2040006840        0.08362160667     0.03987035283     -4.832055352      -2.821613725      
                  -4.832055352      -2.821613725      -0.1543017214     -0.04175347593    
2125006750        0.03683663815     -0.09370611117    -0.1962536563     5.642761191       
                  -0.1962536563     5.642761191       0.1308354026      0.136717737       
2210006660        -0.09312016813    -0.0008950426292  4.982429904       -2.530838377      
                  4.982429904       -2.530838377      0.04812646281     -0.218058929      
2295006570        0.03039848753     0.03692286069     -4.59866514       -3.152210562      
                  -4.59866514       -3.152210562      -0.185993177      0.01584210298     
2380006480        0.02940862093     -0.05255133936    -0.5634904644     5.582080669       
                  -0.5634904644     5.582080669       0.1668420431      0.1132618811      
2465006390        -0.08862220327    -0.0167589844     5.059792368       -2.214040617      
                  5.059792368       -2.214040617      -0.02020406159    -0.2588043629     
2550006300        0.01179860953     0.001901068708    -4.288505145      -3.492406563      
                  -4.288505145      -3.492406563      -0.1907331928     0.06066870944     
2635006210        0.0261880272      -0.04574106134    -0.899590549      5.524180074       
                  -0.899590549      5.524180074       0.2136132221      0.06477133772     
2720006120        -0.08358897066    -0.01121765444    5.136362467       -1.843815814      
                  5.136362467       -1.843815814      -0.09049502101    -0.26473959       
2805006030        0.01715951805     0.0008022500162   -4.006266558      -3.738253117      
                  -4.006266558      -3.738253117      -0.1629694153     0.1234622533      
2890005940        0.02232212448     -0.03663207032    -1.244622904      5.398374224       
                  -1.244622904      5.398374224       0.2316201614      0.008817340775    
2975005850        -0.0952956758     -0.009180446271   5.167099453       -1.385121269      
                  5.167099453       -1.385121269      -0.1624712647     -0.2473087919     
3060005760        0.01804808734     0.01078522405     -3.709540687      -4.083819281      
                  -3.709540687      -4.083819281      -0.1185279941     0.1685863361      
3145005670        0.03745049472     -0.04416032277    -1.6409697        5.249713295       
                  -1.6409697        5.249713295       0.2315436573      -0.07153090809    
3230005580        -0.1008834868     -0.03320377528    5.277830192       -0.9807110036     
                  5.277830192       -0.9807110036     -0.2265053529     -0.2076432444     
3315005490        0.01125550305     0.03193395401     -3.433769096      -4.312041896      
                  -3.433769096      -4.312041896      -0.04568971807    0.2026388358      
3400005400        0.06247954186     -0.0288043502     -1.994349521      5.081243499       
                  -1.994349521      5.081243499       0.200634437       -0.1446433103     
3485005310        -0.09781058678    -0.06377600892    5.376359548       -0.6157441094     
                  5.376359548       -0.6157441094     -0.2818604967     -0.129231489      
3570005220        -0.01990377031    0.049713985       -3.255890119      -4.502397498      
                  -3.255890119      -4.502397498      0.03338539065     0.210866441       
3655005130        0.06938063983     0.004760986471    -2.192876149      4.949876835       
                  -2.192876149      4.949876835       0.1344246954      -0.2089225271     
3740005040        -0.07598413459    -0.0928973789     5.370583917       -0.2588373185     
                  5.370583917       -0.2588373185     -0.3114787401     -0.03894762375    
3825004950        -0.05885394773    0.03652155714     -2.979151215      -4.638969596      
                  -2.979151215      -4.638969596      0.1136997045      0.1756739782      
3910004860        0.06329286107     0.03825133457     -2.614679262      4.724107334       
                  -2.614679262      4.724107334       0.05058429861     -0.2585005659     
3995004770        -0.03058910403    -0.1108849985     5.404417663       0.06728968897     
                  5.404417663       0.06728968897     -0.3057381342     0.06564404251     
4080004680        -0.08503011019    0.006820639373    -2.707602831      -4.81034861       
                  -2.707602831      -4.81034861       0.1903021113      0.1275636205      
4165004590        0.03884515517     0.07009838635     -2.875690527      4.589098462       
                  -2.875690527      4.589098462       -0.04676742093    -0.271743728      
4250004500        0.01077626581     -0.08789746031    5.492048564       0.3085370906      
                  5.492048564       0.3085370906      -0.2656810354     0.1753970882      
4335004410        -0.1017063856     -0.01977982805    -2.454902641      -4.918853428      
                  -2.454902641      -4.918853428      0.2297833567      0.04391355582     
4420004320        -0.008074019673   0.08340753638     -3.077686896      4.478597542       
                  -3.077686896      4.478597542       -0.1645697581     -0.2501435096     
4505004230        0.03825930707     -0.05697434912    5.449232464       0.4911367412      
                  5.449232464       0.4911367412      -0.1958722907     0.2589537347      
4590004140        -0.09902378465    -0.05205073768    -2.185517823      -4.959765582      
                  -2.185517823      -4.959765582      0.2288709463      -0.05769640764    
4675004050        -0.04509845843    0.07011200992     -3.181488971      4.359559056       
                  -3.181488971      4.359559056       -0.2553965915     -0.19054046       
4760003960        0.05723995587     -0.01575790936    5.297083783       0.7264844156      
                  5.297083783       0.7264844156      -0.08646950981    0.3108332327      
4845003870        -0.07679011042    -0.06795146123    -1.938809399      -5.009504382      
                  -1.938809399      -5.009504382      0.2002654576      -0.1551675485     
4930003780        -0.07591806264    0.04006545607     -3.363327181      4.179850725       
                  -3.363327181      4.179850725       -0.3189325964     -0.09947333947    
5015003690        0.04960018508     0.03818896236     5.172496042       0.9680171183      
                  5.172496042       0.9680171183      0.03553490428     0.3345380473      
5100003600        -0.05145682241    -0.05631520181    -1.767399638      -5.087405         
                  -1.767399638      -5.087405         0.1188481988      -0.2291473634     
5185003510        -0.09056579999    0.003976325345    -3.41936952       3.962123655       
                  -3.41936952       3.962123655       -0.3496925474     0.0110761517      
5270003420        0.01381253101     0.07099575314     5.036183953       1.199923124       
                  5.036183953       1.199923124       0.1499858081      0.2989981921      
5355003330        -0.04213707358    -0.02184576813    -1.653103287      -5.147036656      
                  -1.653103287      -5.147036656      -0.002506039916   -0.278181479      
5440003240        -0.07143592552    -0.03935310052    -3.364991644      3.79180096        
                  -3.364991644      3.79180096        -0.3191924708     0.132664289       
5525003150        -0.01857979882    0.06054389309     5.021593154       1.313123428       
                  5.021593154       1.313123428       0.2694843021      0.2010241744      
5610003060        -0.03935492174    0.02843625681     -1.597623432      -4.98917712       
                  -1.597623432      -4.98917712       -0.1368371831     -0.2682582724     
5695002970        -0.01356106438    -0.04320624031    -3.365418306      3.574349256       
                  -3.365418306      3.574349256       -0.2211389106     0.2525800744      
5780002880        -0.02607560903    0.0227849305      4.974145367       1.410025045       
                  4.974145367       1.410025045       0.3290883635      0.05779436061     
5865002790        -0.07748809703    0.0766157771      -1.496821528      -4.723989402      
                  -1.496821528      -4.723989402      -0.2722989022     -0.1855252177     
5950002700        0.03662730162     0.005076227711    -3.398958481      3.366327549       
                  -3.398958481      3.366327549       -0.0821431434     0.3332037708      
6035002610        -0.0183099257     -0.03988135823    4.761319134       1.300688244       
                  4.761319134       1.300688244       0.2977775525      -0.09801589158    
6120002520        -0.1453641529     0.07376946928     -1.385213344      -4.46680904       
                  -1.385213344      -4.46680904       -0.3586403582     -0.04559040354    
6205002430        0.07188492782     0.08750767215     -3.287526819      3.168188816       
                  -3.287526819      3.168188816       0.1024151867      0.3369923143      
6290002340        0.06047266349     -0.09267837033    4.539688113       1.159457918       
                  4.539688113       1.159457918       0.1948451374      -0.2487624972     
6375002250        -0.2160471308     0.008351513562    -1.285078511      -4.165890515      
                  -1.285078511      -4.165890515      -0.3767024858     0.1308656507      
6460002160        0.02858011947     0.2070161133      -3.02021666       2.952132699       
                  -3.02021666       2.952132699       0.2690906371      0.2713417805      
6545002070        0.1747698252      -0.05792406674    4.095484165       1.062481282       
                  4.095484165       1.062481282       0.02855466656     -0.3168309881     
6630001980        -0.2069586418     -0.1099944083     -1.125461057      -3.831555654      
                  -1.125461057      -3.831555654      -0.297393528      0.2998444688      
6715001890        -0.07122199575    0.2719684014      -2.704435384      2.625396889       
                  -2.704435384      2.625396889       0.379155949       0.1536101675      
6800001800        0.2657749226      0.05060397089     3.61927113        1.090637607       
                  3.61927113        1.090637607       -0.1319497003     -0.3071920471     
6885001710        -0.1035272578     -0.2407606646     -0.8550919956     -3.483767342      
                  -0.8550919956     -3.483767342      -0.1840661905     0.3824038497      
6970001620        -0.205969158      0.233141594       -2.620105038      2.240041309       
                  -2.620105038      2.240041309       0.4213501242      0.0206836296      
7055001530        0.2625631188      0.2057941894      3.219620596       1.23889854        
                  3.219620596       1.23889854        -0.2564624074     -0.2720664055     
7140001440        0.08172615461     -0.2999973688     -0.5268680523     -3.215788125      
                  -0.5268680523     -3.215788125      -0.06722094643    0.4477543035      
7225001350        -0.293685194      0.09163554667     -2.556916596      1.878488333       
                  -2.556916596      1.878488333       0.4482874683      -0.1050550737     
7310001260        0.1726879693      0.3390135268      2.840759339       1.133903378       
                  2.840759339       1.133903378       -0.3519333423     -0.1855862744     
7395001170        0.2850071455      -0.2287533062     -0.2712569574     -2.945893529      
                  -0.2712569574     -2.945893529      0.08278819729     0.477484839       
7480001080        -0.2979192207     -0.1076576291     -2.406502021      1.631942851       
                  -2.406502021      1.631942851       0.3949463993      -0.2380253395     
7565000990        -0.03066366561    0.4022754882      2.629766194       1.165202392       
                  2.629766194       1.165202392       -0.4267217932     -0.08310874044    
7650000900        0.4006791755      -0.05621495733    -0.05107932568    -2.617362837      
                  -0.05107932568    -2.617362837      0.2113886512      0.4391378559      
7735000810        -0.1602284188     -0.3073209619     -2.297233603      1.343846501       
                  -2.297233603      1.343846501       0.3178286136      -0.3462719996     
7820000720        -0.2056705766     0.3173771753      2.276246492       1.235648261       
                  2.276246492       1.235648261       -0.4036258209     0.02541021524     
7905000630        0.415327233       0.1377579184      0.09054592634     -2.301580919      
                  0.09054592634     -2.301580919      0.3252042619      0.3618914338      
7990000540        0.06568300856     -0.3902839109     -2.217864244      0.9299695866      
                  -2.217864244      0.9299695866      0.2214979406      -0.4073873121     
8075000450        -0.3498422818     0.1196552574      1.905684138       1.433334218       
                  1.905684138       1.433334218       -0.3858510026     0.116686674       
8160000360        0.2977278915      0.3128224744      0.2486698307      -2.181824602      
                  0.2486698307      -2.181824602      0.3979951933      0.2796851965      
8245000270        0.2546096546      -0.3331622247     -2.022682294      0.6158230402      
                  -2.022682294      0.6158230402      0.1166192677      -0.4384656609     
8330000180        -0.3613098557     -0.1279055377     1.621402148       1.481027564       
                  1.621402148       1.481027564       -0.3387302043     0.1909811619      
8415000090        0.07723511566     0.392759995       0.3969962145      -1.983418528      
                  0.3969962145      -1.983418528      0.435859138       0.1704671465      
8500000000        0.3840590664      -0.182477205      -1.827019749      0.4352071813      
                  -1.827019749      0.4352071813      -0.001459884414   -0.4595808745     
