! RsaToolbox (C) 2013 Rohde & Schwarz America
! 
! Number of points: 101
! Number of ports: 2
! Balanced ports?: 0
! 
! 
# Hz S RI R 50
9000              1.014995097       -0.02899927851    1.537045085e-05   -0.0001451245841  
                  1.537045085e-05   -0.0001451245841  1.017459683       -0.02521532028    
85008910          0.002969263326    0.1596151626      3.192683293       5.52693623        
                  3.192683293       5.52693623        -0.0921774137     -0.1158540433     
170008820         0.1423472275      -0.04449598858    3.200161525       -5.22656251       
                  3.200161525       -5.22656251       -0.02000993382    0.1718862185      
255008730         -0.1762093832     -0.07576941389    -6.06457112       -0.1772931036     
                  -6.06457112       -0.1772931036     0.07715755311     -0.02691388185    
340008640         -0.06328720261    0.1705121739      2.648542721       5.363284991       
                  2.648542721       5.363284991       -0.1268605602     -0.05314700118    
425008550         0.1598129054      -0.04613709185    3.398492149       -4.872077245      
                  3.398492149       -4.872077245      0.01696868208     0.1032819893      
510008460         -0.1025552636     -0.1638994301     -5.913338185      -0.6518787845     
                  -5.913338185      -0.6518787845     0.07043062298     -0.07923545484    
595008370         -0.1076486836     0.1403415424      2.224029794       5.435334343       
                  2.224029794       5.435334343       -0.08388664701    -0.01248363276    
680008280         0.2051018676      0.03408213812     3.673570918       -4.576083659      
                  3.673570918       -4.576083659      0.09221912854     0.07521660203     
765008190         0.009173568998    -0.1642751048     -5.737445179      -1.110114818      
                  -5.737445179      -1.110114818      0.06052409345     -0.0600862892     
850008100         -0.1819777542     0.1123570698      1.865861302       5.531040424       
                  1.865861302       5.531040424       -0.07170164061    0.06459198128     
935008010         0.146188974       0.1238261172      3.955775799       -4.229207072      
                  3.955775799       -4.229207072      0.1018980738      0.03828650918     
1020007920        0.07544538449     -0.1543810613     -5.592072313      -1.454255152      
                  -5.592072313      -1.454255152      -0.004892582351   -0.07561251486    
1105007830        -0.2256878469     -0.008321590185   1.475643035       5.624150833       
                  1.475643035       5.624150833       -0.06270587896    0.07512319601     
1190007740        0.07155662829     0.1409989969      4.200986374       -3.86249835       
                  4.200986374       -3.86249835       0.124728185       -0.04279732546    
1275007650        0.1646891951      -0.1089144835     -5.473830993      -1.83962314       
                  -5.473830993      -1.83962314       -0.0299379327     -0.08958348347    
1360007560        -0.1636758403     -0.1005012321     1.039740662       5.648402678       
                  1.039740662       5.648402678       -0.005356528625   0.1016141967      
1445007470        -9.411995433e-05  0.1423305319      4.420887588       -3.542720288      
                  4.420887588       -3.542720288      0.1469366264      -0.08801750803    
1530007380        0.1850326606      -0.01171393402    -5.307256278      -2.193137224      
                  -5.307256278      -2.193137224      -0.06891832601    -0.06419585582    
1615007290        -0.09468793271    -0.1246057914     0.6124081073      5.609083953       
                  0.6124081073      5.609083953       0.02302619777     0.1419035161      
1700007200        -0.089175009      0.09766477781     4.677955372       -3.243924837      
                  4.677955372       -3.243924837      0.1109552443      -0.1337273802     
1785007110        0.1287360894      0.03174877281     -5.065396799      -2.534919787      
                  -5.065396799      -2.534919787      -0.1318594507     -0.06434879685    
1870007020        -0.02143619272    -0.136640818      0.2203192444      5.613780384       
                  0.2203192444      5.613780384       0.06579754118     0.1318463066      
1955006930        -0.1077924315     0.02193107773     4.884008912       -2.886178451      
                  4.884008912       -2.886178451      0.08934663639     -0.1938480377     
2040006840        0.08328604536     0.03940059108     -4.83036045       -2.821980117      
                  -4.83036045       -2.821980117      -0.1552288823     -0.04097160719    
2125006750        0.03654524287     -0.09317088875    -0.1952368637     5.640753417       
                  -0.1952368637     5.640753417       0.1309233972      0.1368399401      
2210006660        -0.09291236201    -0.0008000949476  4.981222816       -2.531455175      
                  4.981222816       -2.531455175      0.04843292477     -0.21728918       
2295006570        0.02946742309     0.03733633234     -4.599582383      -3.150536311      
                  -4.599582383      -3.150536311      -0.1863444078     0.01491132229     
2380006480        0.02942652382     -0.05295048294    -0.5613154291     5.580936454       
                  -0.5613154291     5.580936454       0.1672523749      0.1141117493      
2465006390        -0.08880262562    -0.01701160868    5.060828081       -2.206555495      
                  5.060828081       -2.206555495      -0.01929250313    -0.2591568164     
2550006300        0.0116529868      0.001970528334    -4.290625799      -3.491685324      
                  -4.290625799      -3.491685324      -0.1909017615     0.06007756473     
2635006210        0.02618849689     -0.04559231191    -0.9030017521     5.522288288       
                  -0.9030017521     5.522288288       0.2134699912      0.06403965771     
2720006120        -0.08300404516    -0.01153874102    5.131209848       -1.839996679      
                  5.131209848       -1.839996679      -0.09061089502    -0.2644022038     
2805006030        0.01761493296     0.0009967746062   -4.0058967        -3.735295675      
                  -4.0058967        -3.735295675      -0.1632154211     0.1240605844      
2890005940        0.0219946911      -0.03681365054    -1.23972519       5.399642589       
                  -1.23972519       5.399642589       0.2318121623      0.009331480123    
2975005850        -0.09515477126    -0.009069782108   5.166872938       -1.3868819        
                  5.166872938       -1.3868819        -0.162840153      -0.2475792936     
3060005760        0.01842340783     0.01115232657     -3.707571527      -4.082574699      
                  -3.707571527      -4.082574699      -0.1188305995     0.1688285894      
3145005670        0.03674560482     -0.0444008682     -1.641636338      5.247549514       
                  -1.641636338      5.247549514       0.2312014568      -0.07151280148    
3230005580        -0.1013486449     -0.03348402134    5.279073055       -0.9824519327     
                  5.279073055       -0.9824519327     -0.2274220143     -0.2078734926     
3315005490        0.01071311862     0.03168865427     -3.432655093      -4.311423647      
                  -3.432655093      -4.311423647      -0.04596019818    0.2026940548      
3400005400        0.0615821947      -0.02888647041    -1.997530093      5.077124356       
                  -1.997530093      5.077124356       0.201999002       -0.1449125739     
3485005310        -0.09801135315    -0.06402092406    5.379121133       -0.613137857      
                  5.379121133       -0.613137857      -0.2816905231     -0.1298243536     
3570005220        -0.02142734525    0.04930974085     -3.25414061       -4.503452449      
                  -3.25414061       -4.503452449      0.03328805428     0.2105189929      
3655005130        0.06860663373     0.003838739186    -2.194219206      4.947631235       
                  -2.194219206      4.947631235       0.1351507251      -0.2085568672     
3740005040        -0.0774750254     -0.09267757309    5.373719002       -0.257461739      
                  5.373719002       -0.257461739      -0.3121929109     -0.03960917944    
3825004950        -0.05925347761    0.03719239222     -2.976292388      -4.638319067      
                  -2.976292388      -4.638319067      0.1134399897      0.1748847665      
3910004860        0.06351407258     0.03849982012     -2.617086003      4.729210089       
                  -2.617086003      4.729210089       0.0505913634      -0.2591827013     
3995004770        -0.03038700082    -0.1113807196     5.406648734       0.06730051366     
                  5.406648734       0.06730051366     -0.305945552      0.06507396139     
4080004680        -0.08561624007    0.007218621879    -2.708177236      -4.811487834      
                  -2.708177236      -4.811487834      0.190303519       0.1287236235      
4165004590        0.03891167839     0.07126684226     -2.875260976      4.590766094       
                  -2.875260976      4.590766094       -0.04659427036    -0.2712407945     
4250004500        0.01207177673     -0.08775305404    5.492860379       0.3112952824      
                  5.492860379       0.3112952824      -0.2658676231     0.1755368921      
4335004410        -0.1011296678     -0.02029950479    -2.449777041      -4.921146441      
                  -2.449777041      -4.921146441      0.2297074696      0.04511105533     
4420004320        -0.007273768724   0.08410504189     -3.079318548      4.475639256       
                  -3.079318548      4.475639256       -0.1637467744     -0.250514524      
4505004230        0.03828693195     -0.05682967988    5.445954924       0.4905608065      
                  5.445954924       0.4905608065      -0.1958049737     0.258422921       
4590004140        -0.09960905192    -0.0518341599     -2.185511011      -4.957613598      
                  -2.185511011      -4.957613598      0.2295724734      -0.0575866029     
4675004050        -0.0450797528     0.07009496452     -3.174018643      4.365627751       
                  -3.174018643      4.365627751       -0.2552377217     -0.1914391244     
4760003960        0.05715167409     -0.01537632209    5.296765331       0.7281311089      
                  5.296765331       0.7281311089      -0.08643634374    0.3110752415      
4845003870        -0.07630569816    -0.06874520777    -1.937986486      -5.010968723      
                  -1.937986486      -5.010968723      0.1998931681      -0.1549344478     
4930003780        -0.07594591336    0.0403836678      -3.364354842      4.179554957       
                  -3.364354842      4.179554957       -0.3196024572     -0.09940843441    
5015003690        0.04950074234     0.03762391744     5.167406659       0.9664210027      
                  5.167406659       0.9664210027      0.03528414        0.3344167221      
5100003600        -0.05155221437    -0.05646327074    -1.765204013      -5.083522875      
                  -1.765204013      -5.083522875      0.1194575423      -0.2295855931     
5185003510        -0.09041135883    0.003318956569    -3.420564344      3.957247378       
                  -3.420564344      3.957247378       -0.3494242101     0.01157151784     
5270003420        0.01394286448     0.07207575849     5.033418466       1.19975486        
                  5.033418466       1.19975486        0.1498572554      0.2993872053      
5355003330        -0.04239974       -0.02205873879    -1.652454419      -5.145280894      
                  -1.652454419      -5.145280894      -0.002065078168   -0.2788350848     
5440003240        -0.07103726806    -0.03954248263    -3.36405565       3.790713971       
                  -3.36405565       3.790713971       -0.318899442      0.1327705641      
5525003150        -0.01891477451    0.06010078117     5.02074281        1.314943242       
                  5.02074281        1.314943242       0.2689637628      0.2009803384      
5610003060        -0.03857939853    0.02827340903     -1.597010159      -4.985829468      
                  -1.597010159      -4.985829468      -0.1371240587     -0.2670960694     
5695002970        -0.01313600068    -0.04369274907    -3.364048448      3.574025125       
                  -3.364048448      3.574025125       -0.2214305757     0.2530534952      
5780002880        -0.02635121496    0.02298887504     4.97183582        1.40803883        
                  4.97183582        1.40803883        0.3293804221      0.05829772953     
5865002790        -0.07717164479    0.07643067311     -1.498443751      -4.723675994      
                  -1.498443751      -4.723675994      -0.2724370252     -0.1850972909     
5950002700        0.03699318272     0.005530681316    -3.398538314      3.367033698       
                  -3.398538314      3.367033698       -0.08271746786    0.3325875939      
6035002610        -0.01899609245    -0.03966236883    4.757364191       1.309339075       
                  4.757364191       1.309339075       0.2978933103      -0.09776327956    
6120002520        -0.1455698735     0.07361709402     -1.381044759      -4.464921573      
                  -1.381044759      -4.464921573      -0.3584894318     -0.04555490181    
6205002430        0.07160035552     0.08855101023     -3.286095813      3.159368458       
                  -3.286095813      3.159368458       0.1020567888      0.337256279       
6290002340        0.0604331515      -0.09148157691    4.532381282       1.164277756       
                  4.532381282       1.164277756       0.1943133224      -0.2475739052     
6375002250        -0.2155666754     0.008394558536    -1.281669518      -4.169958095      
                  -1.281669518      -4.169958095      -0.376370792      0.13041967        
6460002160        0.03027906716     0.2062540686      -3.03882888       2.959057683       
                  -3.03882888       2.959057683       0.2705899405      0.2719344712      
6545002070        0.1766212715      -0.06017895822    4.1254669         1.064384551       
                  4.1254669         1.064384551       0.028113292       -0.3196075884     
6630001980        -0.2072938688     -0.1112290506     -1.136920765      -3.861592142      
                  -1.136920765      -3.861592142      -0.2985740413     0.3020070556      
6715001890        -0.0716081621     0.2756252489      -2.735556805      2.640672811       
                  -2.735556805      2.640672811       0.3842108258      0.1556421209      
6800001800        0.2666789189      0.05517669241     3.636933987       1.124573071       
                  3.636933987       1.124573071       -0.1314114453     -0.3083391178     
6885001710        -0.1033575467     -0.2413561601     -0.8209757887     -3.510887616      
                  -0.8209757887     -3.510887616      -0.188067061      0.3884706919      
6970001620        -0.2106955298     0.2337768005      -2.644742301      2.230978568       
                  -2.644742301      2.230978568       0.4230374236      0.02301217584     
7055001530        0.2635378898      0.2074768203      3.228761732       1.243380006       
                  3.228761732       1.243380006       -0.2570034422     -0.271273512      
7140001440        0.08186723529     -0.3001166052     -0.5429292067     -3.234469524      
                  -0.5429292067     -3.234469524      -0.06248402781    0.4540603136      
7225001350        -0.2968695198     0.09641948195     -2.583056151      1.90393776        
                  -2.583056151      1.90393776        0.4524243995      -0.1038945982     
7310001260        0.1698556064      0.3476642881      2.869513301       1.16229327        
                  2.869513301       1.16229327        -0.3585621256     -0.1846859923     
7395001170        0.2850355299      -0.2279997251     -0.2467782013     -2.970000433      
                  -0.2467782013     -2.970000433      0.07675801354     0.4823076228      
7480001080        -0.2992599555     -0.110955415      -2.418075539      1.615049724       
                  -2.418075539      1.615049724       0.3947416433      -0.2369414776     
7565000990        -0.03128684901    0.3999946981      2.617777149       1.164984277       
                  2.617777149       1.164984277       -0.4243632441     -0.08393564657    
7650000900        0.4008506995      -0.05654911901    -0.05546199005    -2.613085492      
                  -0.05546199005    -2.613085492      0.2129089013      0.4380565298      
7735000810        -0.1613505938     -0.3069818299     -2.298407598      1.348824124       
                  -2.298407598      1.348824124       0.3185230717      -0.3460479604     
7820000720        -0.2074333358     0.3172688894      2.279368635       1.242802901       
                  2.279368635       1.242802901       -0.4054436757     0.02444044749     
7905000630        0.4143303033      0.1386704913      0.09556413588     -2.301428934      
                  0.09556413588     -2.301428934      0.3241127395      0.3621937169      
7990000540        0.06570535019     -0.3905783723     -2.217618342      0.9280137539      
                  -2.217618342      0.9280137539      0.2218836084      -0.4065267673     
8075000450        -0.3507997955     0.1206974932      1.909768145       1.433603504       
                  1.909768145       1.433603504       -0.3877751118     0.1188752699      
8160000360        0.2971678503      0.3132980886      0.2500734008      -2.191108715      
                  0.2500734008      -2.191108715      0.399019902       0.279922892       
8245000270        0.2573445711      -0.3366681047     -2.03996038       0.6170817462      
                  -2.03996038       0.6170817462      0.1138552095      -0.4444155992     
8330000180        -0.3665854963     -0.1321798795     1.639614955       1.499889          
                  1.639614955       1.499889          -0.3426070057     0.193716037       
8415000090        0.07887771384     0.3929799081      0.3828949068      -1.999060065      
                  0.3828949068      -1.999060065      0.4358829543      0.1672810862      
8500000000        0.3832829897      -0.186133439      -1.831858292      0.4472413501      
                  -1.831858292      0.4472413501      -0.004100304784   -0.4603699421     
