! RsaToolbox (C) 2013 Rohde & Schwarz America
! 
! Number of points: 101
! Number of ports: 2
! Balanced ports?: 0
! 
! 
# Hz S RI R 50
9000              1.002001621       -0.01470098249    7.966996456e-05   -1.395040206e-05  
                  7.966996456e-05   -1.395040206e-05  1.010870859       -0.02134528496    
85008910          0.0002381002261   0.1542387001      3.180093042       5.44644082        
                  3.180093042       5.44644082        -0.09252907247    -0.1159485858     
170008820         0.1389576547      -0.04086291292    3.159534261       -5.191215097      
                  3.159534261       -5.191215097      -0.02068207766    0.1717563162      
255008730         -0.1726342578     -0.07449663221    -6.024522739      -0.1553244259     
                  -6.024522739      -0.1553244259     0.07768558015     -0.02649761358    
340008640         -0.06357117143    0.1657162277      2.649561275       5.316941318       
                  2.649561275       5.316941318       -0.1268530311     -0.05400917306    
425008550         0.1556676292      -0.04523441092    3.356618538       -4.850754261      
                  3.356618538       -4.850754261      0.01656815526     0.1028550596      
510008460         -0.09937962289    -0.1606568686     -5.877286819      -0.6232390826     
                  -5.877286819      -0.6232390826     0.07081175066     -0.07977295997    
595008370         -0.1053922676     0.1362927899      2.236927901       5.387665147       
                  2.236927901       5.387665147       -0.08392415873    -0.01214456333    
680008280         0.2008066811      0.03338884709     3.627954022       -4.568569828      
                  3.627954022       -4.568569828      0.09208368767     0.07548664535     
765008190         0.01046714162     -0.159797828      -5.705030532      -1.075913824      
                  -5.705030532      -1.075913824      0.06022182473     -0.06067482168    
850008100         -0.1789271464     0.1093437615      1.887340237       5.487264223       
                  1.887340237       5.487264223       -0.0717946304     0.06503562699     
935008010         0.1423243138      0.1214314196      3.909176948       -4.226589366      
                  3.909176948       -4.226589366      0.1021128545      0.03894747725     
1020007920        0.07452182708     -0.150040909      -5.564458588      -1.414909424      
                  -5.564458588      -1.414909424      -0.004868222052   -0.07576918938    
1105007830        -0.2217078384     -0.008803952507   1.507517511       5.577061353       
                  1.507517511       5.577061353       -0.0631419543     0.07525141014     
1190007740        0.06934545462     0.1364092509      4.15275364        -3.854206967      
                  4.15275364        -3.854206967      0.1243312984      -0.04248539519    
1275007650        0.1616831377      -0.1056981736     -5.448526649      -1.787769297      
                  -5.448526649      -1.787769297      -0.03007341554    -0.089214667      
1360007560        -0.1597421498     -0.09898111152    1.073686339       5.603066506       
                  1.073686339       5.603066506       -0.005560042239   0.1018632705      
1445007470        0.0006922715652   0.137160774       4.363877466       -3.543069065      
                  4.363877466       -3.543069065      0.1471788937      -0.08840076729    
1530007380        0.1800217321      -0.01004813782    -5.289672649      -2.135902292      
                  -5.289672649      -2.135902292      -0.06936468881    -0.06465009216    
1615007290        -0.09093726789    -0.1191242713     0.6595290154      5.555685207       
                  0.6595290154      5.555685207       0.02319591062     0.1424380421      
1700007200        -0.08542620639    0.09249249794     4.60996131        -3.255556241      
                  4.60996131        -3.255556241      0.110917004       -0.1335254913     
1785007110        0.1221484185      0.03030582918     -5.046210322      -2.467727443      
                  -5.046210322      -2.467727443      -0.1320984669     -0.06412813724    
1870007020        -0.02120809257    -0.1293718969     0.2713291765      5.56038178        
                  0.2713291765      5.56038178        0.06565573568     0.13237388        
1955006930        -0.1011070922     0.01855468908     4.810196635       -2.910567019      
                  4.810196635       -2.910567019      0.08932605206     -0.1940117465     
2040006840        0.0772374431      0.03399768003     -4.810787741      -2.741881196      
                  -4.810787741      -2.741881196      -0.1549620194     -0.04162628911    
2125006750        0.03329056351     -0.08626510191    -0.1318616764     5.58710889        
                  -0.1318616764     5.58710889        0.1309393134      0.1370605545      
2210006660        -0.08438973231    -0.0005940441714  4.894240165       -2.563657873      
                  4.894240165       -2.563657873      0.04800360894     -0.2182575137     
2295006570        0.02657700792     0.02835819165     -4.579116214      -3.058341785      
                  -4.579116214      -3.058341785      -0.1863711876     0.01521295146     
2380006480        0.02199304987     -0.04721686299    -0.486715474      5.516759258       
                  -0.486715474      5.516759258       0.1668519456      0.1140832205      
2465006390        -0.07962820418    -0.01186293643    4.960142951       -2.252304109      
                  4.960142951       -2.252304109      -0.01960719407    -0.2597253653     
2550006300        0.01269242209     -0.008637584109   -4.269648747      -3.387713741      
                  -4.269648747      -3.387713741      -0.1911697755     0.06079158181     
2635006210        0.01536455673     -0.04306412666    -0.8015158353     5.451905233       
                  -0.8015158353     5.451905233       0.2136305064      0.06419871254     
2720006120        -0.07650261787    -0.002040420231   5.028176895       -1.888505339      
                  5.028176895       -1.888505339      -0.09058750363    -0.2648719947     
2805006030        0.0235238209      -0.009110175196   -3.989896825      -3.620302891      
                  -3.989896825      -3.620302891      -0.1633070951     0.1233644527      
2890005940        0.009610325839    -0.04061556943    -1.119930564      5.320503897       
                  -1.119930564      5.320503897       0.2323681698      0.009045915824    
2975005850        -0.09341198654    0.004023914821    5.051985547       -1.436173833      
                  5.051985547       -1.436173833      -0.1620068356     -0.2481979894     
3060005760        0.02889778529     0.004282911765    -3.700747992      -3.947034445      
                  -3.700747992      -3.947034445      -0.1191076263     0.1686532972      
3145005670        0.02644721923     -0.05361443841    -1.507259118      5.166946616       
                  -1.507259118      5.166946616       0.232079012       -0.07163404374    
3230005580        -0.1057153258     -0.02089894089    5.154160078       -1.043617146      
                  5.154160078       -1.043617146      -0.2267815502     -0.2081358535     
3315005490        0.02511648181     0.03207985733     -3.44584367       -4.147855368      
                  -3.44584367       -4.147855368      -0.04607286552    0.2027619248      
3400005400        0.05616189085     -0.04392304821    -1.828540493      4.999550418       
                  -1.828540493      4.999550418       0.2018799833      -0.1448695914     
3485005310        -0.1090190336     -0.05345092255    5.236729957       -0.7072261478     
                  5.236729957       -0.7072261478     -0.282044167      -0.1299376026     
3570005220        -0.005540337055   0.05766601159     -3.282170765      -4.299988174      
                  -3.282170765      -4.299988174      0.03346587045     0.2110364243      
3655005130        0.0716197454      -0.01457280116    -1.992109999      4.862271333       
                  -1.992109999      4.862271333       0.1351727676      -0.2086371353     
3740005040        -0.09435391865    -0.08929134432    5.210670092       -0.387121631      
                  5.210670092       -0.387121631      -0.3119388607     -0.03976657685    
3825004950        -0.04771571719    0.0558901989      -3.040018523      -4.373526052      
                  -3.040018523      -4.373526052      0.1136042189      0.1770579769      
3910004860        0.07840797333     0.01894551987     -2.355485699      4.645755336       
                  -2.355485699      4.645755336       0.05099276227     -0.2589711025     
3995004770        -0.05374535317    -0.1177403815     5.197358001       -0.1265093987     
                  5.197358001       -0.1265093987     -0.3053936843     0.06534226958     
4080004680        -0.08342028376    0.03583457746     -2.775813514      -4.49753546       
                  -2.775813514      -4.49753546       0.1912000913      0.128567913       
4165004590        0.06469342554     0.05806891726     -2.601321468      4.491675406       
                  -2.601321468      4.491675406       -0.04608778735    -0.2720687939     
4250004500        -0.01041247664    -0.1082812167     5.243509565       0.08593473953     
                  5.243509565       0.08593473953     -0.2657541002     0.1758031068      
4335004410        -0.1144531683     0.01097601592     -2.53671479       -4.555808455      
                  -2.53671479       -4.555808455      0.2303691178      0.04474615992     
4420004320        0.0259769935      0.08345408899     -2.732276346      4.373109404       
                  -2.732276346      4.373109404       -0.1637565001     -0.2510781293     
4505004230        0.02409943839     -0.09045724472    5.141545296       0.2092008065      
                  5.141545296       0.2092008065      -0.1968512308     0.259076509       
4590004140        -0.1289170847     -0.02560105332    -2.288508076      -4.536670449      
                  -2.288508076      -4.536670449      0.2298475316      -0.05744056215    
4675004050        -0.009303738315   0.08759051485     -2.754310378      4.231168873       
                  -2.754310378      4.231168873       -0.2555146621     -0.1915286027     
4760003960        0.05929196463     -0.05745969669    4.96297034        0.4063846915      
                  4.96297034        0.4063846915      -0.08679783764    0.3113754875      
4845003870        -0.1185957704     -0.05491691298    -2.056657371      -4.518166934      
                  -2.056657371      -4.518166934      0.2004937838      -0.154837831      
4930003780        -0.04800783334    0.07710720819     -2.863870731      4.020347765       
                  -2.863870731      4.020347765       -0.3198489817     -0.09987990079    
5015003690        0.07218408527     -0.004692330228   4.802712275       0.6125566408      
                  4.802712275       0.6125566408      0.03540226351     0.3349522802      
5100003600        -0.102382551      -0.06341158077    -1.902486876      -4.48711713       
                  -1.902486876      -4.48711713       0.1197463011      -0.2293662097     
5185003510        -0.07953043162    0.05372613946     -2.87811355       3.77011187        
                  -2.87811355       3.77011187        -0.3500267524     0.01118146379     
5270003420        0.05491034569     0.03958837673     4.637557572       0.8156903538      
                  4.637557572       0.8156903538      0.1493643063      0.3000859803      
5355003330        -0.08903094814    -0.05474169755    -1.79810822       -4.440151468      
                  -1.79810822       -4.440151468      -0.00202295039    -0.279369397      
5440003240        -0.08208493335    0.01188709143     -2.83559356       3.586573902       
                  -2.83559356       3.586573902       -0.319829267      0.1319282911      
5525003150        0.03301865901     0.04824785933     4.572302994       0.9048585038      
                  4.572302994       0.9048585038      0.2689398678      0.2018139807      
5610003060        -0.06642252837    -0.02165259569    -1.713296171      -4.28694285       
                  -1.713296171      -4.28694285       -0.1365694549     -0.2680870305     
5695002970        -0.0455768928     0.0003955093257   -2.824980187      3.358428745       
                  -2.824980187      3.358428745       -0.2215743362     0.2528948739      
5780002880        0.02863726909     0.03601387937     4.454896871       0.9632449409      
                  4.454896871       0.9632449409      0.3297186234      0.05834539279     
5865002790        -0.08007596588    0.0214544473      -1.570725097      -4.072973008      
                  -1.570725097      -4.072973008      -0.2720973477     -0.1857940104     
5950002700        -0.01019686827    0.03139230897     -2.843726788      3.146444321       
                  -2.843726788      3.146444321       -0.08292251943    0.3332535662      
6035002610        0.023857128       -0.003777945326   4.215424861       0.894708817       
                  4.215424861       0.894708817       0.2990418942      -0.09716797871    
6120002520        -0.1247959102     0.02512155734     -1.419449277      -3.868776158      
                  -1.419449277      -3.868776158      -0.358376044      -0.04577973839    
6205002430        0.02008809029     0.09088294033     -2.764982376      2.94755271        
                  -2.764982376      2.94755271        0.1021219155      0.3379134066      
6290002340        0.08098668726     -0.04240972746    4.004549837       0.8249857999      
                  4.004549837       0.8249857999      0.195708906       -0.2480039468     
6375002250        -0.1803511912     -0.02465863808    -1.287671976      -3.663047373      
                  -1.287671976      -3.663047373      -0.3761563229     0.1294789971      
6460002160        -0.01141871211    0.1887099101      -2.608436201      2.761457283       
                  -2.608436201      2.761457283       0.2710737622      0.272597108       
6545002070        0.1734527996      -0.0134112397     3.679695684       0.8024928603      
                  3.679695684       0.8024928603      0.02916082078     -0.3203376732     
6630001980        -0.1664455806     -0.124423035      -1.128598092      -3.433490493      
                  -1.128598092      -3.433490493      -0.2990624657     0.3022731489      
6715001890        -0.09728784377    0.2462682588      -2.398748105      2.469278569       
                  -2.398748105      2.469278569       0.3841010023      0.1565569124      
6800001800        0.2464699406      0.08951456173     3.294715158       0.9057892055      
                  3.294715158       0.9057892055      -0.1313096601     -0.3089902424     
6885001710        -0.06657812616    -0.2353609163     -0.8250750381     -3.168946689      
                  -0.8250750381     -3.168946689      -0.1884312127     0.3882456353      
6970001620        -0.2190013836     0.2025260989      -2.376835481      2.103752065       
                  -2.376835481      2.103752065       0.4235831885      0.02383635686     
7055001530        0.2384848164      0.2249022817      2.993013677       1.070991476       
                  2.993013677       1.070991476       -0.2571300472     -0.2715649742     
7140001440        0.1019087004      -0.2847570057     -0.5515740317     -3.008926318      
                  -0.5515740317     -3.008926318      -0.06357738231    0.4542369512      
7225001350        -0.2934063054     0.07160937617     -2.385733845      1.815732819       
                  -2.385733845      1.815732819       0.4529659997      -0.1031598322     
7310001260        0.1498890071      0.3501809924      2.713345899       1.055417803       
                  2.713345899       1.055417803       -0.358938923      -0.1852648904     
7395001170        0.2939913263      -0.2093288661     -0.2642617233     -2.796311031      
                  -0.2642617233     -2.796311031      0.07695304969     0.4825335539      
7480001080        -0.2860326077     -0.1297936167     -2.250319562      1.540211472       
                  -2.250319562      1.540211472       0.3950901504      -0.237078085      
7565000990        -0.0498862818     0.394702624       2.478063392       1.07244159        
                  2.478063392       1.07244159        -0.4253920028     -0.08453392124    
7650000900        0.4009059249      -0.04180086807    -0.06760593712    -2.499110094      
                  -0.06760593712    -2.499110094      0.2126951073      0.4392686077      
7735000810        -0.1494248276     -0.3122768684     -2.203035843      1.300372995       
                  -2.203035843      1.300372995       0.3176401141      -0.3464273091     
7820000720        -0.2172380488     0.3087977528      2.190843018       1.185471526       
                  2.190843018       1.185471526       -0.406633602      0.02484456383     
7905000630        0.4100250653      0.1477812428      0.09057982288     -2.229055808      
                  0.09057982288     -2.229055808      0.3242094972      0.3629109908      
7990000540        0.07693612381     -0.3906090499     -2.137858245      0.8924685154      
                  -2.137858245      0.8924685154      0.2218239178      -0.4076028735     
8075000450        -0.3547314287     0.1098038556      1.841132372       1.386900936       
                  1.841132372       1.386900936       -0.388448977      0.1188361301      
8160000360        0.2904208802      0.3192353743      0.2452931769      -2.126867555      
                  0.2452931769      -2.126867555      0.3995503998      0.2802629858      
8245000270        0.2641919151      -0.3331148449     -1.988862557      0.5991374535      
                  -1.988862557      0.5991374535      0.1145263401      -0.4445310413     
8330000180        -0.3648745128     -0.1407563832     1.593082548       1.461489748       
                  1.593082548       1.461489748       -0.3434218988     0.1928816827      
8415000090        0.07128227509     0.3943543519      0.3780675705      -1.950246977      
                  0.3780675705      -1.950246977      0.4363657845      0.1677416817      
8500000000        0.3861418432      -0.1811411096     -1.798385996      0.4354449263      
                  -1.798385996      0.4354449263      -0.00419720921    -0.4609412486     
