! RsaToolbox (C) 2013 Rohde & Schwarz America
! 
! Number of points: 101
! Number of ports: 2
! Balanced ports?: 0
! 
! 
# Hz S RI R 50
9000              1.00843952        -0.03048240771    2.125857709e-05   -6.190408378e-05  
                  2.125857709e-05   -6.190408378e-05  1.021073821       -0.0403090869     
85008910          0.00271712559     0.1592896534      3.193690521       5.528346714       
                  3.193690521       5.528346714       -0.09178327607    -0.1158873514     
170008820         0.142434725       -0.04454265341    3.201220625       -5.226261105      
                  3.201220625       -5.226261105      -0.01937629037    0.1702984519      
255008730         -0.1764656799     -0.0757201932     -6.065515949      -0.1767613842     
                  -6.065515949      -0.1767613842     0.07769158532     -0.02662139948    
340008640         -0.06296444584    0.1701890899      2.653720201       5.364160395       
                  2.653720201       5.364160395       -0.1275250052     -0.05397436809    
425008550         0.160062323       -0.04628914985    3.40284946        -4.871276962      
                  3.40284946        -4.871276962      0.0176185184      0.1038902908      
510008460         -0.1019363988     -0.1636179047     -5.912759219      -0.6511879035     
                  -5.912759219      -0.6511879035     0.07008930007     -0.0800540689     
595008370         -0.1082682107     0.1403066709      2.223682149       5.435442924       
                  2.223682149       5.435442924       -0.08314447895    -0.01213745688    
680008280         0.2045732636      0.03354485569     3.675298775       -4.574963283      
                  3.675298775       -4.574963283      0.09182054879     0.07558649307     
765008190         0.009369823488    -0.1642388662     -5.737611987      -1.112321159      
                  -5.737611987      -1.112321159      0.05914238457     -0.06062129703    
850008100         -0.1818895217     0.1116050299      1.864860828       5.533287285       
                  1.864860828       5.533287285       -0.07154249834    0.06507541821     
935008010         0.1456476668      0.1235795085      3.958713419       -4.227217646      
                  3.958713419       -4.227217646      0.1018929472      0.03899751228     
1020007920        0.07560370398     -0.1541855844     -5.597147707      -1.457921102      
                  -5.597147707      -1.457921102      -0.005192151028   -0.07484508173    
1105007830        -0.2257020127     -0.008580893497   1.476125776       5.624785338       
                  1.476125776       5.624785338       -0.06308044206    0.07506692368     
1190007740        0.07213610004     0.140566303       4.20376308        -3.861380477      
                  4.20376308        -3.861380477      0.1242280008      -0.04264074108    
1275007650        0.1643535059      -0.1087922907     -5.470690156      -1.84055498       
                  -5.470690156      -1.84055498       -0.03012391155    -0.08893276214    
1360007560        -0.1638990361     -0.1006892516     1.039256197       5.65173686        
                  1.039256197       5.65173686        -0.005563969441   0.1015889552      
1445007470        0.0007555333026   0.1426272388      4.421986988       -3.540547195      
                  4.421986988       -3.540547195      0.1475508544      -0.08874004612    
1530007380        0.1851390293      -0.01164475367    -5.310420994      -2.194451132      
                  -5.310420994      -2.194451132      -0.06880231349    -0.06494526423    
1615007290        -0.09414647585    -0.1249837185     0.6127131846      5.60933662        
                  0.6127131846      5.60933662        0.02396003846     0.1423976176      
1700007200        -0.08886662798    0.09760196746     4.678435678       -3.24045676       
                  4.678435678       -3.24045676       0.111084006       -0.1334275122     
1785007110        0.1287267306      0.03225814865     -5.067162164      -2.537913569      
                  -5.067162164      -2.537913569      -0.1317606545     -0.06377315104    
1870007020        -0.02160826299    -0.1368360148     0.2177661774      5.612883962       
                  0.2177661774      5.612883962       0.06507890714     0.1318323555      
1955006930        -0.1070986248     0.02196487609     4.884036271       -2.88529052       
                  4.884036271       -2.88529052       0.08932737759     -0.193760577      
2040006840        0.08409112827     0.03966149512     -4.831467513      -2.822793185      
                  -4.831467513      -2.822793185      -0.154940435      -0.04168774275    
2125006750        0.03618159882     -0.09434347756    -0.1969838085     5.645690416       
                  -0.1969838085     5.645690416       0.1311643393      0.1373558011      
2210006660        -0.09284286665    -0.0009432872217  4.979446228       -2.532876816      
                  4.979446228       -2.532876816      0.0476061937      -0.2176275721     
2295006570        0.02992226147     0.03698681577     -4.598552162      -3.15365217       
                  -4.598552162      -3.15365217       -0.1855438298     0.0159652561      
2380006480        0.02943833645     -0.05325651581    -0.5636081888     5.583026882       
                  -0.5636081888     5.583026882       0.1670267904      0.1143568782      
2465006390        -0.08814702817    -0.01678059462    5.05966325        -2.214814163      
                  5.05966325        -2.214814163      -0.01961620531    -0.259195845      
2550006300        0.01180733699     0.002126881432    -4.28903186       -3.494776341      
                  -4.28903186       -3.494776341      -0.1909688132     0.06065851128     
2635006210        0.02629661226     -0.04509038351    -0.9071877571     5.523656678       
                  -0.9071877571     5.523656678       0.2136397658      0.06498008265     
2720006120        -0.08262895941    -0.01190372409    5.135791113       -1.83957301       
                  5.135791113       -1.83957301       -0.09066836101    -0.2643057088     
2805006030        0.0174546149      0.0005800193756   -4.005649075      -3.741319554      
                  -4.005649075      -3.741319554      -0.1637486569     0.1234034043      
2890005940        0.02215925507     -0.03678175719    -1.24107506       5.401410051       
                  -1.24107506       5.401410051       0.2314391184      0.009298911421    
2975005850        -0.09573354656    -0.008987728281   5.169080346       -1.383875593      
                  5.169080346       -1.383875593      -0.1625108609     -0.2469619854     
3060005760        0.01841350909     0.010315727       -3.707939675      -4.083391489      
                  -3.707939675      -4.083391489      -0.1194492946     0.1682341754      
3145005670        0.0378235204      -0.04524437475    -1.639493216      5.246677767       
                  -1.639493216      5.246677767       0.2314678554      -0.07219793206    
3230005580        -0.1019169432     -0.03381582959    5.275962805       -0.982083679      
                  5.275962805       -0.982083679      -0.2269777513     -0.2076386833     
3315005490        0.01053886566     0.03249813443     -3.431504691      -4.311719215      
                  -3.431504691      -4.311719215      -0.04579545543    0.2030383689      
3400005400        0.06169180656     -0.02866803252    -1.999306985      5.079600316       
                  -1.999306985      5.079600316       0.2010140313      -0.1459112561     
3485005310        -0.09715356939    -0.06371644488    5.380402966       -0.6136890424     
                  5.380402966       -0.6136890424     -0.2824349905     -0.1300001167     
3570005220        -0.02028798607    0.04854704451     -3.253818618      -4.500799008      
                  -3.253818618      -4.500799008      0.03216045548     0.2111841563      
3655005130        0.06911684675     0.004408281839    -2.195653851      4.95130349        
                  -2.195653851      4.95130349        0.1335881657      -0.2098538421     
3740005040        -0.07718462201    -0.0936435679     5.373881339       -0.2565850728     
                  5.373881339       -0.2565850728     -0.3130095271     -0.0395263897     
3825004950        -0.05910642914    0.03675167096     -2.978977482      -4.641853201      
                  -2.978977482      -4.641853201      0.1131665519      0.1763470745      
3910004860        0.06361270281     0.03865686662     -2.617222175      4.726463349       
                  -2.617222175      4.726463349       0.0493987099      -0.2594836094     
3995004770        -0.03066444887    -0.1106902876     5.405628657       0.06511038324     
                  5.405628657       0.06511038324     -0.3049541557     0.06588588613     
4080004680        -0.08482295804    0.007558629183    -2.707975465      -4.809194614      
                  -2.707975465      -4.809194614      0.1908947267      0.1285392048      
4165004590        0.03876521856     0.07078651032     -2.876295774      4.590925013       
                  -2.876295774      4.590925013       -0.04748061988    -0.2712102732     
4250004500        0.01109521915     -0.08807036992    5.492608502       0.3087655824      
                  5.492608502       0.3087655824      -0.2655768278     0.1755964732      
4335004410        -0.1014840177     -0.02067006817    -2.455110258      -4.919996104      
                  -2.455110258      -4.919996104      0.2293648628      0.04396889647     
4420004320        -0.007799561403   0.08354139088     -3.07828368       4.480493034       
                  -3.07828368       4.480493034       -0.1645673959     -0.2508581121     
4505004230        0.03741026188     -0.05659972226    5.447797879       0.4910108309      
                  5.447797879       0.4910108309      -0.1962982136     0.2592824641      
4590004140        -0.09963962744    -0.05194692472    -2.186670877      -4.959708251      
                  -2.186670877      -4.959708251      0.228928087       -0.05785707337    
4675004050        -0.04493399684    0.06987138766     -3.180338626      4.363014326       
                  -3.180338626      4.363014326       -0.2556686041     -0.1900471028     
4760003960        0.05650592257     -0.01610194991    5.296015127       0.7265713836      
                  5.296015127       0.7265713836      -0.08733636369    0.3109013087      
4845003870        -0.07608765567    -0.06833541782    -1.938743624      -5.010782235      
                  -1.938743624      -5.010782235      0.2004750608      -0.1554603502     
4930003780        -0.07609228161    0.04000588305     -3.364694306      4.182183743       
                  -3.364694306      4.182183743       -0.3193059173     -0.09923503613    
5015003690        0.04988947479     0.03829491229     5.171979042       0.9666272467      
                  5.171979042       0.9666272467      0.03558860626     0.3342969615      
5100003600        -0.05206812077    -0.05561607559    -1.765179628      -5.088265101      
                  -1.765179628      -5.088265101      0.11888129        -0.2287914475     
5185003510        -0.09116759308    0.003338081206    -3.420407888      3.96092356        
                  -3.420407888      3.96092356        -0.349001465      0.01156362446     
5270003420        0.01430776621     0.07167400282     5.038016303       1.201041397       
                  5.038016303       1.201041397       0.1498369379      0.3001368801      
5355003330        -0.04211257609    -0.02195476402    -1.653220397      -5.147768482      
                  -1.653220397      -5.147768482      -0.002651721537   -0.2784267303     
5440003240        -0.07055658935    -0.03987013449    -3.367488809      3.79327229        
                  -3.367488809      3.79327229        -0.3190850808     0.1323401116      
5525003150        -0.01881723864    0.06030850708     5.022298269       1.314221083       
                  5.022298269       1.314221083       0.26884312        0.2010202358      
5610003060        -0.03910840582    0.02862406717     -1.599772098      -4.990122844      
                  -1.599772098      -4.990122844      -0.1370555777     -0.267678197      
5695002970        -0.01298605158    -0.04363746341    -3.367076037      3.575549106       
                  -3.367076037      3.575549106       -0.2215706872     0.2523837449      
5780002880        -0.02626932593    0.02300580977     4.976729871       1.409301543       
                  4.976729871       1.409301543       0.3287864296      0.05846024126     
5865002790        -0.07745158843    0.07591489197     -1.497430122      -4.724768824      
                  -1.497430122      -4.724768824      -0.2722101014     -0.1847634037     
5950002700        0.03684335975     0.005166134861    -3.398546895      3.366186391       
                  -3.398546895      3.366186391       -0.08262635548    0.332721624       
6035002610        -0.01892051391    -0.03954169291    4.761976336       1.299176656       
                  4.761976336       1.299176656       0.2985549153      -0.09823159269    
6120002520        -0.1453729342     0.07344313232     -1.387020401      -4.468699041      
                  -1.387020401      -4.468699041      -0.3583615894     -0.04587638088    
6205002430        0.07170679864     0.08825761691     -3.287169655      3.169224649       
                  -3.287169655      3.169224649       0.1021751142      0.3371046666      
6290002340        0.06071001736     -0.0922108405     4.537905741       1.158928909       
                  4.537905741       1.158928909       0.194299057       -0.2488331346     
6375002250        -0.2165967614     0.009228396052    -1.288359448      -4.164451076      
                  -1.288359448      -4.164451076      -0.3765656858     0.1305538593      
6460002160        0.02859896256     0.2063225454      -3.023094201      2.953811578       
                  -3.023094201      2.953811578       0.2690866064      0.2715150759      
6545002070        0.1751485995      -0.05786759605    4.097135596       1.063504027       
                  4.097135596       1.063504027       0.02775544538     -0.3173435626     
6630001980        -0.2064079956     -0.1104893014     -1.124755776      -3.83250391       
                  -1.124755776      -3.83250391       -0.2980276656     0.3000521604      
6715001890        -0.07167384408    0.2717278217      -2.704510139      2.626393448       
                  -2.704510139      2.626393448       0.3797706265      0.152247715       
6800001800        0.2650755815      0.0505098164      3.620048216       1.090981487       
                  3.620048216       1.090981487       -0.1317857798     -0.3071529282     
6885001710        -0.1042875762     -0.2412237508     -0.8542783793     -3.485488859      
                  -0.8542783793     -3.485488859      -0.1845166784     0.3829591234      
6970001620        -0.205461977      0.2333305529      -2.618295003      2.242510824       
                  -2.618295003      2.242510824       0.4210240557      0.0212739211      
7055001530        0.2625602679      0.2060576433      3.219061965       1.238723686       
                  3.219061965       1.238723686       -0.2558196776     -0.2721355184     
7140001440        0.08141816775     -0.2997060467     -0.5270930471     -3.216510227      
                  -0.5270930471     -3.216510227      -0.06523321524    0.4468279483      
7225001350        -0.294942667      0.09112710207     -2.558356614      1.87789551        
                  -2.558356614      1.87789551        0.447985254       -0.1048712603     
7310001260        0.1730112323      0.3395579677      2.841068196       1.135826933       
                  2.841068196       1.135826933       -0.3519197124     -0.1853337443     
7395001170        0.2843248452      -0.2289401242     -0.2705242759     -2.946358594      
                  -0.2705242759     -2.946358594      0.08217390531     0.4773679813      
7480001080        -0.2976799957     -0.1079252793     -2.406515945      1.630476776       
                  -2.406515945      1.630476776       0.3945385867      -0.2396841572     
7565000990        -0.03087739053    0.4025072861      2.629593641       1.162561327       
                  2.629593641       1.162561327       -0.4277465923     -0.08384402926    
7650000900        0.3998982934      -0.05600299737    -0.05041201557    -2.617084561      
                  -0.05041201557    -2.617084561      0.2117369714      0.4398189129      
7735000810        -0.1614737368     -0.307429996      -2.297186248      1.343044176       
                  -2.297186248      1.343044176       0.3170987702      -0.3460065162     
7820000720        -0.2055661594     0.3175481721      2.276858821       1.23679901        
                  2.276858821       1.23679901        -0.4042459623     0.02547673926     
7905000630        0.4143462418      0.1394151446      0.09096180331     -2.302255911      
                  0.09096180331     -2.302255911      0.3249483795      0.3613007243      
7990000540        0.06628325034     -0.3909455104     -2.217715395      0.9280121861      
                  -2.217715395      0.9280121861      0.2225658003      -0.4071697473     
8075000450        -0.3496539052     0.1197027984      1.906581984       1.433556265       
                  1.906581984       1.433556265       -0.3874726006     0.1174119003      
8160000360        0.2966001629      0.3124468965      0.2489160913      -2.180817261      
                  0.2489160913      -2.180817261      0.3980064787      0.2792275607      
8245000270        0.2546222525      -0.3326981315     -2.021865735      0.616032391       
                  -2.021865735      0.616032391       0.1154309132      -0.4378005949     
8330000180        -0.360415467      -0.1283700046     1.618810372       1.480713783       
                  1.618810372       1.480713783       -0.3383739233     0.1907594517      
8415000090        0.07772578385     0.3913816353      0.3961439542      -1.983924838      
                  0.3961439542      -1.983924838      0.4367866802      0.171403212       
8500000000        0.3841201176      -0.1822380211     -1.827451508      0.4367289033      
                  -1.827451508      0.4367289033      -0.001139542859   -0.4601063639     
