! RsaToolbox (C) 2013 Rohde & Schwarz America
! 
! Number of points: 101
! Number of ports: 2
! Balanced ports?: 0
! 
! 
# Hz S RI R 50
9000              0.9980232717      -0.01348323394    7.397761592e-05   -1.672122484e-05  
                  7.397761592e-05   -1.672122484e-05  1.007184634       -0.02053834091    
85008910          -0.002696994972   0.1467576324      3.144024497       5.372946839       
                  3.144024497       5.372946839       -0.09239711821    -0.1162801339     
170008820         0.1335265263      -0.03585884081    3.125981229       -5.135275679      
                  3.125981229       -5.135275679      -0.02087850997    0.1718135545      
255008730         -0.167724774      -0.07239962238    -5.977661488      -0.1491106188     
                  -5.977661488      -0.1491106188     0.0777242914      -0.02664968559    
340008640         -0.06332494502    0.1597715441      2.628108519       5.271555072       
                  2.628108519       5.271555072       -0.1268816642     -0.05411311983    
425008550         0.1503890429      -0.04360970223    3.321468676       -4.815956494      
                  3.321468676       -4.815956494      0.01643175863     0.1029287406      
510008460         -0.09606233962    -0.156505097      -5.833240462      -0.6061214047     
                  -5.833240462      -0.6061214047     0.07086185329     -0.07981777944    
595008370         -0.1024508873     0.1310700911      2.223239376       5.339808198       
                  2.223239376       5.339808198       -0.0839797953     -0.0122897906     
680008280         0.1958208594      0.03272732092     3.586633251       -4.547125924      
                  3.586633251       -4.547125924      0.09209884165     0.07554565731     
765008190         0.01160846135     -0.1539380041     -5.659013733      -1.053843514      
                  -5.659013733      -1.053843514      0.06036451164     -0.06075005922    
850008100         -0.174944741      0.1064990511      1.897862609       5.442001881       
                  1.897862609       5.442001881       -0.07195781415    0.06494279308     
935008010         0.1379728968      0.1181702668      3.865085977       -4.208137228      
                  3.865085977       -4.208137228      0.1021589035      0.03897292435     
1020007920        0.07281736828     -0.1445983092     -5.524904786      -1.385785685      
                  -5.524904786      -1.385785685      -0.004886013908   -0.07594065635    
1105007830        -0.2170227671     -0.009216755305   1.5338466         5.524646114       
                  1.5338466         5.524646114       -0.06340284007    0.07529937636     
1190007740        0.06686663383     0.1310377831      4.105814469       -3.834787966      
                  4.105814469       -3.834787966      0.1243556172      -0.04243508153    
1275007650        0.1578295528      -0.1019393953     -5.417311253      -1.742837175      
                  -5.417311253      -1.742837175      -0.03015350914    -0.08924073428    
1360007560        -0.1549506149     -0.09650842404    1.100821973       5.553401706       
                  1.100821973       5.553401706       -0.00573627187    0.1020307631      
1445007470        0.001581034953    0.1306734949      4.305853404       -3.535119132      
                  4.305853404       -3.535119132      0.1473233509      -0.08840191034    
1530007380        0.173896904       -0.008687641903   -5.2604822        -2.0760398        
                  -5.2604822        -2.0760398        -0.06949845626    -0.06474710665    
1615007290        -0.08654001661    -0.1118568223     0.698662288       5.489850941       
                  0.698662288       5.489850941       0.02289227426     0.1424362428      
1700007200        -0.08061455353    0.08639660138     4.537243592       -3.260029425      
                  4.537243592       -3.260029425      0.1109838607      -0.1335483483     
1785007110        0.1139328805      0.02756195413     -5.013164602      -2.395502327      
                  -5.013164602      -2.395502327      -0.1322827483     -0.06428217619    
1870007020        -0.02119614609    -0.1196498413     0.3228824681      5.493484977       
                  0.3228824681      5.493484977       0.06552886799     0.1324685043      
1955006930        -0.0923209925     0.01527662153     4.724694595       -2.928284333      
                  4.724694595       -2.928284333      0.08938595281     -0.1940825091     
2040006840        0.06982552841     0.02566040739     -4.779618868      -2.652811036      
                  -4.779618868      -2.652811036      -0.155218988      -0.04186702055    
2125006750        0.02773484249     -0.07671320266    -0.06096120041    5.517497651       
                  -0.06096120041    5.517497651       0.1308672767      0.1371964453      
2210006660        -0.07218641883    0.001295479575    4.790489311       -2.595163726      
                  4.790489311       -2.595163726      0.04812214366     -0.2184582685     
2295006570        0.02357658993     0.01509988293     -4.550255502      -2.947231258      
                  -4.550255502      -2.947231258      -0.1866247502     0.01507853671     
2380006480        0.009733444518    -0.03965435842    -0.3949901508     5.434574867       
                  -0.3949901508     5.434574867       0.1668628032      0.1141615059      
2465006390        -0.06700887859    -0.00251463753    4.835495203       -2.300043705      
                  4.835495203       -2.300043705      -0.01948723598    -0.2601315008     
2550006300        0.01610094435     -0.02433577822    -4.241277368      -3.261474508      
                  -4.241277368      -3.261474508      -0.1913940842     0.0603932746      
2635006210        -0.003349389977   -0.04220921154    -0.6668684336     5.35539543        
                  -0.6668684336     5.35539543        0.2136737666      0.06426161015     
2720006120        -0.0679047144     0.01501435438     4.886774854       -1.953210316      
                  4.886774854       -1.953210316      -0.09053679035    -0.2651705477     
2805006030        0.0362236013      -0.02386906836    -3.974302049      -3.456308142      
                  -3.974302049      -3.456308142      -0.1634086561     0.1230878624      
2890005940        -0.01280150963    -0.05140568332    -0.9335747746     5.201456156       
                  -0.9335747746     5.201456156       0.2324957551      0.008987844901    
2975005850        -0.09273704398    0.02723185968     4.885692851       -1.51720731       
                  4.885692851       -1.51720731       -0.1621535553     -0.2484162989     
3060005760        0.05070044266     -0.003865182861   -3.704740694      -3.743813581      
                  -3.704740694      -3.743813581      -0.1192389217     0.1685432892      
3145005670        0.009608874036    -0.07341833179    -1.304483213      5.053693144       
                  -1.304483213      5.053693144       0.2324578461      -0.07175991629    
3230005580        -0.1160725788     0.001578976779    4.977739167       -1.147125808      
                  4.977739167       -1.147125808      -0.2268754424     -0.2087263092     
3315005490        0.05404826799     0.0361743134      -3.47460658       -3.884007052      
                  -3.47460658       -3.884007052      -0.04608387898    0.2028066316      
3400005400        0.04855591065     -0.0765068873     -1.562637575      4.871779521       
                  -1.562637575      4.871779521       0.2023218518      -0.1451567843     
3485005310        -0.1353152896     -0.03393640951    5.00619402        -0.866416512      
                  5.00619402        -0.866416512      -0.2821573817     -0.1303168166     
3570005220        0.02674720556     0.08044387396     -3.328390017      -3.940669584      
                  -3.328390017      -3.940669584      0.03365845253     0.2112264051      
3655005130        0.08043414242     -0.05562553475    -1.65857148       4.704142199       
                  -1.65857148       4.704142199       0.1357102696      -0.2086712332     
3740005040        -0.1340149964     -0.08218034235    4.92405807        -0.6067925376     
                  4.92405807        -0.6067925376     -0.312027521      -0.03987103526    
3825004950        -0.02353664552    0.1015233334      -3.094330295      -3.90076893       
                  -3.094330295      -3.90076893       0.1139388317      0.1770179988      
3910004860        0.1124423144      -0.02282733545    -1.918345817      4.461754798       
                  -1.918345817      4.461754798       0.05158088573     -0.259103891      
3995004770        -0.1056963292     -0.1333189799     4.799929796       -0.430292602      
                  4.799929796       -0.430292602      -0.3054253132     0.06536176317     
4080004680        -0.08088709311    0.0984447645      -2.826751985      -3.925572606      
                  -2.826751985      -3.925572606      0.1916164347      0.1286973761      
4165004590        0.1185976481      0.03113501063     -2.113354554      4.284318527       
                  -2.113354554      4.284318527       -0.04590008882    -0.2725082467     
4250004500        -0.05674728095    -0.1495736067     4.76546667        -0.246959548      
                  4.76546667        -0.246959548      -0.2657449001     0.1758547337      
4335004410        -0.1393240921     0.07341731251     -2.577679268      -3.939450959      
                  -2.577679268      -3.939450959      0.2307261867      0.04492962092     
4420004320        0.09135267946     0.08123223575     -2.197536213      4.128443224       
                  -2.197536213      4.128443224       -0.1636320618     -0.2513192023     
4505004230        -0.003029072218   -0.1510997465     4.612088395       -0.1379135924     
                  4.612088395       -0.1379135924     -0.1970172137     0.259310757       
4590004140        -0.1785342388     0.02303461582     -2.326568807      -3.886555815      
                  -2.326568807      -3.886555815      0.2300807688      -0.05743725578    
4675004050        0.05301522297     0.1144562265      -2.196446136      3.940262585       
                  -2.196446136      3.940262585       -0.2555953912     -0.1917710094     
4760003960        0.06045703043     -0.1261930455     4.422687369       0.0505703581      
                  4.422687369       0.0505703581      -0.08703179862    0.3115171342      
4845003870        -0.182980571      -0.03129370025    -2.082848008      -3.84741766       
                  -2.082848008      -3.84741766       0.2006481837      -0.1548305701     
4930003780        -0.003257191565   0.1298995167      -2.290708398      3.695824892       
                  -2.290708398      3.695824892       -0.3201354761     -0.1000509274     
5015003690        0.1022146137      -0.06870283677    4.253300477       0.2560980174      
                  4.253300477       0.2560980174      0.03524506929     0.3353172396      
5100003600        -0.1701830754     -0.07077731243    -1.904995617      -3.779216455      
                  -1.904995617      -3.779216455      0.1198468498      -0.2294209537     
5185003510        -0.06162019099    0.119988793       -2.323128624      3.432348993       
                  -2.323128624      3.432348993       -0.3503465417     0.01107445623     
5270003420        0.1078778477      -0.005537974837   4.088947813       0.4744299458      
                  4.088947813       0.4744299458      0.1493374305      0.3004976197      
5355003330        -0.1453346528     -0.09166016491    -1.775254604      -3.710366886      
                  -1.775254604      -3.710366886      -0.001996919265   -0.279573938      
5440003240        -0.09297214555    0.07829564416     -2.317646868      3.252895221       
                  -2.317646868      3.252895221       -0.3202734633     0.1317884556      
5525003150        0.09717235511     0.03157520972     4.003199854       0.5733013722      
                  4.003199854       0.5733013722      0.2689694325      0.202131412       
5610003060        -0.09985866812    -0.07837765407    -1.66955978       -3.595248776      
                  -1.66955978       -3.595248776      -0.13645032       -0.2683681128     
5695002970        -0.08248284353    0.05473108571     -2.324033525      3.0280706         
                  -2.324033525      3.0280706         -0.2218680352     0.2528518465      
5780002880        0.08968222474     0.05042640657     3.873354485       0.6524677585      
                  3.873354485       0.6524677585      0.3298812681      0.05861036813     
5865002790        -0.08564363356    -0.04292554175    -1.506378846      -3.448839046      
                  -1.506378846      -3.448839046      -0.2724923992     -0.1859025866     
5950002700        -0.06398537461    0.06309778345     -2.352905673      2.827078509       
                  -2.352905673      2.827078509       -0.08325962981    0.3334947551      
6035002610        0.06986827803     0.03610746313     3.654665774       0.6340092073      
                  3.654665774       0.6340092073      0.299502723       -0.09688482527    
6120002520        -0.1019825481     -0.03357408171    -1.343990227      -3.298967937      
                  -1.343990227      -3.298967937      -0.3582950729     -0.04613169277    
6205002430        -0.03954300904    0.0946094784      -2.304541076      2.652282528       
                  -2.304541076      2.652282528       0.1022054074      0.3382431633      
6290002340        0.1030660241      0.01185586459     3.47334505        0.6082459222      
                  3.47334505        0.6082459222      0.1963116852      -0.2479755132     
6375002250        -0.1376566838     -0.06694395365    -1.212959235      -3.15863243       
                  -1.212959235      -3.15863243       -0.376237121      0.1292278187      
6460002160        -0.06328485176    0.1681032897      -2.202044183      2.49429238        
                  -2.202044183      2.49429238        0.2712505422      0.2729019054      
6545002070        0.1701857751      0.04259298205     3.211982826       0.6133713337      
                  3.211982826       0.6133713337      0.02946541013     -0.320525747      
6630001980        -0.1128332737     -0.1437757767     -1.061363408      -2.98194701       
                  -1.061363408      -2.98194701       -0.2992041486     0.3023698188      
6715001890        -0.1334407569     0.2084209728      -2.05134113       2.236187581       
                  -2.05134113       2.236187581       0.3843145842      0.1568449391      
6800001800        0.2222095453      0.1344437895      2.906912654       0.7190698049      
                  2.906912654       0.7190698049      -0.1311885739     -0.309156574      
6885001710        -0.01516599767    -0.2299132048     -0.7891706008     -2.781474117      
                  -0.7891706008     -2.781474117      -0.1886626504     0.3885727412      
6970001620        -0.2344544341     0.1577071521      -2.072149586      1.92538944        
                  -2.072149586      1.92538944        0.4237759884      0.02421338155     
7055001530        0.2036393105      0.2519430941      2.686551446       0.8827327183      
                  2.686551446       0.8827327183      -0.2572558865     -0.2716571555     
7140001440        0.1361079441      -0.2634152357     -0.5539425715     -2.706882918      
                  -0.5539425715     -2.706882918      -0.06384428967    0.4546330348      
7225001350        -0.2902372284     0.03138793627     -2.121582058      1.688434007       
                  -2.121582058      1.688434007       0.4531708576      -0.1028879041     
7310001260        0.1177903779      0.3576636801      2.492285346       0.9076003581      
                  2.492285346       0.9076003581      -0.3592030879     -0.1853038988     
7395001170        0.3114159041      -0.1806272171     -0.2888177763     -2.549072566      
                  -0.2888177763     -2.549072566      0.0767530119      0.4827876452      
7480001080        -0.2669516334     -0.1611461799     -2.022870219      1.43449302        
                  -2.022870219      1.43449302        0.3952115858      -0.2369751289     
7565000990        -0.08144870523    0.3881196373      2.273655028       0.9388810086      
                  2.273655028       0.9388810086      -0.4257402067     -0.08482682178    
7650000900        0.4039767963      -0.01712243651    -0.09778761494    -2.325458905      
                  -0.09778761494    -2.325458905      0.2124513836      0.4394821771      
7735000810        -0.1297792685     -0.3246311056     -2.049351845      1.239572933       
                  -2.049351845      1.239572933       0.3178697535      -0.3464706067     
7820000720        -0.2360438127     0.2960427683      2.060486055       1.085910955       
                  2.060486055       1.085910955       -0.4069755434     0.02460885961     
7905000630        0.4050610775      0.1637430024      0.0649364238      -2.116794814      
                  0.0649364238      -2.116794814      0.3242082375      0.3633157228      
7990000540        0.09534179584     -0.3925474283     -2.010900823      0.8572733248      
                  -2.010900823      0.8572733248      0.2218999229      -0.4078643811     
8075000450        -0.3637819998     0.09349588153     1.749385342       1.300307585       
                  1.749385342       1.300307585       -0.3888698836     0.1185830594      
8160000360        0.2801010511      0.3311281493      0.217954793       -2.025162009      
                  0.217954793       -2.025162009      0.3996973935      0.2804852939      
8245000270        0.2763227617      -0.3285048076     -1.902157088      0.5879725304      
                  -1.902157088      0.5879725304      0.1145050055      -0.4447986162     
8330000180        -0.3648379138     -0.1547873208     1.533052392       1.388899477       
                  1.533052392       1.388899477       -0.3438355737     0.1932603735      
8415000090        0.05980359063     0.3991187538      0.3518451301      -1.875776433      
                  0.3518451301      -1.875776433      0.4365017029      0.1674826689      
8500000000        0.3927544724      -0.1743862851     -1.739942162      0.4315480198      
                  -1.739942162      0.4315480198      -0.004133716108   -0.4614401758     
