! RsaToolbox (C) 2013 Rohde & Schwarz America
! 
! Number of points: 101
! Number of ports: 2
! Balanced ports?: 0
! 
! 
# Hz S RI R 50
9000              0.9840378303      -0.008882603002   7.060493831e-05   -1.164386855e-05  
                  7.060493831e-05   -1.164386855e-05  0.9970631782      -0.0176034545     
85008910          -0.05524833552    0.01377861334     2.376695663       3.861987149       
                  2.376695663       3.861987149       -0.09237880778    -0.1169095417     
170008820         0.04892917058     0.0497758072      2.336404755       -4.107634185      
                  2.336404755       -4.107634185      -0.02126942991    0.1719114276      
255008730         -0.069836001      -0.04213899318    -4.74680086       0.1067668066      
                  -4.74680086       0.1067668066      0.07788210938     -0.02664449087    
340008640         -0.06972789561    0.05883419783     2.314289146       4.106763934       
                  2.314289146       4.106763934       -0.1271112619     -0.05453169631    
425008550         0.06105162953     -0.003354962813   2.476595537       -4.039493887      
                  2.476595537       -4.039493887      0.01624663391     0.103011968       
510008460         -0.02580529158    -0.09185725075    -4.715211555      -0.1999362031     
                  -4.715211555      -0.1999362031     0.07105720025     -0.08002798837    
595008370         -0.0613419664     0.03695802924     2.040451857       4.292596982       
                  2.040451857       4.292596982       -0.08427091184    -0.01246274743    
680008280         0.1047056483      0.04186527402     2.62703064        -3.861190788      
                  2.62703064        -3.861190788      0.09208554779     0.07583015703     
765008190         0.04568955345     -0.05538831246    -4.690306151      -0.6358622178     
                  -4.690306151      -0.6358622178     0.06053099253     -0.06091075061    
850008100         -0.1151801127     0.03993222366     1.856409218       4.280234469       
                  1.856409218       4.280234469       -0.07220987264    0.06484999796     
935008010         0.05375748082     0.07793285898     2.937488786       -3.663758785      
                  2.937488786       -3.663758785      0.102274686       0.03899827066     
1020007920        0.05607914564     -0.04817061768    -4.659613432      -0.8780478805     
                  -4.659613432      -0.8780478805     -0.004945198205   -0.07632454326    
1105007830        -0.1353859859     -0.03747236913    1.650782157       4.267398965       
                  1.650782157       4.267398965       -0.06371618303    0.07522577581     
1190007740        0.01965152422     0.03096836903     3.218438023       -3.405357917      
                  3.218438023       -3.405357917      0.1244087003      -0.0422643527     
1275007650        0.0955885463      -0.02184588806    -4.528270819      -1.014171783      
                  -4.528270819      -1.014171783      -0.03035199392    -0.08946646197    
1360007560        -0.05319252576    -0.05933286102    1.334994279       4.391781917       
                  1.334994279       4.391781917       -0.006081067528   0.1022212434      
1445007470        0.01687782212     0.00219855123     3.319693839       -3.216866273      
                  3.319693839       -3.216866273      0.147513166       -0.08815998851    
1530007380        0.04856207568     0.030455828       -4.320103729      -1.097573841      
                  -4.320103729      -1.097573841      -0.06977816662    -0.0649898005     
1615007290        -0.003081829733   0.01346956793     1.103775635       4.303112513       
                  1.103775635       4.303112513       0.02260996506     0.1426419635      
1700007200        0.01349004945     -0.03627123964    3.210777149       -3.070382041      
                  3.210777149       -3.070382041      0.1111883132      -0.133634535      
1785007110        -0.03731024379    -0.0196236613     -4.218968803      -1.350754493      
                  -4.218968803      -1.350754493      -0.1326624656     -0.06463074032    
1870007020        -0.01475094269    0.04482856044     0.9122971514      4.302653326       
                  0.9122971514      4.302653326       0.06525248197     0.1327223704      
1955006930        0.05729285473     -0.04162785371    3.385997634       -2.925077282      
                  3.385997634       -2.925077282      0.08964575804     -0.1943992472     
2040006840        -0.04143484321    -0.09835509968    -4.149113805      -1.550981637      
                  -4.149113805      -1.550981637      -0.1556972637     -0.04211447188    
2125006750        -0.05765451215    0.07258813791     0.7223468637      4.373481981       
                  0.7223468637      4.373481981       0.1307975628      0.1375142459      
2210006660        0.1027552899      0.02386300853     3.399682119       -2.739034835      
                  3.399682119       -2.739034835      0.04831494259     -0.2189812453     
2295006570        -0.01554171414    -0.1590568647     -4.001708384      -1.671062682      
                  -4.001708384      -1.671062682      -0.1870990514     0.01478145424     
2380006480        -0.1336421524     0.0485738042      0.4764805176      4.393943119       
                  0.4764805176      4.393943119       0.1670034619      0.1142671819      
2465006390        0.08771716984     0.1063710105      3.374702298       -2.572531296      
                  3.374702298       -2.572531296      -0.01943225676    -0.2608079272     
2550006300        0.05882560288     -0.1881924201     -3.839304759      -1.991536402      
                  -3.839304759      -1.991536402      -0.1917064775     0.06037491857     
2635006210        -0.1857587446     -0.02630285147    0.3703363556      4.227026017       
                  0.3703363556      4.227026017       0.2139392678      0.06407924764     
2720006120        0.02229119682     0.1867774729      3.424153929       -2.335448134      
                  3.424153929       -2.335448134      -0.09048565962    -0.2658609627     
2805006030        0.1585873617      -0.1584046562     -3.638884142      -1.993177166      
                  -3.638884142      -1.993177166      -0.1636184777     0.1228855176      
2890005940        -0.1874985326     -0.1244955314     0.1902452972      4.062018831       
                  0.1902452972      4.062018831       0.2330123303      0.008799328456    
2975005850        -0.08891929956    0.2163581414      3.489654327       -1.930672786      
                  3.489654327       -1.930672786      -0.1620780064     -0.2491374297     
3060005760        0.2250509806      -0.06641542829    -3.420296458      -2.194655506      
                  -3.420296458      -2.194655506      -0.1192859076     0.168442075       
3145005670        -0.1164589114     -0.2162767046     -0.1495308035     3.980205015       
                  -0.1495308035     3.980205015       0.2329217596      -0.07185052448    
3230005580        -0.1937183937     0.1675921611      3.602877575       -1.600743124      
                  3.602877575       -1.600743124      -0.2267003114     -0.2091827069     
3315005490        0.2452067959      0.05587574238     -3.186487831      -2.234663255      
                  -3.186487831      -2.234663255      -0.04592223222    0.2029005403      
3400005400        -0.007271766665   -0.2593540603     -0.3973254598     3.808537378       
                  -0.3973254598     3.808537378       0.2029698249      -0.1452575486     
3485005310        -0.279265858      0.08231979001     3.551804519       -1.363522218      
                  3.551804519       -1.363522218      -0.2818183389     -0.1308113618     
3570005220        0.1911339401      0.1774511204      -2.990210793      -2.297110038      
                  -2.990210793      -2.297110038      0.03389725225     0.2117374596      
3655005130        0.1035877788      -0.2427295669     -0.53751924       3.624247535       
                  -0.53751924       3.624247535       0.1365762522      -0.2084548713     
3740005040        -0.307025481      -0.0397237956     3.459388414       -1.124618582      
                  3.459388414       -1.124618582      -0.3116795006     -0.04026137664    
3825004950        0.08271260593     0.2535606452      -2.697738255      -2.313164644      
                  -2.697738255      -2.313164644      0.1143807608      0.1781528113      
3910004860        0.2114410012      -0.1768104731     -0.7768205872     3.415910899       
                  -0.7768205872     3.415910899       0.05290244151     -0.2587180598     
3995004770        -0.2749338453     -0.1664840834     3.321220189       -0.9077749689     
                  3.321220189       -0.9077749689     -0.3056187146     0.06557912595     
4080004680        -0.05109742152    0.2750782829      -2.413065708      -2.380244549      
                  -2.413065708      -2.380244549      0.19290018        0.1289752755      
4165004590        0.2639392632      -0.062162688      -1.005110528      3.292247367       
                  -1.005110528      3.292247367       -0.04580094603    -0.2740434984     
4250004500        -0.189288587      -0.2464415595     3.313031513       -0.6746971833     
                  3.313031513       -0.6746971833     -0.2653516538     0.1763166863      
4335004410        -0.1845672841     0.2317813871      -2.198658204      -2.494165643      
                  -2.198658204      -2.494165643      0.2317556347      0.04493066785     
4420004320        0.2537431287      0.06101997899     -1.154158446      3.140429175       
                  -1.154158446      3.140429175       -0.1635061175     -0.2519016449     
4505004230        -0.07803770442    -0.2877024763     3.214828428       -0.5133429387     
                  3.214828428       -0.5133429387     -0.1972884885     0.2596878704      
4590004140        -0.2784829907     0.1403788579      -1.956643773      -2.502095639      
                  -1.956643773      -2.502095639      0.2305470263      -0.05731910411    
4675004050        0.1970514933      0.163544487       -1.234800561      2.954238393       
                  -1.234800561      2.954238393       -0.2558565096     -0.1922079171     
4760003960        0.05194282491     -0.2758206033     3.091777787       -0.3163965388     
                  3.091777787       -0.3163965388     -0.087511287      0.3119292131      
4845003870        -0.3130849269     0.02658015363     -1.718663437      -2.517557768      
                  -1.718663437      -2.517557768      0.2010275002      -0.1547946073     
4930003780        0.09324931001     0.2320014782      -1.389254471      2.753904429       
                  -1.389254471      2.753904429       -0.3207897171     -0.1004745811     
5015003690        0.1558495394      -0.202399726      2.986244122       -0.09810465513    
                  2.986244122       -0.09810465513    0.03506769093     0.3360106203      
5100003600        -0.2982671161     -0.07920680374    -1.544533638      -2.522796484      
                  -1.544533638      -2.522796484      0.1200076777      -0.2296934953     
5185003510        -0.02326345692    0.2486591968      -1.482700598      2.530972108       
                  -1.482700598      2.530972108       -0.351150852      0.01068924581     
5270003420        0.2080182423      -0.09420904367    2.9124585         0.1410451223      
                  2.9124585         0.1410451223      0.1489460593      0.3012090955      
5355003330        -0.2474915253     -0.1548868108     -1.401765051      -2.508059341      
                  -1.401765051      -2.508059341      -0.001697439776   -0.2802030658     
5440003240        -0.1125216723     0.2083945592      -1.537291542      2.396096497       
                  -1.537291542      2.396096497       -0.3211178164     0.1315066946      
5525003150        0.2167004744      0.002077684289    2.852078605       0.2615532694      
                  2.852078605       0.2615532694      0.2690225988      0.2027926985      
5610003060        -0.1616972815     -0.1807193939     -1.293444886      -2.467261593      
                  -1.293444886      -2.467261593      -0.1360451226     -0.2691108143     
5695002970        -0.1534564095     0.1577805695      -1.582947393      2.224477433       
                  -1.582947393      2.224477433       -0.2226755496     0.2527584         
5780002880        0.1985701846      0.08065803864     2.766341572       0.3681819932      
                  2.766341572       0.3681819932      0.3303515179      0.05958970667     
5865002790        -0.0948569382     -0.1651582041     -1.137809826      -2.413517909      
                  -1.137809826      -2.413517909      -0.2714962545     -0.1869031857     
5950002700        -0.1673711808     0.1203905945      -1.630697256      2.069429674       
                  -1.630697256      2.069429674       -0.08389001459    0.3340142669      
6035002610        0.1507129481      0.112807757       2.609573918       0.4079720228      
                  2.609573918       0.4079720228      0.3005125216      -0.09577202856    
6120002520        -0.05350682833    -0.147825762      -0.9866460132     -2.339318959      
                  -0.9866460132     -2.339318959      -0.3580052249     -0.04686482922    
6205002430        -0.1564650019     0.0985197173      -1.6178181        1.941340949       
                  -1.6178181        1.941340949       0.102431273       0.33934854        
6290002340        0.140083505       0.119254854       2.48347255        0.4289409733      
                  2.48347255        0.4289409733      0.197826442       -0.2475793191     
6375002250        -0.04371627248    -0.1514130901     -0.8721410743     -2.269545039      
                  -0.8721410743     -2.269545039      -0.3763638996     0.1283544303      
6460002160        -0.17016004       0.120406134       -1.574650785      1.830031713       
                  -1.574650785      1.830031713       0.2715230609      0.273672702       
6545002070        0.156986451       0.1558369138      2.316925395       0.4477874073      
                  2.316925395       0.4477874073      0.03047159824     -0.3209649687     
6630001980        0.00467784062     -0.1790633221     -0.7577798573     -2.170566948      
                  -0.7577798573     -2.170566948      -0.2998791358     0.3023644028      
6715001890        -0.2088617643     0.1217590825      -1.498662904      1.649421438       
                  -1.498662904      1.649421438       0.3845555543      0.1576899457      
6800001800        0.1651599289      0.2276284511      2.124763275       0.525591448       
                  2.124763275       0.525591448       -0.1308508936     -0.3094621435     
6885001710        0.101510117       -0.211293302      -0.5616269033     -2.044148519      
                  -0.5616269033     -2.044148519      -0.1893792771     0.3889918396      
6970001620        -0.2654677628     0.04840720998     -1.536570794      1.428413443       
                  -1.536570794      1.428413443       0.4241683964      0.02505600267     
7055001530        0.1155122863      0.3124588794      1.979096824       0.6374246509      
                  1.979096824       0.6374246509      -0.2573902089     -0.2720512662     
7140001440        0.2283296749      -0.1988766124     -0.4119530717     -2.007825474      
                  -0.4119530717     -2.007825474      -0.06464040324    0.4551801162      
7225001350        -0.2744848749     -0.07664456803    -1.584959708      1.270434602       
                  -1.584959708      1.270434602       0.4534830953      -0.1022551885     
7310001260        0.02198826531     0.3737134334      1.884878803       0.6624619802      
                  1.884878803       0.6624619802      -0.3595574262     -0.1857588001     
7395001170        0.3596777902      -0.09039727814    -0.2283634524     -1.912760271      
                  -0.2283634524     -1.912760271      0.07611131731     0.4832403839      
7480001080        -0.2065943138     -0.2458359566     -1.526741854      1.079133855       
                  -1.526741854      1.079133855       0.3955201056      -0.2367118197     
7565000990        -0.1741100286     0.3611333146      1.711757615       0.7058949568      
                  1.711757615       0.7058949568      -0.4264841724     -0.08531422046    
7650000900        0.410692109       0.07393716295     -0.09625465094    -1.787133577      
                  -0.09625465094    -1.787133577      0.2119569339      0.4402838166      
7735000810        -0.04941209801    -0.3668851919     -1.583242404      0.9609145981      
                  -1.583242404      0.9609145981      0.3180411247      -0.3468186671     
7820000720        -0.3035039355     0.241258009       1.601067792       0.8404898604      
                  1.601067792       0.8404898604      -0.4079439275     0.0240510432      
7905000630        0.3783082038      0.2384548444      0.03368366321     -1.667002608      
                  0.03368366321     -1.667002608      0.3240376252      0.3638803356      
7990000540        0.1758574676      -0.3955913797     -1.57338067       0.665138504       
                  -1.57338067       0.665138504       0.2222025001      -0.4086734301     
8075000450        -0.3988242481     0.01854089954     1.370204848       1.033787659       
                  1.370204848       1.033787659       -0.3898231925     0.1183344835      
8160000360        0.2285842808      0.3865336219      0.1696103681      -1.609054866      
                  0.1696103681      -1.609054866      0.3998809683      0.2807693389      
8245000270        0.3392041113      -0.3028019199     -1.527015796      0.4851421769      
                  -1.527015796      0.4851421769      0.1147396125      -0.4454525503     
8330000180        -0.3619445254     -0.2272066867     1.225026117       1.107111395       
                  1.225026117       1.107111395       -0.3441459043     0.1930623002      
8415000090        -0.003792236675   0.423654438       0.2769464979      -1.514807991      
                  0.2769464979      -1.514807991      0.4370610859      0.1676358372      
8500000000        0.4334595679      -0.131867365      -1.427399503      0.3746878811      
                  -1.427399503      0.3746878811      -0.003561542547   -0.4624387725     
