! RsaToolbox (C) 2013 Rohde & Schwarz America
! 
! Number of points: 101
! Number of ports: 2
! Balanced ports?: 0
! 
! 
# Hz S RI R 50
9000              1.025620517       -0.02169798082    9.975663558e-05   -0.0001441052546  
                  9.975663558e-05   -0.0001441052546  1.025354633       -0.02321230973    
85008910          0.002364166751    0.1598765516      3.195958871       5.527858743       
                  3.195958871       5.527858743       -0.09231888448    -0.1154864627     
170008820         0.1425817554      -0.04428406997    3.199592511       -5.226390288      
                  3.199592511       -5.226390288      -0.02003325468    0.17147867        
255008730         -0.1763263269     -0.07586081689    -6.060822459      -0.1753652848     
                  -6.060822459      -0.1753652848     0.07746973062     -0.02648189071    
340008640         -0.06314058429    0.1703489053      2.653658345       5.363456407       
                  2.653658345       5.363456407       -0.1270412712     -0.05330944764    
425008550         0.1598731465      -0.04633742171    3.397917205       -4.872879038      
                  3.397917205       -4.872879038      0.01663388631     0.1030355232      
510008460         -0.1020260577     -0.1636283275     -5.913349484      -0.6522749559     
                  -5.913349484      -0.6522749559     0.07077034419     -0.07992731302    
595008370         -0.1074794305     0.1400172772      2.226517129       5.43556704        
                  2.226517129       5.43556704        -0.08380457822    -0.01208442921    
680008280         0.2046421079      0.03365404964     3.672139065       -4.579104345      
                  3.672139065       -4.579104345      0.09250455268     0.07495050521     
765008190         0.00935957884     -0.1640357093     -5.739417919      -1.108180354      
                  -5.739417919      -1.108180354      0.06030284852     -0.06022181179    
850008100         -0.1820447451     0.1117917476      1.866532885       5.532097007       
                  1.866532885       5.532097007       -0.07210712385    0.06533892525     
935008010         0.1461208084      0.1239945836      3.958619772       -4.231989405      
                  3.958619772       -4.231989405      0.1022154361      0.03922406063     
1020007920        0.07532829935     -0.1542756726     -5.594244424      -1.45386449       
                  -5.594244424      -1.45386449       -0.005410683647   -0.07516993375    
1105007830        -0.22602835       -0.00834213669    1.473647398       5.624836025       
                  1.473647398       5.624836025       -0.06260039392    0.07521563852     
1190007740        0.07134380134     0.1408477036      4.201391496       -3.858811378      
                  4.201391496       -3.858811378      0.1240386283      -0.04256086516    
1275007650        0.1644798651      -0.108954986      -5.473222287      -1.83685634       
                  -5.473222287      -1.83685634       -0.02985436265    -0.08877156776    
1360007560        -0.1639850483     -0.1001989676     1.044072692       5.64818112        
                  1.044072692       5.64818112        -0.005317521877   0.1017997773      
1445007470        0.0008674956777   0.1424594808      4.417547102       -3.542674195      
                  4.417547102       -3.542674195      0.1470041354      -0.08820956026    
1530007380        0.1850689267      -0.01159843352    -5.307437283      -2.194370289      
                  -5.307437283      -2.194370289      -0.06890466588    -0.06481692549    
1615007290        -0.09444856018    -0.1247130141     0.6144264069      5.607410056       
                  0.6144264069      5.607410056       0.02360930716     0.1418104086      
1700007200        -0.08892895519    0.09771659788     4.676198147       -3.241590103      
                  4.676198147       -3.241590103      0.1107754323      -0.1334589248     
1785007110        0.1291533345      0.03158038984     -5.067057055      -2.534243506      
                  -5.067057055      -2.534243506      -0.1315494382     -0.06447473896    
1870007020        -0.02182155905    -0.1367181134     0.2181201651      5.61428481        
                  0.2181201651      5.61428481        0.06600097336     0.132147552       
1955006930        -0.1076960356     0.02162818351     4.882719536       -2.883383893      
                  4.882719536       -2.883383893      0.08912135264     -0.1938375896     
2040006840        0.08318848656     0.03935070911     -4.830044087      -2.822044317      
                  -4.830044087      -2.822044317      -0.1543572583     -0.04131110959    
2125006750        0.03636922399     -0.09367327863    -0.1999428843     5.639412529       
                  -0.1999428843     5.639412529       0.1311603309      0.1371252192      
2210006660        -0.09294973342    -0.0006747233775  4.980532666       -2.530594726      
                  4.980532666       -2.530594726      0.0483160094      -0.2174812822     
2295006570        0.02950862843     0.03732729827     -4.5976536        -3.152320141      
                  -4.5976536        -3.152320141      -0.1858362125     0.01576050407     
2380006480        0.02941153164     -0.05291988782    -0.5608898697     5.581283679       
                  -0.5608898697     5.581283679       0.1669464524      0.1142524927      
2465006390        -0.08908903261    -0.0164672434     5.060792053       -2.211881164      
                  5.060792053       -2.211881164      -0.01966002639    -0.2591445326     
2550006300        0.01184027659     0.002071706388    -4.289799141      -3.491221698      
                  -4.289799141      -3.491221698      -0.1908080815     0.06078452504     
2635006210        0.0259471031      -0.0453333639     -0.9007827551     5.520974612       
                  -0.9007827551     5.520974612       0.2136507582      0.06420381445     
2720006120        -0.08296068328    -0.01141502744    5.134582409       -1.841234178      
                  5.134582409       -1.841234178      -0.09050587569    -0.2640420832     
2805006030        0.01718144736     0.001164328861    -4.006648951      -3.737228528      
                  -4.006648951      -3.737228528      -0.1629009778     0.1232522124      
2890005940        0.02241160116     -0.03654140454    -1.241707678      5.401726901       
                  -1.241707678      5.401726901       0.2318789134      0.008702159694    
2975005850        -0.09525151045    -0.009277091615   5.165911414       -1.385915225      
                  5.165911414       -1.385915225      -0.1623198738     -0.2475956671     
3060005760        0.01794787217     0.01070276892     -3.706174045      -4.079179924      
                  -3.706174045      -4.079179924      -0.1192622496     0.1686698335      
3145005670        0.03718214158     -0.04433404754    -1.640384437      5.245862991       
                  -1.640384437      5.245862991       0.231650705       -0.07143586491    
3230005580        -0.1022160763     -0.03322419871    5.275002775       -0.9838416188     
                  5.275002775       -0.9838416188     -0.2269977243     -0.2078639457     
3315005490        0.01046792351     0.03194286807     -3.431902761      -4.308424585      
                  -3.431902761      -4.308424585      -0.04532412172    0.2025455488      
3400005400        0.06164652602     -0.02957278992    -1.995580513      5.07741324        
                  -1.995580513      5.07741324        0.2011236674      -0.1449928048     
3485005310        -0.09754174194    -0.06439964242    5.379147627       -0.6101660842     
                  5.379147627       -0.6101660842     -0.2821567398     -0.1296430954     
3570005220        -0.02046233896    0.04890254335     -3.252459362      -4.501952577      
                  -3.252459362      -4.501952577      0.03349984801     0.2103863725      
3655005130        0.0687984146      0.004595080483    -2.195882796      4.947695562       
                  -2.195882796      4.947695562       0.1350892739      -0.2084370312     
3740005040        -0.07774934761    -0.09391117155    5.369498044       -0.2538439428     
                  5.369498044       -0.2538439428     -0.3122120579     -0.03955631455    
3825004950        -0.05927582793    0.03703573849     -2.978374694      -4.639027772      
                  -2.978374694      -4.639027772      0.1135185821      0.1763197697      
3910004860        0.06329979564     0.03798071128     -2.619312202      4.725312431       
                  -2.619312202      4.725312431       0.05017557587     -0.2590272436     
3995004770        -0.03063173057    -0.1114705183     5.404156988       0.06629996467     
                  5.404156988       0.06629996467     -0.3050494889     0.06549895886     
4080004680        -0.08437972944    0.007736356883    -2.707538662      -4.809297146      
                  -2.707538662      -4.809297146      0.1905789205      0.1282183229      
4165004590        0.03917957944     0.07070753495     -2.878425323      4.58909021        
                  -2.878425323      4.58909021        -0.04674670846    -0.2716128573     
4250004500        0.01142983373     -0.0875258935     5.493487227       0.310051863       
                  5.493487227       0.310051863       -0.2656741617     0.175634581       
4335004410        -0.1014427187     -0.02018383652    -2.452857551      -4.920470231      
                  -2.452857551      -4.920470231      0.2297078942      0.04428757426     
4420004320        -0.007741254608   0.08318318498     -3.08183539       4.479020488       
                  -3.08183539       4.479020488       -0.1638853465     -0.2502801663     
4505004230        0.03803463163     -0.05595577534    5.445189916       0.4903875984      
                  5.445189916       0.4903875984      -0.1966442464     0.2590305778      
4590004140        -0.09953536869    -0.05168955324    -2.185212068      -4.957306474      
                  -2.185212068      -4.957306474      0.2295033559      -0.05769158712    
4675004050        -0.04506039559    0.07012159505     -3.182347836      4.36109028        
                  -3.182347836      4.36109028        -0.2551447471     -0.1910272122     
4760003960        0.05687693223     -0.0157127888     5.297568106       0.7261223604      
                  5.297568106       0.7261223604      -0.08586211293    0.311364632       
4845003870        -0.07608924559    -0.06866194319    -1.937480693      -5.010052383      
                  -1.937480693      -5.010052383      0.1998851736      -0.1547936925     
4930003780        -0.07643744202    0.04001684845     -3.36466627       4.177318834       
                  -3.36466627       4.177318834       -0.3191885961     -0.09952973218    
5015003690        0.04935162642     0.03710880743     5.168563707       0.9672697548      
                  5.168563707       0.9672697548      0.03579923627     0.3345491241      
5100003600        -0.05118923752    -0.05562536009    -1.764120838      -5.082336078      
                  -1.764120838      -5.082336078      0.1201465084      -0.2289110494     
5185003510        -0.09025999121    0.003483967279    -3.419679208      3.957531488       
                  -3.419679208      3.957531488       -0.3489221404     0.01179865884     
5270003420        0.01435158701     0.07141981171     5.033817124       1.201330348       
                  5.033817124       1.201330348       0.1491354153      0.2995881163      
5355003330        -0.04206420161    -0.02206063787    -1.650710426      -5.143757484      
                  -1.650710426      -5.143757484      -0.002557632271   -0.278916332      
5440003240        -0.071470008      -0.03931901113    -3.364838413      3.791007045       
                  -3.364838413      3.791007045       -0.319464118      0.1321905711      
5525003150        -0.01896648551    0.06047911315     5.020860968       1.315020157       
                  5.020860968       1.315020157       0.2688315583      0.2010684822      
5610003060        -0.03944370792    0.02844716687     -1.596500525      -4.987172793      
                  -1.596500525      -4.987172793      -0.136581512      -0.2676196436     
5695002970        -0.01315483247    -0.04292054695    -3.365590682      3.571610395       
                  -3.365590682      3.571610395       -0.2208484435     0.2531445447      
5780002880        -0.02641882781    0.02336486929     4.972261215       1.409280292       
                  4.972261215       1.409280292       0.3295771598      0.05731014541     
5865002790        -0.07718038262    0.07653037994     -1.497080617      -4.721894895      
                  -1.497080617      -4.721894895      -0.2722127284     -0.1852910567     
5950002700        0.03676330349     0.005095818789    -3.39838212       3.366015029       
                  -3.39838212       3.366015029       -0.08259561743    0.3328240374      
6035002610        -0.01856238933    -0.03930458784    4.757825755       1.304409018       
                  4.757825755       1.304409018       0.2983921782      -0.09773389914    
6120002520        -0.1452366439     0.07396783947     -1.379859704      -4.463508581      
                  -1.379859704      -4.463508581      -0.3585159277     -0.04569631644    
6205002430        0.071783097       0.0889416462      -3.286252447      3.157729248       
                  -3.286252447      3.157729248       0.1020044194      0.3367944971      
6290002340        0.06046653384     -0.0911029224     4.531583482       1.164893889       
                  4.531583482       1.164893889       0.194802466       -0.2480842642     
6375002250        -0.2158474627     0.008421937208    -1.281022523      -4.168817138      
                  -1.281022523      -4.168817138      -0.3761343791     0.1300391466      
6460002160        0.02955607497     0.2063137651      -3.039026348      2.9576328         
                  -3.039026348      2.9576328         0.2709239281      0.2721103369      
6545002070        0.1766142318      -0.06037223449    4.126448475       1.067344976       
                  4.126448475       1.067344976       0.02828628006     -0.319689243      
6630001980        -0.2078414116     -0.1110225317     -1.13545137       -3.861408376      
                  -1.13545137       -3.861408376      -0.2989428804     0.3018787072      
6715001890        -0.07127798614    0.275665611       -2.736031744      2.643046243       
                  -2.736031744      2.643046243       0.384011323       0.1552543442      
6800001800        0.2666681056      0.05548176026     3.637340652       1.125230202       
                  3.637340652       1.125230202       -0.1318410243     -0.3087752478     
6885001710        -0.1031517703     -0.2411228088     -0.8209570598     -3.509983556      
                  -0.8209570598     -3.509983556      -0.1874316478     0.3876007227      
6970001620        -0.2097094816     0.2335722908      -2.644292645      2.230657862       
                  -2.644292645      2.230657862       0.4231709984      0.02340519466     
7055001530        0.2634538995      0.2079120747      3.230069864       1.243377634       
                  3.230069864       1.243377634       -0.2568359341     -0.271214196      
7140001440        0.08120102426     -0.2999893299     -0.543501964      -3.23543497       
                  -0.543501964      -3.23543497       -0.0632437124     0.4540642969      
7225001350        -0.2972867547     0.09668943083     -2.583446158      1.902327285       
                  -2.583446158      1.902327285       0.4526951564      -0.1036529563     
7310001260        0.1704449499      0.3474368027      2.870241806       1.162832237       
                  2.870241806       1.162832237       -0.3584704218     -0.1848375592     
7395001170        0.284744213       -0.2276870722     -0.2492677245     -2.96891651       
                  -0.2492677245     -2.96891651       0.0781465907      0.4818550686      
7480001080        -0.2988486443     -0.1107693611     -2.418360952      1.615428047       
                  -2.418360952      1.615428047       0.3947803267      -0.237086168      
7565000990        -0.03075588767    0.4003471625      2.619687722       1.164907595       
                  2.619687722       1.164907595       -0.4246231338     -0.08460457367    
7650000900        0.4012568306      -0.05737743248    -0.05627418347    -2.612444142      
                  -0.05627418347    -2.612444142      0.2139018787      0.4389237792      
7735000810        -0.1617856074     -0.3065715175     -2.298445538      1.348529272       
                  -2.298445538      1.348529272       0.3170201568      -0.346132891      
7820000720        -0.2077277995     0.3175251823      2.279918137       1.241646049       
                  2.279918137       1.241646049       -0.4062420499     0.02488031118     
7905000630        0.4140886679      0.1389426263      0.09539788696     -2.301897182      
                  0.09539788696     -2.301897182      0.3251401433      0.3623641502      
7990000540        0.0662629587      -0.3909057767     -2.216471138      0.9274646551      
                  -2.216471138      0.9274646551      0.2220586313      -0.4065488443     
8075000450        -0.3503098149     0.119712302       1.909834963       1.433290566       
                  1.909834963       1.433290566       -0.3877040906     0.1195879241      
8160000360        0.2976375736      0.3132499105      0.2501331021      -2.192547937      
                  0.2501331021      -2.192547937      0.4004684178      0.2792972424      
8245000270        0.2573978962      -0.3373432251     -2.040374021      0.6174997361      
                  -2.040374021      0.6174997361      0.113709851       -0.4441587665     
8330000180        -0.3672718676     -0.1320133734     1.639507355       1.500146725       
                  1.639507355       1.500146725       -0.3432096313     0.193494519       
8415000090        0.07862733745     0.3928184986      0.3841783206      -1.998683781      
                  0.3841783206      -1.998683781      0.4360332687      0.1663185122      
8500000000        0.3823537784      -0.186197723      -1.83164724       0.4493608459      
                  -1.83164724       0.4493608459      -0.004687472501   -0.4605324565     
