! RsaToolbox (C) 2013 Rohde & Schwarz America
! 
! Number of points: 101
! Number of ports: 2
! Balanced ports?: 0
! 
! 
# Hz S RI R 50
9000              0.9812639924      -0.007613422658   6.777151228e-05   -1.845205176e-05  
                  6.777151228e-05   -1.845205176e-05  0.9946296714      -0.01652059706    
85008910          -0.07443053711    -0.04017298132    2.121503646       3.402208176       
                  2.121503646       3.402208176       -0.09237322198    -0.117029877      
170008820         0.01635785482     0.08151494798     2.064685084       -3.715612459      
                  2.064685084       -3.715612459      -0.02126315811    0.1719642771      
255008730         -0.02559657115    -0.0247180492     -4.272202708      0.1599001341      
                  -4.272202708      0.1599001341      0.07796541106     -0.02676758424    
340008640         -0.06931765065    0.01684775034     2.158732897       3.690629343       
                  2.158732897       3.690629343       -0.1271672471     -0.05457062781    
425008550         0.02278275019     0.01265616332     2.174117738       -3.699586442      
                  2.174117738       -3.699586442      0.01618409469     0.1030325651      
510008460         0.003292078029    -0.06213639579    -4.276018373      -0.1002136826     
                  -4.276018373      -0.1002136826     0.07105446416     -0.08009096378    
595008370         -0.04502390491    0.0004439631209   1.938680413       3.875106107       
                  1.938680413       3.875106107       -0.08436364261    -0.01244642958    
680008280         0.05995443071     0.04329059796     2.282744733       -3.522682119      
                  2.282744733       -3.522682119      0.09215188941     0.07589432943     
765008190         0.05658995757     -0.01418383531    -4.264983347      -0.464711944      
                  -4.264983347      -0.464711944      0.06051217415     -0.06098616035    
850008100         -0.08185819196    0.009857474406    1.761169251       3.824141504       
                  1.761169251       3.824141504       -0.07233493107    0.06489700233     
935008010         0.01818418846     0.05534787265     2.57952913        -3.415845103      
                  2.57952913        -3.415845103      0.1023164601      0.03901632049     
1020007920        0.03533217463     0.0003668306856   -4.258024819      -0.6119194287     
                  -4.258024819      -0.6119194287     -0.00499423795    -0.07640161458    
1105007830        -0.0900067943     -0.04681922146    1.611812552       3.815115516       
                  1.611812552       3.815115516       -0.06379731972    0.07525289454     
1190007740        0.004574148671    -0.02797535392    2.764940601       -3.259160737      
                  2.764940601       -3.259160737      0.124458797       -0.04232197433    
1275007650        0.06359231426     0.01291206005     -4.166654258      -0.7583841271     
                  -4.166654258      -0.7583841271     -0.03043895211    -0.0895359161     
1360007560        -0.01001223553    -0.042910752      1.381391954       3.956294879       
                  1.381391954       3.956294879       -0.006060072215   0.1022998103      
1445007470        0.03011992461     -0.05537205497    2.85641076        -3.127690844      
                  2.85641076        -3.127690844      0.1475554893      -0.08825012967    
1530007380        0.006780565831    0.04574393614     -3.981377828      -0.827528954      
                  -3.981377828      -0.827528954      -0.06990032557    -0.0650608273     
1615007290        0.02803087585     0.05647632971     1.228354266       3.859148159       
                  1.228354266       3.859148159       0.02257679664     0.1427614251      
1700007200        0.04182271234     -0.07797866775    2.761390652       -2.970919751      
                  2.761390652       -2.970919751      0.1112416481      -0.1337395913     
1785007110        -0.0862891903     -0.03208395856    -3.928992937      -1.019941698      
                  -3.928992937      -1.019941698      -0.1328253256     -0.06464403936    
1870007020        -0.00832985942    0.09624427079     1.066657307       3.890418139       
                  1.066657307       3.890418139       0.06525244226     0.1328468509      
1955006930        0.105027292       -0.06620419164    2.898256057       -2.874651611      
                  2.898256057       -2.874651611      0.08965451604     -0.1945483078     
2040006840        -0.08267197816    -0.1395871483     -3.890812854      -1.154330348      
                  -3.890812854      -1.154330348      -0.1558500776     -0.04212007769    
2125006750        -0.07916933267    0.123687704       0.9558802906      3.940047412       
                  0.9558802906      3.940047412       0.1308891567      0.1375672143      
2210006660        0.1657772212      0.02451405711     2.865672478       -2.728263867      
                  2.865672478       -2.728263867      0.04829247076     -0.2191135026     
2295006570        -0.03433550083    -0.2183618815     -3.750991606      -1.212655763      
                  -3.750991606      -1.212655763      -0.1872279548     0.01480361369     
2380006480        -0.1823372421     0.08771758331     0.7740827113      3.927069658       
                  0.7740827113      3.927069658       0.1671031936      0.1142467112      
2465006390        0.1479749006      0.1363264367      2.824789507       -2.56807579       
                  2.824789507       -2.56807579       -0.01951122385    -0.2610108553     
2550006300        0.07197938971     -0.2532204928     -3.622263724      -1.463314614      
                  -3.622263724      -1.463314614      -0.1918327868     0.06042558728     
2635006210        -0.2381649053     -0.01182129185    0.6146908606      3.806240742       
                  0.6146908606      3.806240742       0.2141152994      0.06406940029     
2720006120        0.06006005282     0.2361448246      2.919339402       -2.350563723      
                  2.919339402       -2.350563723      -0.0905225803     -0.2661551908     
2805006030        0.1932626809      -0.2095202951     -3.416929924      -1.500761661      
                  -3.416929924      -1.500761661      -0.1637116685     0.1228720611      
2890005940        -0.2375886794     -0.1342987        0.4230010868      3.670805359       
                  0.4230010868      3.670805359       0.2333251839      0.008714548795    
2975005850        -0.08060015137    0.2731816974      3.033556572       -1.974285449      
                  3.033556572       -1.974285449      -0.1621823485     -0.2494846909     
3060005760        0.2694704015      -0.0914130417     -3.240963722      -1.773033227      
                  -3.240963722      -1.773033227      -0.1193640503     0.1684461357      
3145005670        -0.1564585077     -0.2469936842     0.09067738801     3.612790557       
                  0.09067738801     3.612790557       0.2331260443      -0.07211844274    
3230005580        -0.2100797596     0.2164426354      3.184560235       -1.653460355      
                  3.184560235       -1.653460355      -0.226935082      -0.2093343298     
3315005490        0.2908093042      0.05012282918     -3.005007178      -1.854832071      
                  -3.005007178      -1.854832071      -0.04587020291    0.2029726359      
3400005400        -0.02931927263    -0.2999090178     -0.1839102875     3.479804333       
                  -0.1839102875     3.479804333       0.2031350594      -0.1453605401     
3485005310        -0.3096264641     0.1158475776      3.165714194       -1.403224831      
                  3.165714194       -1.403224831      -0.281943581      -0.1308397548     
3570005220        0.2323255955      0.1890536376      -2.807227079      -1.947696101      
                  -2.807227079      -1.947696101      0.03404806541     0.2118296493      
3655005130        0.09994147747     -0.2849072833     -0.3483231822     3.318100284       
                  -0.3483231822     3.318100284       0.1366265888      -0.208549818      
3740005040        -0.3429041934     -0.02379999231    3.107519589       -1.160093787      
                  3.107519589       -1.160093787      -0.311711427      -0.04028109551    
3825004950        0.1111314258      0.277102098       -2.530419985      -2.016785187      
                  -2.530419985      -2.016785187      0.1146113737      0.1783843776      
3910004860        0.2248486088      -0.2119863611     -0.5980250154     3.142490193       
                  -0.5980250154     3.142490193       0.05314083355     -0.2587248276     
3995004770        -0.3097304824     -0.1666350619     3.001800055       -0.9302546422     
                  3.001800055       -0.9302546422     -0.3056876934     0.06573589477     
4080004680        -0.03604987073    0.3084783717      -2.251119573      -2.085248159      
                  -2.251119573      -2.085248159      0.1932934975      0.1289007395      
4165004590        0.2916618813      -0.08848114587    -0.8127354308     3.020487075       
                  -0.8127354308     3.020487075       -0.04594722951    -0.2746790665     
4250004500        -0.2210225447     -0.2618596786     2.984663996       -0.7004726477     
                  2.984663996       -0.7004726477     -0.265103584      0.1765749513      
4335004410        -0.1871988154     0.2631957475      -2.068043047      -2.232952801      
                  -2.068043047      -2.232952801      0.2320840635      0.04480363631     
4420004320        0.2846843846      0.05195217982     -0.9900169353     2.905316184       
                  -0.9900169353     2.905316184       -0.1636250043     -0.2520299468     
4505004230        -0.09653720202    -0.3116201934     2.929836668       -0.5330391196     
                  2.929836668       -0.5330391196     -0.1972410139     0.259824062       
4590004140        -0.2933020097     0.1657137215      -1.833460086      -2.252613438      
                  -1.833460086      -2.252613438      0.2306812972      -0.05739184441    
4675004050        0.2262898124      0.1687262335      -1.083818464      2.726832238       
                  -1.083818464      2.726832238       -0.2560206323     -0.1922466119     
4760003960        0.04612150739     -0.3040861764     2.824240306       -0.3377122602     
                  2.824240306       -0.3377122602     -0.08761457854    0.3120783489      
4845003870        -0.335771248      0.04100049689     -1.604361801      -2.279081696      
                  -1.604361801      -2.279081696      0.2011539451      -0.154830034      
4930003780        0.1137866123      0.248845736       -1.248866783      2.548830444       
                  -1.248866783      2.548830444       -0.3209771743     -0.1005342162     
5015003690        0.1625842223      -0.2290574877     2.735382654       -0.1239077184     
                  2.735382654       -0.1239077184     0.03515613064     0.3362644449      
5100003600        -0.3217898555     -0.07767572507    -1.443329929      -2.303730837      
                  -1.443329929      -2.303730837      0.1200190292      -0.2297882815     
5185003510        -0.01367888307    0.2722004585      -1.351133332      2.338585053       
                  -1.351133332      2.338585053       -0.3514039799     0.01059725156     
5270003420        0.2253309889      -0.1124876798     2.685004783       0.1135624528      
                  2.685004783       0.1135624528      0.1489544066      0.3014598721      
5355003330        -0.2677085505     -0.1641661361     -1.299524596      -2.299957103      
                  -1.299524596      -2.299957103      -0.00169341279    -0.2804110005     
5440003240        -0.1142937969     0.2334606122      -1.415015681      2.214886301       
                  -1.415015681      2.214886301       -0.3213595838     0.1315103581      
5525003150        0.23872957        -0.005244150382   2.631557817       0.2341958179      
                  2.631557817       0.2341958179      0.2691268874      0.2030264998      
5610003060        -0.1751968924     -0.1983665897     -1.196359417      -2.272168855      
                  -1.196359417      -2.272168855      -0.1359942028     -0.2693031061     
5695002970        -0.1657779762     0.178317255       -1.46393495       2.056243618       
                  -1.46393495       2.056243618       -0.2228360679     0.2527901519      
5780002880        0.2194481521      0.08482955806     2.556586966       0.3410179485      
                  2.556586966       0.3410179485      0.3304774138      0.05978192453     
5865002790        -0.09884238899    -0.189538759      -1.04149329       -2.219665972      
                  -1.04149329       -2.219665972      -0.2714324536     -0.1870826911     
5950002700        -0.1865785763     0.1323910965      -1.51214629       1.913207798       
                  -1.51214629       1.913207798       -0.08405300136    0.3341405564      
6035002610        0.1669201712      0.1265283939      2.412444362       0.3865832136      
                  2.412444362       0.3865832136      0.300682063       -0.09554314687    
6120002520        -0.04537993507    -0.170209497      -0.9017596786     -2.167039277      
                  -0.9017596786     -2.167039277      -0.3579837585     -0.04706929322    
6205002430        -0.178944656      0.100534873       -1.504457139      1.794546269       
                  -1.504457139      1.794546269       0.1024009785      0.3395383302      
6290002340        0.1481538548      0.1398095011      2.295899693       0.41160143        
                  2.295899693       0.41160143        0.1982126894      -0.2475728288     
6375002250        -0.02615398278    -0.1685036162     -0.7927438568     -2.10889499       
                  -0.7927438568     -2.10889499       -0.3764345361     0.1281199481      
6460002160        -0.1917969095     0.1117095826      -1.469640063      1.69015892        
                  -1.469640063      1.69015892        0.2715729742      0.2737551844      
6545002070        0.1551716752      0.1778037594      2.149516133       0.4323442093      
                  2.149516133       0.4323442093      0.03060581668     -0.3210548694     
6630001980        0.02780553529     -0.1867010827     -0.6861768884     -2.022722494      
                  -0.6861768884     -2.022722494      -0.3000001368     0.3023856968      
6715001890        -0.2256733389     0.1034636815      -1.398680912      1.517113055       
                  -1.398680912      1.517113055       0.3846030033      0.1577988416      
6800001800        0.1532213293      0.2482433693      1.959622646       0.5018827935      
                  1.959622646       0.5018827935      -0.1307445497     -0.309514589      
6885001710        0.1271822157      -0.2075281436     -0.4998368716     -1.896621031      
                  -0.4998368716     -1.896621031      -0.1894141953     0.3889841906      
6970001620        -0.2720599653     0.02588613011     -1.44346919       1.320795592       
                  -1.44346919       1.320795592       0.4241975081      0.02525309002     
7055001530        0.09645990108     0.3258973871      1.830432517       0.6054075669      
                  1.830432517       0.6054075669      -0.2573778233     -0.2719553342     
7140001440        0.2492575212      -0.183950057      -0.3651757539     -1.86613642       
                  -0.3651757539     -1.86613642       -0.06471313597    0.455214553       
7225001350        -0.2704864951     -0.1015504168     -1.481577189      1.167595137       
                  -1.481577189      1.167595137       0.4535081856      -0.1021186569     
7310001260        0.0007566588422   0.3770396491      1.757101761       0.6291217112      
                  1.757101761       0.6291217112      -0.3596603458     -0.1858399558     
7395001170        0.3699866398      -0.0702219704     -0.2005321096     -1.786937856      
                  -0.2005321096     -1.786937856      0.07598435681     0.4833069502      
7480001080        -0.1930003546     -0.2638893741     -1.435998076      0.9973268219      
                  -1.435998076      0.9973268219      0.3956168662      -0.2367322301     
7565000990        -0.1955905559     0.3544775367      1.588342359       0.6707805678      
                  1.588342359       0.6707805678      -0.4266570913     -0.08549718309    
7650000900        0.4115826428      0.09537337564     -0.08218563534    -1.674088161      
                  -0.08218563534    -1.674088161      0.2118533884      0.4403335698      
7735000810        -0.02856425146    -0.3761532623     -1.485650072      0.8880453266      
                  -1.485650072      0.8880453266      0.3181076524      -0.3468992799     
7820000720        -0.3188045627     0.2270614031      1.497694289       0.7984152148      
                  1.497694289       0.7984152148      -0.4080859887     0.0239759698      
7905000630        0.3702678853      0.2574851087      0.03815563535     -1.563160011      
                  0.03815563535     -1.563160011      0.3239917195      0.3639629252      
7990000540        0.1964106069      -0.3947089719     -1.479057082      0.6133642296      
                  -1.479057082      0.6133642296      0.2222276259      -0.4088248117     
8075000450        -0.40627787       -0.001533991472   1.27923938        0.980811753       
                  1.27923938        0.980811753       -0.39006642       0.1182523799      
8160000360        0.2137109416      0.4005781516      0.1685480034      -1.510210233      
                  0.1685480034      -1.510210233      0.3999798836      0.2807712075      
8245000270        0.3577591026      -0.2938330614     -1.429561196      0.4467969287      
                  -1.429561196      0.4467969287      0.1145560927      -0.4455681032     
8330000180        -0.3595249698     -0.248223491      1.13850533        1.043373616       
                  1.13850533        1.043373616       -0.3441086677     0.1931234989      
8415000090        -0.02328708909    0.4297454883      0.2681748235      -1.418123921      
                  0.2681748235      -1.418123921      0.4372271467      0.1675936685      
8500000000        0.4459361408      -0.1174693786     -1.33967785       0.34790667        
                  -1.33967785       0.34790667        -0.003550786271   -0.4627328529     
