! RsaToolbox (C) 2013 Rohde & Schwarz America
! 
! Number of points: 101
! Number of ports: 2
! Balanced ports?: 0
! 
! 
# Hz S RI R 50
9000              1.009832282       -0.01916757961    1.671205625e-05   -3.813778736e-05  
                  1.671205625e-05   -3.813778736e-05  1.019076701       -0.02539643414    
85008910          0.002206063326    0.1584996713      3.194537454       5.501570834       
                  3.194537454       5.501570834       -0.09194279315    -0.1155431786     
170008820         0.1419965543      -0.04374595818    3.184821695       -5.224790311      
                  3.184821695       -5.224790311      -0.02045729351    0.1716815912      
255008730         -0.1757177221     -0.07553656768    -6.05512207       -0.1622689753     
                  -6.05512207       -0.1622689753     0.07764165412     -0.02653665911    
340008640         -0.06341835134    0.1692910434      2.654599293       5.349836888       
                  2.654599293       5.349836888       -0.1265167722     -0.05380501161    
425008550         0.1589982052      -0.04629147344    3.384380884       -4.868985772      
                  3.384380884       -4.868985772      0.01651434946     0.1028208473      
510008460         -0.1013627386     -0.1631769821     -5.904325195      -0.6400164401     
                  -5.904325195      -0.6400164401     0.07080717909     -0.07955760853    
595008370         -0.10724746       0.1393196084      2.232256223       5.421476156       
                  2.232256223       5.421476156       -0.08368338691    -0.01218766571    
680008280         0.2038927004      0.03374317917     3.65731504        -4.577543559      
                  3.65731504        -4.577543559      0.09219447081     0.07525057702     
765008190         0.009599768283    -0.163266775      -5.729832479      -1.096953833      
                  -5.729832479      -1.096953833      0.06011640692     -0.06053141876    
850008100         -0.1814603802     0.1112653291      1.875237154       5.519081617       
                  1.875237154       5.519081617       -0.07160719948    0.06497258507     
935008010         0.1452270553      0.1233434703      3.939129774       -4.233205446      
                  3.939129774       -4.233205446      0.1021135587      0.03881605892     
1020007920        0.0754267543      -0.1534091747     -5.586864989      -1.441493119      
                  -5.586864989      -1.441493119      -0.004895939224   -0.0756518038     
1105007830        -0.2248758545     -0.008388822432   1.484788121       5.610810327       
                  1.484788121       5.610810327       -0.06293759838    0.07526196737     
1190007740        0.07116770761     0.1399366436      4.187089627       -3.862336683      
                  4.187089627       -3.862336683      0.1242273381      -0.04253895147    
1275007650        0.1638986419      -0.1083700804     -5.466930268      -1.822445196      
                  -5.466930268      -1.822445196      -0.03013871163    -0.08917555183    
1360007560        -0.1629209896     -0.1004205712     1.053572544       5.637943388       
                  1.053572544       5.637943388       -0.005514739238   0.1017974191      
1445007470        0.0003487057854   0.141385263       4.402864521       -3.544296748      
                  4.402864521       -3.544296748      0.1472333159      -0.0883773809     
1530007380        0.1840494172      -0.0110144819     -5.305193436      -2.178819456      
                  -5.305193436      -2.178819456      -0.06936442074    -0.0646561351     
1615007290        -0.09376674212    -0.1234752235     0.6262883043      5.595609483       
                  0.6262883043      5.595609483       0.02310611694     0.1422244034      
1700007200        -0.0881927373     0.09660893041     4.659471048       -3.246295018      
                  4.659471048       -3.246295018      0.1107555479      -0.1333275944     
1785007110        0.1274091868      0.03162031055     -5.062552219      -2.51835567       
                  -5.062552219      -2.51835567       -0.1318463455     -0.06413528988    
1870007020        -0.02160640457    -0.1353183515     0.2319614225      5.60157443        
                  0.2319614225      5.60157443        0.06576581725     0.1320461879      
1955006930        -0.1062762802     0.02107968439     4.866825542       -2.892819038      
                  4.866825542       -2.892819038      0.08922500757     -0.1939880324     
2040006840        0.08213753615     0.03837502843     -4.825221981      -2.803365727      
                  -4.825221981      -2.803365727      -0.1547590932     -0.04166086845    
2125006750        0.03597394514     -0.09221562605    -0.1827660038     5.629587681       
                  -0.1827660038     5.629587681       0.1310261007      0.1368142193      
2210006660        -0.09153468579    -0.0007864973121  4.961848966       -2.538648196      
                  4.961848966       -2.538648196      0.04786052        -0.2179138659     
2295006570        0.02901449979     0.03581499899     -4.593609828      -3.131502656      
                  -4.593609828      -3.131502656      -0.1862050054     0.01539811094     
2380006480        0.02814267588     -0.05188636254    -0.5461262223     5.566049092       
                  -0.5461262223     5.566049092       0.1669366018      0.1138102614      
2465006390        -0.08698492475    -0.01596080937    5.038382927       -2.220169219      
                  5.038382927       -2.220169219      -0.01967382781    -0.2595576386     
2550006300        0.01170337456     0.0001193998734   -4.285125584      -3.469374284      
                  -4.285125584      -3.469374284      -0.190853689      0.06069230086     
2635006210        0.0246028338      -0.04482299234    -0.8837794673     5.507158532       
                  -0.8837794673     5.507158532       0.2133712844      0.06420614336     
2720006120        -0.08185581862    -0.009923402746   5.111916974       -1.850276624      
                  5.111916974       -1.850276624      -0.09048792892    -0.2644945024     
2805006030        0.01818361665     -0.0009223360378  -4.000391411      -3.71561473       
                  -4.000391411      -3.71561473       -0.1630109943     0.1233119345      
2890005940        0.02019677889     -0.03703157007    -1.221438268      5.382586947       
                  -1.221438268      5.382586947       0.232139914       0.009045867832    
2975005850        -0.09458078603    -0.006996066609   5.14482843        -1.391017386      
                  5.14482843        -1.391017386      -0.1622962826     -0.2476748862     
3060005760        0.019632613       0.009166226934    -3.701287219      -4.056528262      
                  -3.701287219      -4.056528262      -0.1190189563     0.168856028       
3145005670        0.03511081856     -0.04569043187    -1.616238638      5.225815684       
                  -1.616238638      5.225815684       0.2321384421      -0.07135250994    
3230005580        -0.1020536996     -0.0317716414     5.25122494        -0.9891607292     
                  5.25122494        -0.9891607292     -0.2269126531     -0.207831609      
3315005490        0.01292024365     0.03178616306     -3.42957557       -4.281124977      
                  -3.42957557       -4.281124977      -0.04593072549    0.2028396314      
3400005400        0.06064824944     -0.03055809167    -1.969113786      5.060515992       
                  -1.969113786      5.060515992       0.2014929548      -0.1448185569     
3485005310        -0.09898801098    -0.06272222439    5.348918756       -0.6260012901     
                  5.348918756       -0.6260012901     -0.2822050539     -0.1294054581     
3570005220        -0.01871985212    0.0501254541      -3.250136226      -4.466142692      
                  -3.250136226      -4.466142692      0.03354648579     0.2110972563      
3655005130        0.06926018698     0.002017869117    -2.162428659      4.926343552       
                  -2.162428659      4.926343552       0.1346451302      -0.2087651631     
3740005040        -0.07885169748    -0.0930338896     5.337423168       -0.2725999915     
                  5.337423168       -0.2725999915     -0.3118447381     -0.0396551503     
3825004950        -0.05794954469    0.03873306998     -2.98051684       -4.593444357      
                  -2.98051684       -4.593444357      0.1133443328      0.1762768954      
3910004860        0.06527155902     0.0359066969      -2.57854091       4.704381477       
                  -2.57854091       4.704381477       0.05042961417     -0.2589841392     
3995004770        -0.03282309327    -0.1120049965     5.365212574       0.04499349935     
                  5.365212574       0.04499349935     -0.3053432609     0.06537767578     
4080004680        -0.08479118261    0.01024609029     -2.703219207      -4.763832306      
                  -2.703219207      -4.763832306      0.1906606527      0.1284583513      
4165004590        0.04159090525     0.06962518926     -2.844421819      4.56181519        
                  -2.844421819      4.56181519        -0.04633763052    -0.2716904095     
4250004500        0.009911117825    -0.08992023249    5.449949045       0.2928223495      
                  5.449949045       0.2928223495      -0.2660079479     0.1756508049      
4335004410        -0.1028152333     -0.01746502628    -2.447625028      -4.869844918      
                  -2.447625028      -4.869844918      0.2298946957      0.04448392376     
4420004320        -0.004804381577   0.08396731284     -3.036931314      4.449315955       
                  -3.036931314      4.449315955       -0.1637882596     -0.2507436586     
4505004230        0.03741058724     -0.05972684507    5.394983055       0.4666686939      
                  5.394983055       0.4666686939      -0.1967691795     0.2589700304      
4590004140        -0.102485035      -0.05036073579    -2.183850175      -4.901472421      
                  -2.183850175      -4.901472421      0.2296094936      -0.05770445685    
4675004050        -0.04240522341    0.07222769214     -3.130938196      4.328587739       
                  -3.130938196      4.328587739       -0.2552351419     -0.1913078461     
4760003960        0.05782051198     -0.01930470716    5.242504568       0.6981405413      
                  5.242504568       0.6981405413      -0.08651263874    0.3111137214      
4845003870        -0.08000274468    -0.06824912927    -1.936506128      -4.945588201      
                  -1.936506128      -4.945588201      0.2002672142      -0.1550837841     
4930003780        -0.07490982924    0.04405667552     -3.307976757      4.143212186       
                  -3.307976757      4.143212186       -0.3193588072     -0.09968246761    
5015003690        0.05222487283     0.03479426792     5.1131386         0.9373044853      
                  5.1131386         0.9373044853      0.03558140875     0.3345724776      
5100003600        -0.05557930059    -0.0578287879     -1.766159509      -5.008349874      
                  -1.766159509      -5.008349874      0.1195594452      -0.2293403701     
5185003510        -0.09098615255    0.00815164091     -3.357915075      3.918571861       
                  -3.357915075      3.918571861       -0.3496451409     0.01145301579     
5270003420        0.01810576009     0.06978700526     4.97424481        1.165541681       
                  4.97424481        1.165541681       0.1498149449      0.2997365156      
5355003330        -0.04489289856    -0.0258716841     -1.65286673       -5.059852756      
                  -1.65286673       -5.059852756      -0.002144446021   -0.2790626089     
5440003240        -0.07350615848    -0.03535336761    -3.304327731      3.750316495       
                  -3.304327731      3.750316495       -0.3194015748     0.132196121       
5525003150        -0.01432480019    0.06102234041     4.953142587       1.278666114       
                  4.953142587       1.278666114       0.2688815462      0.2014571584      
5610003060        -0.03963417045    0.02316500106     -1.596895788      -4.899611674      
                  -1.596895788      -4.899611674      -0.1367853132     -0.2677249772     
5695002970        -0.01763918693    -0.04032429912    -3.302639923      3.532462525       
                  -3.302639923      3.532462525       -0.2212753723     0.2529779926      
5780002880        -0.02224785036    0.02593887394     4.898689504       1.368136513       
                  4.898689504       1.368136513       0.3293904139      0.05805325783     
5865002790        -0.07537588696    0.07128948779     -1.490270891      -4.641491414      
                  -1.490270891      -4.641491414      -0.2722773185     -0.1854157957     
5950002700        0.03171287346     0.006004190471    -3.334729808      3.32376326        
                  -3.334729808      3.32376326        -0.08273530537    0.3329936941      
6035002610        -0.01627986925    -0.03479279845    4.68104767        1.266924873       
                  4.68104767        1.266924873       0.2985857049      -0.09744353557    
6120002520        -0.1413824282     0.06999129508     -1.368695178      -4.390824197      
                  -1.368695178      -4.390824197      -0.3584101214     -0.04553368608    
6205002430        0.06672160089     0.08695531231     -3.227644223      3.119298084       
                  -3.227644223      3.119298084       0.1019369721      0.3376472649      
6290002340        0.06071100628     -0.08587510732    4.457799675       1.137708828       
                  4.457799675       1.137708828       0.1950770653      -0.2479815259     
6375002250        -0.2108269821     0.006646287016    -1.265071522      -4.106599476      
                  -1.265071522      -4.106599476      -0.3761724186     0.1300071176      
6460002160        0.02650786433     0.2031355698      -2.993046589      2.921041275       
                  -2.993046589      2.921041275       0.2709233666      0.272366273       
6545002070        0.1743659805      -0.05558284043    4.062424641       1.04759059        
                  4.062424641       1.04759059        0.02882886837     -0.3200898935     
6630001980        -0.2026646552     -0.1106699399     -1.119186738      -3.808968857      
                  -1.119186738      -3.808968857      -0.2986975031     0.3021913502      
6715001890        -0.07313881505    0.2711168332      -2.701394484      2.607195856       
                  -2.701394484      2.607195856       0.3838325014      0.1562363414      
6800001800        0.2626661337      0.05802038611     3.589409436       1.111147588       
                  3.589409436       1.111147588       -0.1315190163     -0.3088154667     
6885001710        -0.09947215791    -0.2387266585     -0.8088792476     -3.469832682      
                  -0.8088792476     -3.469832682      -0.1880935217     0.3880471833      
6970001620        -0.2093134661     0.2301072809      -2.618379628      2.204618849       
                  -2.618379628      2.204618849       0.4232831002      0.02352567678     
7055001530        0.2599020011      0.2083838986      3.195226931       1.233054345       
                  3.195226931       1.233054345       -0.2571411541     -0.2713975065     
7140001440        0.08325187144     -0.2971424883     -0.5326532914     -3.207447173      
                  -0.5326532914     -3.207447173      -0.06329467778    0.4539230229      
7225001350        -0.2954640569     0.09378997438     -2.56403514       1.88273585        
                  -2.56403514       1.88273585        0.4527704754      -0.1034618966     
7310001260        0.1675924986      0.3466791233      2.846410172       1.157854675       
                  2.846410172       1.157854675       -0.3587629972     -0.1850333374     
7395001170        0.285421425       -0.2248914114     -0.2407653442     -2.94937332       
                  -0.2407653442     -2.94937332       0.07707910716     0.4820785565      
7480001080        -0.2969296387     -0.1125436783     -2.402874332      1.597996557       
                  -2.402874332      1.597996557       0.3949994093      -0.2372497402     
7565000990        -0.03308310198    0.398595049       2.599182915       1.161796909       
                  2.599182915       1.161796909       -0.4248826978     -0.08433494161    
7650000900        0.4001355761      -0.05481837781    -0.0496874388     -2.599304383      
                  -0.0496874388     -2.599304383      0.2130251688      0.4387350638      
7735000810        -0.1596553332     -0.3067406649     -2.290246634      1.336741          
                  -2.290246634      1.336741          0.3176534825      -0.3460501781     
7820000720        -0.2080594438     0.3156020143      2.265589876       1.240660753       
                  2.265589876       1.240660753       -0.4061917929     0.0249110723      
7905000630        0.4134571617      0.1398522905      0.100832846       -2.292952736      
                  0.100832846       -2.292952736      0.3243943979      0.3625963281      
7990000540        0.06740514169     -0.3903758555     -2.209922799      0.9169173307      
                  -2.209922799      0.9169173307      0.22194281        -0.4070767708     
8075000450        -0.3506206608     0.1185209114      1.897205724       1.433255082       
                  1.897205724       1.433255082       -0.3880933052     0.1188038369      
8160000360        0.295858254       0.3136046122      0.2557073116      -2.183915099      
                  0.2557073116      -2.183915099      0.3995034609      0.2800433345      
8245000270        0.257509932       -0.3365225627     -2.036175869      0.6100450422      
                  -2.036175869      0.6100450422      0.11449706        -0.4439964952     
8330000180        -0.3659009021     -0.1333903279     1.630609288       1.498773785       
                  1.630609288       1.498773785       -0.3432959583     0.1934543995      
8415000090        0.07794249362     0.3927510545      0.3855456886      -1.993111763      
                  0.3855456886      -1.993111763      0.4359239098      0.1672307659      
8500000000        0.3831666253      -0.1851540311     -1.829911698      0.4425159317      
                  -1.829911698      0.4425159317      -0.004421411198   -0.4603263241     
