! RsaToolbox (C) 2013 Rohde & Schwarz America
! 
! Number of points: 101
! Number of ports: 2
! Balanced ports?: 0
! 
! 
# Hz S RI R 50
9000              0.9877595849      -0.009685377695   7.25617879e-05    -1.327971812e-05  
                  7.25617879e-05    -1.327971812e-05  0.9994384587      -0.01848272909    
85008910          -0.03786375665    0.06106044028     2.615156327       4.305922348       
                  2.615156327       4.305922348       -0.09237159591    -0.1167116174     
170008820         0.07816082632     0.0204688524      2.605359398       -4.468148725      
                  2.605359398       -4.468148725      -0.02117531724    0.171855758       
255008730         -0.1091741474     -0.05658430472    -5.193903879      0.04029590287     
                  -5.193903879      0.04029590287     0.07781251437     -0.02665317682    
340008640         -0.06898581936    0.09678479838     2.447841477       4.50768471        
                  2.447841477       4.50768471        -0.1270632913     -0.05442802552    
425008550         0.09508288029     -0.01801982335    2.768174713       -4.336401509      
                  2.768174713       -4.336401509      0.01627589118     0.1029465335      
510008460         -0.05234706834    -0.1181696718     -5.123959558      -0.3104315265     
                  -5.123959558      -0.3104315265     0.07098921684     -0.07998698298    
595008370         -0.07598654651    0.07062681136     2.121220359       4.674813142       
                  2.121220359       4.674813142       -0.08420647877    -0.01241512999    
680008280         0.1442376863      0.03992276252     2.967557386       -4.164059443      
                  2.967557386       -4.164059443      0.092083719       0.07576803038     
765008190         0.03242171929     -0.09183251173    -5.071381414      -0.7891190958     
                  -5.071381414      -0.7891190958     0.06043883673     -0.06085298788    
850008100         -0.1431370088     0.06719753674     1.927341228       4.711350917       
                  1.927341228       4.711350917       -0.07214400033    0.064896865       
935008010         0.08698953625     0.094442153       3.281143943       -3.89923671       
                  3.281143943       -3.89923671       0.1022275519      0.03901136815     
1020007920        0.06364251338     -0.08653272657    -5.013745478      -1.080085141      
                  -5.013745478      -1.080085141      -0.004917908124   -0.07622659427    
1105007830        -0.1745547478     -0.02976598862    1.671365033       4.711422372       
                  1.671365033       4.711422372       -0.06362566204    0.07521302793     
1190007740        0.03583058916     0.07402424352     3.598620687       -3.561064497      
                  3.598620687       -3.561064497      0.1243231096      -0.04226570214    
1275007650        0.126041177       -0.05456534611    -4.886341893      -1.275566449      
                  -4.886341893      -1.275566449      -0.03029083177    -0.08941686851    
1360007560        -0.09788550303    -0.0785616581     1.276190865       4.842189365       
                  1.276190865       4.842189365       -0.006010067675   0.1021531721      
1445007470        0.004573195273    0.05837498176     3.756234904       -3.305471587      
                  3.756234904       -3.305471587      0.1474413415      -0.0881947783     
1530007380        0.0977339999      0.01504410949     -4.678383513      -1.415644673      
                  -4.678383513      -1.415644673      -0.0696860156     -0.06494187568    
1615007290        -0.03322832659    -0.03254317964    0.9537156737      4.734955789       
                  0.9537156737      4.734955789       0.02265435411     0.1426272125      
1700007200        -0.02089396267    0.008540389384    3.696747914       -3.144384598      
                  3.696747914       -3.144384598      0.1111380426      -0.1336068191     
1785007110        0.01499196174     -0.004177699625   -4.50526777       -1.709578447      
                  -4.50526777       -1.709578447      -0.1325668577     -0.06452448902    
1870007020        -0.01900141954    -0.0101069654     0.7248791533      4.720428743       
                  0.7248791533      4.720428743       0.06529785329     0.1326433868      
1955006930        0.008286832463    -0.02104589624    3.846092725       -2.942055918      
                  3.846092725       -2.942055918      0.08956751191     -0.1943071408     
2040006840        -0.001269684237   -0.05488315822    -4.386430819      -1.951386413      
                  -4.386430819      -1.951386413      -0.1555196214     -0.04200228262    
2125006750        -0.03131384483    0.02114286893     0.4670209799      4.786895861       
                  0.4670209799      4.786895861       0.1307920386      0.1374045489      
2210006660        0.04227988702     0.01873956223     3.898179483       -2.713477896      
                  3.898179483       -2.713477896      0.04828985155     -0.2187808554     
2295006570        -0.001395005741   -0.09909863699    -4.207027689      -2.126500753      
                  -4.207027689      -2.126500753      -0.1868996664     0.01481794788     
2380006480        -0.0891857261     0.01947679851     0.2000442271      4.749405586       
                  0.2000442271      4.749405586       0.1669420697      0.1142189776      
2465006390        0.03303234681     0.07127483746     3.895962043       -2.512530364      
                  3.895962043       -2.512530364      -0.01941117626    -0.2605826075     
2550006300        0.04297683386     -0.1343728074     -3.973448404      -2.430870627      
                  -3.973448404      -2.430870627      -0.1916552126     0.06039776676     
2635006210        -0.1331529692     -0.03451705798    0.09197877683     4.596513878       
                  0.09197877683     4.596513878       0.2138665952      0.06418280127     
2720006120        -0.008118692872   0.1345936796      3.899712369       -2.253970362      
                  3.899712369       -2.253970362      -0.09050179955    -0.2657553082     
2805006030        0.121382927       -0.1165852778     -3.770815613      -2.451476497      
                  -3.770815613      -2.451476497      -0.1636702128     0.1229581586      
2890005940        -0.1390716182     -0.1084976109     -0.08420225497    4.412588695       
                  -0.08420225497    4.412588695       0.2328735704      0.008837913649    
2975005850        -0.09093720967    0.1606690672      3.91591221        -1.837380005      
                  3.91591221        -1.837380005      -0.1621408281     -0.2490351624     
3060005760        0.1768478355      -0.04693742002    -3.545464917      -2.631650397      
                  -3.545464917      -2.631650397      -0.1193098466     0.1684495043      
3145005670        -0.08021723881    -0.179990164      -0.4297870058     4.309027937       
                  -0.4297870058     4.309027937       0.2327980039      -0.07179376246    
3230005580        -0.1734012874     0.1214198248      3.997722263       -1.512074863      
                  3.997722263       -1.512074863      -0.2267326539     -0.2090979477     
3315005490        0.1973825758      0.05518975794     -3.323185104      -2.63912404       
                  -3.323185104      -2.63912404       -0.04596395565    0.2028510342      
3400005400        0.01008576332     -0.2159888533     -0.6431557872     4.113160863       
                  -0.6431557872     4.113160863       0.2028077349      -0.1450528495     
3485005310        -0.2457697436     0.05180738631     3.92844893        -1.290656661      
                  3.92844893        -1.290656661      -0.281877797      -0.1306857802     
3570005220        0.1520250231      0.1601180022      -3.131680223      -2.65532122       
                  -3.131680223      -2.65532122       0.03374006667     0.2115656379      
3655005130        0.1022337496      -0.2002393907     -0.7514347993     3.908144202       
                  -0.7514347993     3.908144202       0.1362425159      -0.2085412289     
3740005040        -0.2692249864     -0.05205168024    3.805933127       -1.05907382       
                  3.805933127       -1.05907382       -0.3117268571     -0.04018501845    
3825004950        0.05660685387     0.2252803158      -2.840712404      -2.629268856      
                  -2.840712404      -2.629268856      0.1141882719      0.1777163737      
3910004860        0.1941028085      -0.1425013496     -0.9799317533     3.675925449       
                  -0.9799317533     3.675925449       0.05243423543     -0.2587933003     
3995004770        -0.2391832385     -0.1629864599     3.645459206       -0.8592689241     
                  3.645459206       -0.8592689241     -0.3055645129     0.06551145748     
4080004680        -0.06240760683    0.2379580274      -2.557377776      -2.70177605       
                  -2.557377776      -2.70177605       0.1925217686      0.1288955183      
4165004590        0.235545867       -0.03990706099    -1.204156602      3.533898209       
                  -1.204156602      3.533898209       -0.04574568154    -0.2735912979     
4250004500        -0.1604687573     -0.2289412962     3.624142968       -0.6294689848     
                  3.624142968       -0.6294689848     -0.2654882813     0.1761954732      
4335004410        -0.1786593528     0.1993030071      -2.316783006      -2.773656872      
                  -2.316783006      -2.773656872      0.2315096051      0.04491945864     
4420004320        0.2210816174      0.06776815735     -1.336387928      3.371872618       
                  -1.336387928      3.371872618       -0.1635601333     -0.2517787334     
4505004230        -0.06094632879    -0.2616211382     3.504784325       -0.4770992659     
                  3.504784325       -0.4770992659     -0.1972397397     0.2595985178      
4590004140        -0.2611015663     0.1155439947      -2.068468211      -2.764567431      
                  -2.068468211      -2.764567431      0.2304047244      -0.05733761881    
4675004050        0.167370673       0.1558923586      -1.401220826      3.178417762       
                  -1.401220826      3.178417762       -0.2558357516     -0.1920810807     
4760003960        0.05573231709     -0.2463375609     3.36437685        -0.2793944017     
                  3.36437685        -0.2793944017     -0.0873849427     0.3118300022      
4845003870        -0.2883446737     0.0133330699      -1.824168435      -2.770374079      
                  -1.824168435      -2.770374079      0.2009671784      -0.1547509714     
4930003780        0.07331727523     0.2133716334      -1.542123521      2.957069876       
                  -1.542123521      2.957069876       -0.3205732751     -0.100412099      
5015003690        0.1468473909      -0.1752254687     3.246559506       -0.05945587854    
                  3.246559506       -0.05945587854    0.03500184773     0.3358062712      
5100003600        -0.2736213699     -0.07911612778    -1.642182145      -2.755603521      
                  -1.642182145      -2.755603521      0.1199802904      -0.2296655567     
5185003510        -0.03191724505    0.2238319104      -1.626553729      2.724233027       
                  -1.626553729      2.724233027       -0.3509566752     0.01067909932     
5270003420        0.1893590853      -0.07620060849    3.146639861       0.1790839512      
                  3.146639861       0.1790839512      0.1488938708      0.3010388335      
5355003330        -0.2271732761     -0.144021641      -1.498566159      -2.727559944      
                  -1.498566159      -2.727559944      -0.001756404044   -0.2800425047     
5440003240        -0.1095589281     0.182788198       -1.670636246      2.577589376       
                  -1.670636246      2.577589376       -0.3208931173     0.131531734       
5525003150        0.1938409644      0.008507810702    3.078271567       0.2979301006      
                  3.078271567       0.2979301006      0.2690786495      0.2026364913      
5610003060        -0.1487592438     -0.1615701915     -1.387510052      -2.673872059      
                  -1.387510052      -2.673872059      -0.136216996      -0.2689196243     
5695002970        -0.1399904088     0.1370961959      -1.712445964      2.394420878       
                  -1.712445964      2.394420878       -0.2224849789     0.2527932738      
5780002880        0.1775137997      0.0754386915      2.981125334       0.4028594371      
                  2.981125334       0.4028594371      0.3302546553      0.05936887721     
5865002790        -0.09231216448    -0.141633309      -1.225234554      -2.602930088      
                  -1.225234554      -2.602930088      -0.2716504819     -0.1866892911     
5950002700        -0.1473327746     0.1088890044      -1.756378902      2.226675709       
                  -1.756378902      2.226675709       -0.08377773518    0.3339571281      
6035002610        0.1346703872      0.09809060831     2.812179421       0.4353958297      
                  2.812179421       0.4353958297      0.3003598216      -0.09615877528    
6120002520        -0.06258524584    -0.12495737       -1.070081822      -2.519065815      
                  -1.070081822      -2.519065815      -0.3581109881     -0.04669562379    
6205002430        -0.1331670049     0.09739317901     -1.739335137      2.091778875       
                  -1.739335137      2.091778875       0.1024124036      0.3390545348      
6290002340        0.1325704815      0.09781104132     2.677950041       0.450435605       
                  2.677950041       0.450435605       0.1975161439      -0.2478867081     
6375002250        -0.06268479483    -0.1341287959     -0.951908393      -2.438615028      
                  -0.951908393      -2.438615028      -0.3763778653     0.1285879734      
6460002160        -0.1482823161     0.1300701587      -1.686665654      1.971663754       
                  -1.686665654      1.971663754       0.2714691024      0.2734077785      
6545002070        0.1596367122      0.1326061509      2.495678558       0.4678374444      
                  2.495678558       0.4678374444      0.03023481923     -0.32090772       
6630001980        -0.01973711796    -0.1717720079     -0.8298239146     -2.328013322      
                  -0.8298239146     -2.328013322      -0.2997434847     0.302385269       
6715001890        -0.1931748255     0.1398650861      -1.599555795      1.775719135       
                  -1.599555795      1.775719135       0.3845595486      0.1575495241      
6800001800        0.1769799274      0.2084574549      2.282028446       0.5518719937      
                  2.282028446       0.5518719937      -0.1309452083     -0.3094151702     
6885001710        0.07727182494     -0.2153695703     -0.6176339426     -2.18658711       
                  -0.6176339426     -2.18658711       -0.1891872747     0.3888971081      
6970001620        -0.2590821761     0.07190449571     -1.636950946      1.538784702       
                  -1.636950946      1.538784702       0.4240685525      0.02481456783     
7055001530        0.1355582556      0.2989568903      2.134638512       0.6766085558      
                  2.134638512       0.6766085558      -0.2573723536     -0.2719348195     
7140001440        0.2071707753      -0.2143308976     -0.4558694925     -2.157673785      
                  -0.4558694925     -2.157673785      -0.06446851557    0.4549734544      
7225001350        -0.2784735015     -0.05323796834    -1.687118306      1.365784869       
                  -1.687118306      1.365784869       0.4534005188      -0.1024216948     
7310001260        0.04338975096     0.3706238037      2.01562067        0.7011695913      
                  2.01562067        0.7011695913      -0.3594313322     -0.1855886247     
7395001170        0.3492406835      -0.1110369742     -0.2528589396     -2.045353043      
                  -0.2528589396     -2.045353043      0.07623474546     0.4831770482      
7480001080        -0.2203907213     -0.2276687973     -1.623219981      1.160672069       
                  -1.623219981      1.160672069       0.3954864105      -0.2370521653     
7565000990        -0.1522206639     0.3681141002      1.840071007       0.7468064133      
                  1.840071007       0.7468064133      -0.4262727128     -0.08526777504    
7650000900        0.4097377991      0.05256573034     -0.1067647652     -1.90376388       
                  -0.1067647652     -1.90376388       0.2119775653      0.4401197691      
7735000810        -0.06900473501    -0.3578737344     -1.680850559      1.029530156       
                  -1.680850559      1.029530156       0.3178770533      -0.34668116       
7820000720        -0.2879423502     0.255301461       1.706673861       0.8872886493      
                  1.706673861       0.8872886493      -0.4077753376     0.02415479625     
7905000630        0.3859399677      0.2194570061      0.03294374694     -1.773947096      
                  0.03294374694     -1.773947096      0.3241157557      0.3638131736      
7990000540        0.1554979095      -0.3958995515     -1.672004622      0.7161768369      
                  -1.672004622      0.7161768369      0.2221401888      -0.4084795386     
8075000450        -0.3910156983     0.03792253651     1.462013642       1.090226927       
                  1.462013642       1.090226927       -0.3895986886     0.1183685659      
8160000360        0.242530672       0.3726525594      0.1738945698      -1.708861607      
                  0.1738945698      -1.708861607      0.3997937251      0.2808248587      
8245000270        0.3225038078      -0.3103027631     -1.619116946      0.5178721574      
                  -1.619116946      0.5178721574      0.1146548644      -0.4453590448     
8330000180        -0.3635883719     -0.2068951216     1.311769303       1.173321462       
                  1.311769303       1.173321462       -0.3440858011     0.1930472373      
8415000090        0.01464037082     0.4173188415      0.2898621617      -1.611458044      
                  0.2898621617      -1.611458044      0.4368770216      0.167621617       
8500000000        0.4215430022      -0.1449585714     -1.51476326       0.3971749237      
                  -1.51476326       0.3971749237      -0.003685469823   -0.462158068      
