! RsaToolbox (C) 2013 Rohde & Schwarz America
! 
! Number of points: 101
! Number of ports: 2
! Balanced ports?: 0
! 
! 
# Hz S RI R 50
9000              0.9890146337      -0.009995996207   6.96683848e-05    -1.375499785e-05  
                  6.96683848e-05    -1.375499785e-05  1.000257892       -0.01799484055    
85008910          -0.03337334024    0.07291716645     2.678855372       4.426352839       
                  2.678855372       4.426352839       -0.09224688509    -0.116642495      
170008820         0.08633535066     0.01215598833     2.683652036       -4.569110454      
                  2.683652036       -4.569110454      -0.02107899861    0.1718801859      
255008730         -0.1190880034     -0.05995662531    -5.312697771      0.01955696955     
                  -5.312697771      0.01955696955     0.07781424847     -0.02667306605    
340008640         -0.06861694797    0.106110938       2.479182469       4.61320611        
                  2.479182469       4.61320611        -0.1270731191     -0.05441129856    
425008550         0.1041468665      -0.02208332217    2.850715984       -4.41742989       
                  2.850715984       -4.41742989       0.01625613661     0.1030178969      
510008460         -0.05930429436    -0.1248567574     -5.232452565      -0.3421842921     
                  -5.232452565      -0.3421842921     0.07100284576     -0.07997212953    
595008370         -0.07990016017    0.07976910964     2.140377735       4.778494613       
                  2.140377735       4.778494613       -0.08419797742    -0.01243195769    
680008280         0.1530080042      0.03928396254     3.050145207       -4.231075026      
                  3.050145207       -4.231075026      0.0920915575      0.07578803901     
765008190         0.02918344151     -0.1003261326     -5.158125877      -0.8264663496     
                  -5.158125877      -0.8264663496     0.06046687741     -0.06082725007    
850008100         -0.1488490801     0.07322057987     1.939559118       4.8109485         
                  1.939559118       4.8109485         -0.07212682865    0.06488715587     
935008010         0.09574705732     0.09845377515     3.374509277       -3.959052739      
                  3.374509277       -3.959052739      0.1022273735      0.0390391977      
1020007920        0.06476165531     -0.09477016951    -5.090102413      -1.125626133      
                  -5.090102413      -1.125626133      -0.004912276897   -0.07620913267    
1105007830        -0.1825061656     -0.02764936363    1.672241986       4.81651008        
                  1.672241986       4.81651008        -0.06364095484    0.07519622979     
1190007740        0.04054919517     0.08293341488     3.684740655       -3.601531134      
                  3.684740655       -3.601531134      0.1243840259      -0.04233187343    
1275007650        0.1326176899      -0.06299906259    -4.982292106      -1.345623763      
                  -4.982292106      -1.345623763      -0.03028946484    -0.08939460161    
1360007560        -0.108807192      -0.08299764097    1.260215995       4.96218179        
                  1.260215995       4.96218179        -0.006009897679   0.1021125199      
1445007470        0.003083826895    0.07110289418     3.852847056       -3.339846012      
                  3.852847056       -3.339846012      0.147454264       -0.08828123444    
1530007380        0.1120278534      0.01136009565     -4.776018693      -1.507700167      
                  -4.776018693      -1.507700167      -0.06967587097    -0.06491580829    
1615007290        -0.04035544321    -0.04407599578    0.9171026103      4.835625944       
                  0.9171026103      4.835625944       0.02263419821     0.1425941228      
1700007200        -0.03105213009    0.02118507659     3.83062818        -3.162475102      
                  3.83062818        -3.162475102      0.1111323377      -0.1335613444     
1785007110        0.03000110808     0.0006024163085   -4.581691668      -1.810663783      
                  -4.581691668      -1.810663783      -0.1325027204     -0.06454449858    
1870007020        -0.01972796129    -0.02567485063    0.6726072012      4.832812786       
                  0.6726072012      4.832812786       0.06529656951     0.1326440716      
1955006930        -0.004781371489   -0.01603704433    3.962004762       -2.94439671       
                  3.962004762       -2.94439671       0.0895657878      -0.1942528714     
2040006840        0.007436574188    -0.04515922352    -4.436242434      -2.037370007      
                  -4.436242434      -2.037370007      -0.155495342      -0.04209255133    
2125006750        -0.02353833518    0.007743348554    0.397624168       4.8913294         
                  0.397624168       4.8913294         0.1307798294      0.1374452895      
2210006660        0.02762042701     0.01700398951     4.015936352       -2.703513881      
                  4.015936352       -2.703513881      0.04828817214     -0.218778483      
2295006570        0.001954793401    -0.08411165298    -4.25382532       -2.237240472      
                  -4.25382532       -2.237240472      -0.1869161818     0.01476556788     
2380006480        -0.07798735957    0.01271471468     0.1315453378      4.831367146       
                  0.1315453378      4.831367146       0.1669474014      0.1142450135      
2465006390        0.02118802799     0.06289055322     4.009142174       -2.492456379      
                  4.009142174       -2.492456379      -0.01938811962    -0.2605617883     
2550006300        0.03943676308     -0.1218028516     -4.001546884      -2.533480286      
                  -4.001546884      -2.533480286      -0.191642458      0.06032108717     
2635006210        -0.1196216928     -0.0360724393     0.01449754531     4.684673471       
                  0.01449754531     4.684673471       0.2138753429      0.06417318786     
2720006120        -0.01478238512    0.1215157145      4.012571499       -2.225020529      
                  4.012571499       -2.225020529      -0.09038888461    -0.2657562864     
2805006030        0.1121500873      -0.1068437677     -3.794820597      -2.562767665      
                  -3.794820597      -2.562767665      -0.1636462591     0.1228387466      
2890005940        -0.1267539491     -0.1037220767     -0.1613668165     4.495751978       
                  -0.1613668165     4.495751978       0.2328990762      0.008875071117    
2975005850        -0.09092947047    0.1473132983      4.016338831       -1.807926994      
                  4.016338831       -1.807926994      -0.1619727795     -0.2490784264     
3060005760        0.1649079516      -0.04270314546    -3.567545609      -2.740664548      
                  -3.567545609      -2.740664548      -0.1192914796     0.1684540605      
3145005670        -0.07160588913    -0.1705976385     -0.5041906312     4.38560984        
                  -0.5041906312     4.38560984        0.2327963017      -0.07177785381    
3230005580        -0.1681101099     0.110154158       4.093702932       -1.484041566      
                  4.093702932       -1.484041566      -0.2266805773     -0.2090841373     
3315005490        0.1849753504      0.05430548208     -3.349199744      -2.747778887      
                  -3.349199744      -2.747778887      -0.04596758786    0.2028814085      
3400005400        0.01403173857     -0.2048099314     -0.7120409197     4.184759166       
                  -0.7120409197     4.184759166       0.2028298446      -0.1451739042     
3485005310        -0.2370745644     0.0444592863      4.021082826       -1.26516538       
                  4.021082826       -1.26516538       -0.2818413207     -0.1307191414     
3570005220        0.1423215565      0.1552359232      -3.159936554      -2.74960194       
                  -3.159936554      -2.74960194       0.0337953215      0.2115326198      
3655005130        0.1014167666      -0.1896282426     -0.8111214785     3.974601482       
                  -0.8111214785     3.974601482       0.1359642992      -0.2086322858     
3740005040        -0.2594616676     -0.05481127348    3.893056782       -1.035268881      
                  3.893056782       -1.035268881      -0.3117019431     -0.04018429957    
3825004950        0.05037153653     0.2177073952      -2.870516303      -2.714194339      
                  -2.870516303      -2.714194339      0.114164968       0.1778358604      
3910004860        0.189165783       -0.133587951      -1.038960292      3.740242715       
                  -1.038960292      3.740242715       0.05248759175     -0.258751736      
3995004770        -0.2298939832     -0.1617361015     3.728468372       -0.8400164203     
                  3.728468372       -0.8400164203     -0.3055879962     0.06548662897     
4080004680        -0.06454529954    0.2287866129      -2.587811751      -2.781259429      
                  -2.587811751      -2.781259429      0.1924363085      0.1289577043      
4165004590        0.2280757001      -0.03458737386    -1.257708202      3.592677784       
                  -1.257708202      3.592677784       -0.0457137967     -0.2734130708     
4250004500        -0.1534204807     -0.224259256      3.701201861       -0.6147077791     
                  3.701201861       -0.6147077791     -0.2654954163     0.1761503515      
4335004410        -0.176761006      0.1909299631      -2.344498067      -2.847797895      
                  -2.344498067      -2.847797895      0.2314177348      0.04496452645     
4420004320        0.2126114058      0.069141505       -1.385953924      3.429423832       
                  -1.385953924      3.429423832       -0.1635001188     -0.2517446488     
4505004230        -0.0567230139     -0.2548345976     3.577618701       -0.4646265164     
                  3.577618701       -0.4646265164     -0.1972443706     0.2595546414      
4590004140        -0.2561585019     0.1093546262      -2.094534736      -2.834281332      
                  -2.094534736      -2.834281332      0.2304198291      -0.05728366065    
4675004050        0.1597277311      0.1536218891      -1.447098159      3.235046555       
                  -1.447098159      3.235046555       -0.2557722174     -0.1921183367     
4760003960        0.05648708492     -0.2387364635     3.434403131       -0.2675072027     
                  3.434403131       -0.2675072027     -0.08744733843    0.3117931799      
4845003870        -0.2816949218     0.01015945186     -1.849141608      -2.837069801      
                  -1.849141608      -2.837069801      0.200926736       -0.154761015      
4930003780        0.06830638119     0.2082949692      -1.583722928      3.008466875       
                  -1.583722928      3.008466875       -0.3205557258     -0.1004030672     
5015003690        0.1444113277      -0.1685813377     3.309687449       -0.0482281398     
                  3.309687449       -0.0482281398     0.03502580525     0.3357869266      
5100003600        -0.26720617       -0.07884618706    -1.665399911      -2.815699356      
                  -1.665399911      -2.815699356      0.1199762935      -0.2296240424     
5185003510        -0.03400056851    0.2173375531      -1.665497787      2.773281726       
                  -1.665497787      2.773281726       -0.3509433311     0.01066958642     
5270003420        0.1844083078      -0.07158327513    3.207469301       0.1912036424      
                  3.207469301       0.1912036424      0.1490923502      0.3009905224      
5355003330        -0.2220387852     -0.1410274415     -1.522155334      -2.785850526      
                  -1.522155334      -2.785850526      -0.001773068663   -0.2800740453     
5440003240        -0.1086604148     0.1761368793      -1.706877388      2.624021633       
                  -1.706877388      2.624021633       -0.3208885954     0.1315848059      
5525003150        0.1877934613      0.01007032549     3.137669889       0.3093890787      
                  3.137669889       0.3093890787      0.2689683644      0.2027529168      
5610003060        -0.1454704029     -0.1563759809     -1.411088604      -2.730075178      
                  -1.411088604      -2.730075178      -0.1361295695     -0.2688678467     
5695002970        -0.1364571579     0.1318984985      -1.746798623      2.437344956       
                  -1.746798623      2.437344956       -0.2224599122     0.2528130545      
5780002880        0.1719576495      0.07397480224     3.037655155       0.4132680641      
                  3.037655155       0.4132680641      0.3302609567      0.0592722703      
5865002790        -0.091790891      -0.1356038588     -1.246374293      -2.651774146      
                  -1.246374293      -2.651774146      -0.2716929162     -0.1866136873     
5950002700        -0.1421151365     0.1058450149      -1.790206021      2.266823459       
                  -1.790206021      2.266823459       -0.08365191633    0.3338289131      
6035002610        0.1305506268      0.09418339581     2.864829733       0.443614921       
                  2.864829733       0.443614921       0.3002642285      -0.09607336698    
6120002520        -0.06498062937    -0.1192088939     -1.090539788      -2.565193067      
                  -1.090539788      -2.565193067      -0.3581331289     -0.04664978721    
6205002430        -0.1272055423     0.09719085902     -1.771215287      2.128976641       
                  -1.771215287      2.128976641       0.1024453098      0.338977442       
6290002340        0.1305811436      0.0922686688      2.728158643       0.4562990825      
                  2.728158643       0.4562990825      0.197824539       -0.2473908468     
6375002250        -0.06760673375    -0.1297770706     -0.9718141834     -2.483100521      
                  -0.9718141834     -2.483100521      -0.3763432056     0.1285996909      
6460002160        -0.1427132911     0.1325745669      -1.716296001      2.007527639       
                  -1.716296001      2.007527639       0.2714936646      0.2734622         
6545002070        0.1603256388      0.126695711       2.541412214       0.4736565789      
                  2.541412214       0.4736565789      0.03023516816     -0.3208939353     
6630001980        -0.02584851593    -0.1699926139     -0.847684455      -2.368261974      
                  -0.847684455      -2.368261974      -0.2996809148     0.3024215049      
6715001890        -0.189183649      0.1445376815      -1.626493334      1.80763762        
                  -1.626493334      1.80763762        0.384544462       0.1574633361      
6800001800        0.1800461111      0.2035062543      2.322906253       0.5596535248      
                  2.322906253       0.5596535248      -0.130957716      -0.3093870144     
6885001710        0.07089564873     -0.2164813526     -0.6318527019     -2.224608013      
                  -0.6318527019     -2.224608013      -0.1891785389     0.3889598816      
6970001620        -0.2575479022     0.07775845131     -1.662777308      1.565679088       
                  -1.662777308      1.565679088       0.4241134854      0.02479400975     
7055001530        0.1402850515      0.295744314       2.171475774       0.6868691041      
                  2.171475774       0.6868691041      -0.2574067531     -0.2719186536     
7140001440        0.2023276597      -0.2178479165     -0.4654144449     -2.19279582       
                  -0.4654144449     -2.19279582       -0.06438467157    0.4551047153      
7225001350        -0.2794546033     -0.04712605806    -1.714745147      1.390627572       
                  -1.714745147      1.390627572       0.4533819099      -0.1024341424     
7310001260        0.04864674656     0.3698190688      2.047903493       0.7118242106      
                  2.047903493       0.7118242106      -0.3595114227     -0.1855799756     
7395001170        0.3466827444      -0.116027141      -0.2580924905     -2.078570061      
                  -0.2580924905     -2.078570061      0.07628159365     0.4831820541      
7480001080        -0.2238778519     -0.2229326957     -1.648583192      1.181298391       
                  -1.648583192      1.181298391       0.3954453682      -0.2369753695     
7565000990        -0.1471957663     0.3696943061      1.869606656       0.7571059505      
                  1.869606656       0.7571059505      -0.4262682501     -0.08517883998    
7650000900        0.4095032573      0.04729078446     -0.1087340055     -1.933328451      
                  -0.1087340055     -1.933328451      0.2120675625      0.4400527316      
7735000810        -0.07378263641    -0.3555271184     -1.706360699      1.046481697       
                  -1.706360699      1.046481697       0.3180345434      -0.3467049073     
7820000720        -0.2843007787     0.2585144629      1.731930582       0.8992532715      
                  1.731930582       0.8992532715      -0.4076818509     0.02411541817     
7905000630        0.3876604034      0.2150316135      0.03339166158     -1.799715474      
                  0.03339166158     -1.799715474      0.3240711923      0.3637905244      
7990000540        0.150410906       -0.3958720666     -1.697627221      0.7289103136      
                  -1.697627221      0.7289103136      0.2221557372      -0.4084586185     
8075000450        -0.3890259464     0.04262268364     1.484499586       1.104581328       
                  1.484499586       1.104581328       -0.3895857059     0.1183791389      
8160000360        0.2459287827      0.3691467797      0.1754967925      -1.734374749      
                  0.1754967925      -1.734374749      0.3998791102      0.2806855794      
8245000270        0.3185868996      -0.3120041595     -1.641585879      0.5250774281      
                  -1.641585879      0.5250774281      0.1147214619      -0.4453725799     
8330000180        -0.3637915241     -0.2024733563     1.329167556       1.190895845       
                  1.329167556       1.190895845       -0.3440796869     0.1931096349      
8415000090        0.01877292181     0.4157791216      0.2933052608      -1.634173979      
                  0.2933052608      -1.634173979      0.4369020878      0.1676121434      
8500000000        0.4187858699      -0.1477259098     -1.53412892       0.4016806855      
                  -1.53412892       0.4016806855      -0.003653105511   -0.4621917147     
