! RsaToolbox (C) 2013 Rohde & Schwarz America
! 
! Number of points: 101
! Number of ports: 2
! Balanced ports?: 0
! 
! 
# Hz S RI R 50
9000              0.9905917238      -0.01063301984    7.288425927e-05   -2.154920154e-05  
                  7.288425927e-05   -2.154920154e-05  1.002552165       -0.0196364252     
85008910          -0.02899302093    0.08780611972     2.766008021       4.613044116       
                  2.766008021       4.613044116       -0.09240613402    -0.1166169347     
170008820         0.09562329173     0.0031395873      2.790958856       -4.690389726      
                  2.790958856       -4.690389726      -0.02105928412    0.1718508348      
255008730         -0.1308700866     -0.06363538389    -5.477386758      -0.018402337      
                  -5.477386758      -0.018402337      0.07784994674     -0.02669190807    
340008640         -0.06764386527    0.1188094668      2.517070279       4.780024772       
                  2.517070279       4.780024772       -0.1270133804     -0.05432884222    
425008550         0.1141825771      -0.0267520123     2.965218062       -4.511680805      
                  2.965218062       -4.511680805      0.0162858864      0.10298338        
510008460         -0.06761649444    -0.1327769642     -5.378847137      -0.3995439864     
                  -5.378847137      -0.3995439864     0.07098271495     -0.0799420718     
595008370         -0.08486976853    0.09095659457     2.157201402       4.913965232       
                  2.157201402       4.913965232       -0.0842341573     -0.01244839303    
680008280         0.163903003       0.03827564963     3.173513052       -4.319601741      
                  3.173513052       -4.319601741      0.09211454293     0.0757324706      
765008190         0.02495033565     -0.1122031361     -5.278806826      -0.8841812929     
                  -5.278806826      -0.8841812929     0.060446585       -0.06085000032    
850008100         -0.1565566703     0.08142174424     1.948976241       4.96358525        
                  1.948976241       4.96358525        -0.07213883227    0.06488893873     
935008010         0.1063982338      0.1032963147      3.499707091       -4.031931436      
                  3.499707091       -4.031931436      0.1022048335      0.03898366003     
1020007920        0.06634656267     -0.1064394407     -5.198240115      -1.195218131      
                  -5.198240115      -1.195218131      -0.004959275211   -0.07617590389    
1105007830        -0.1927749067     -0.02425521913    1.666214519       4.97940374        
                  1.666214519       4.97940374        -0.06367396904    0.07523569428     
1190007740        0.04723014092     0.09479602962     3.801813234       -3.652860377      
                  3.801813234       -3.652860377      0.1243564297      -0.04229618127    
1275007650        0.1399970624      -0.07336467411    -5.104722642      -1.443169502      
                  -5.104722642      -1.443169502      -0.0302830259     -0.08933788958    
1360007560        -0.1220091827     -0.08797597023    1.231722105       5.121054693       
                  1.231722105       5.121054693       -0.005993925628   0.1021455627      
1445007470        0.001816434193    0.0866120956      3.977968978       -3.377371859      
                  3.977968978       -3.377371859      0.147426011       -0.0883019353     
1530007380        0.1310142938      0.006650065264    -4.911203487      -1.64151082       
                  -4.911203487      -1.64151082       -0.06967047021    -0.06488816575    
1615007290        -0.05089574612    -0.06145561785    0.8583945213      4.990357211       
                  0.8583945213      4.990357211       0.02273937346     0.142557527       
1700007200        -0.04587013715    0.03856751658     4.018616401       -3.183112896      
                  4.018616401       -3.183112896      0.1110905932      -0.1335518433     
1785007110        0.05148837718     0.008244384824    -4.68780756       -1.960961293      
                  -4.68780756       -1.960961293      -0.1325177513     -0.06446547556    
1870007020        -0.0198834379     -0.04941541681    0.5820238212      4.998496477       
                  0.5820238212      4.998496477       0.06536355209     0.1326451275      
1955006930        -0.02634474713    -0.00875382638    4.148585701       -2.940608777      
                  4.148585701       -2.940608777      0.08951023805     -0.1942098434     
2040006840        0.02093645382     -0.02902111681    -4.510431742      -2.177674028      
                  -4.510431742      -2.177674028      -0.1554069696     -0.04193529682    
2125006750        -0.01084658779    -0.01285692862    0.2857064082      5.047788695       
                  0.2857064082      5.047788695       0.130801592       0.1373891617      
2210006660        0.004775784977    0.01338873032     4.196220685       -2.681717599      
                  4.196220685       -2.681717599      0.04821381364     -0.218731684      
2295006570        0.006489215894    -0.06194922333    -4.321178922      -2.39753636       
                  -4.321178922      -2.39753636       -0.1868740569     0.01487418018     
2380006480        -0.06080872743    0.002048972174    0.03184471423     4.956012507       
                  0.03184471423     4.956012507       0.1668932648      0.1142526408      
2465006390        0.003044182622    0.05044459382     4.177941745       -2.465531779      
                  4.177941745       -2.465531779      -0.01940907511    -0.2604932579     
2550006300        0.03476234453     -0.1032909003     -4.04417892       -2.679387502      
                  -4.04417892       -2.679387502      -0.191639629      0.06032830685     
2635006210        -0.09921273743    -0.03763709886    -0.105373323      4.812809509       
                  -0.105373323      4.812809509       0.2138319068      0.06419452648     
2720006120        -0.02508062894    0.09998681355     4.194075532       -2.172974344      
                  4.194075532       -2.172974344      -0.09054147339    -0.2656595647     
2805006030        0.09681270744     -0.09136825574    -3.832655951      -2.742067025      
                  -3.832655951      -2.742067025      -0.1636335731     0.1229523906      
2890005940        -0.1067661753     -0.09517971578    -0.2874607333     4.631389084       
                  -0.2874607333     4.631389084       0.2328128073      0.008869435179    
2975005850        -0.09142610255    0.1260108591      4.175531436       -1.767606568      
                  4.175531436       -1.767606568      -0.1621287243     -0.2489784519     
3060005760        0.1464338691      -0.03581873841    -3.606579457      -2.903862061      
                  -3.606579457      -2.903862061      -0.1192987573     0.1683830722      
3145005670        -0.05722845649    -0.1554000268     -0.6259980771     4.512084658       
                  -0.6259980771     4.512084658       0.2324709617      -0.07185935842    
3230005580        -0.1601197972     0.09234469675     4.242968828       -1.441958721      
                  4.242968828       -1.441958721      -0.2266922358     -0.209081568      
3315005490        0.165337196       0.05262293559     -3.386867067      -2.9175498        
                  -3.386867067      -2.9175498        -0.04602893969    0.2028013125      
3400005400        0.01980963652     -0.1859681292     -0.8309020534     4.299312448       
                  -0.8309020534     4.299312448       0.2027830046      -0.1450773124     
3485005310        -0.221475344      0.03270949074     4.176864926       -1.214702981      
                  4.176864926       -1.214702981      -0.2819534174     -0.1306787715     
3570005220        0.1259582722      0.1456561514      -3.205455296      -2.912303827      
                  -3.205455296      -2.912303827      0.03379304484     0.2114657929      
3655005130        0.09984086942     -0.1714122079     -0.9107254373     4.089745183       
                  -0.9107254373     4.089745183       0.1361937331      -0.2086352457     
3740005040        -0.2431507304     -0.05942958267    4.037808472       -0.9990449979     
                  4.037808472       -0.9990449979     -0.3117723744     -0.04018387339    
3825004950        0.03962755402     0.2040190247      -2.922758688      -2.860168072      
                  -2.922758688      -2.860168072      0.1141553652      0.1776046239      
3910004860        0.1805379922      -0.1186881008     -1.138020264      3.847854723       
                  -1.138020264      3.847854723       0.05236370127     -0.2588507416     
3995004770        -0.2141956244     -0.159047413      3.869066868       -0.8064685929     
                  3.869066868       -0.8064685929     -0.3055749268     0.06541505183     
4080004680        -0.06765525647    0.2132897222      -2.633761072      -2.916252459      
                  -2.633761072      -2.916252459      0.1923814343      0.1288968317      
4165004590        0.215235491       -0.02601677805    -1.351273584      3.690578782       
                  -1.351273584      3.690578782       -0.04572790524    -0.2733284834     
4250004500        -0.1414343514     -0.2161450446     3.832740856       -0.5878769874     
                  3.832740856       -0.5878769874     -0.2655513185     0.1761554806      
4335004410        -0.1733157866     0.1768697977      -2.388608561      -2.97232204       
                  -2.388608561      -2.97232204       0.2313536558      0.04496319298     
4420004320        0.1985009686      0.07143178962     -1.470965692      3.522949167       
                  -1.470965692      3.522949167       -0.1635060303     -0.2516692202     
4505004230        -0.04992120981    -0.2428858743     3.704525896       -0.4398743546     
                  3.704525896       -0.4398743546     -0.1972046582     0.259493838       
4590004140        -0.2473326031     0.09845073917     -2.137312065      -2.958354457      
                  -2.137312065      -2.958354457      0.2303621304      -0.05728802258    
4675004050        0.1470882072      0.1496300263      -1.524920226      3.326752493       
                  -1.524920226      3.326752493       -0.255771176      -0.1920960243     
4760003960        0.05754161191     -0.2253747075     3.556070831       -0.2428873528     
                  3.556070831       -0.2428873528     -0.08738156606    0.3117985184      
4845003870        -0.2702357731     0.004808737039    -1.889940731      -2.953636588      
                  -1.889940731      -2.953636588      0.2009207886      -0.1547755323     
4930003780        0.05946731042     0.1993373999      -1.658968908      3.098608742       
                  -1.658968908      3.098608742       -0.320493339      -0.1003330417     
5015003690        0.1398016009      -0.1563982911     3.427159139       -0.02386881265    
                  3.427159139       -0.02386881265    0.03501495885     0.3356832982      
5100003600        -0.2560722564     -0.07829346328    -1.704211292      -2.923178381      
                  -1.704211292      -2.923178381      0.1199483715      -0.2295928314     
5185003510        -0.03743510828    0.2060331042      -1.734180443      2.856919681       
                  -1.734180443      2.856919681       -0.3508904247     0.0108001167      
5270003420        0.1757342873      -0.06384658255    3.312254969       0.2133968492      
                  3.312254969       0.2133968492      0.1490399867      0.3009387072      
5355003330        -0.213226696      -0.1357858626     -1.560531051      -2.885684976      
                  -1.560531051      -2.885684976      -0.001839157816   -0.2799776062     
5440003240        -0.1070290272     0.1648331251      -1.769819513      2.702285654       
                  -1.769819513      2.702285654       -0.3208311561     0.1316502121      
5525003150        0.177276738       0.01273632235     3.240407107       0.3306342149      
                  3.240407107       0.3306342149      0.2689293577      0.2027099993      
5610003060        -0.1400721124     -0.1476381679     -1.449206121      -2.824130958      
                  -1.449206121      -2.824130958      -0.1362084428     -0.268807738      
5695002970        -0.1303822624     0.1230585189      -1.806115353      2.509086272       
                  -1.806115353      2.509086272       -0.2223678093     0.2528233396      
5780002880        0.1625067876      0.07133932748     3.134714365       0.4329358523      
                  3.134714365       0.4329358523      0.3302201771      0.05918480489     
5865002790        -0.09088092985    -0.1244203737     -1.284591078      -2.743726302      
                  -1.284591078      -2.743726302      -0.2717065387     -0.1865694213     
5950002700        -0.1331108168     0.1009072595      -1.84882456       2.335233767       
                  -1.84882456       2.335233767       -0.08355412137    0.333811879       
6035002610        0.1236166246      0.08748833019     2.956084059       0.4590099078      
                  2.956084059       0.4590099078      0.3002338654      -0.09631403413    
6120002520        -0.06925888482    -0.1094028565     -1.124351456      -2.644790204      
                  -1.124351456      -2.644790204      -0.3580694683     -0.04658450137    
6205002430        -0.1165483089     0.096887573       -1.829875059      2.196234093       
                  -1.829875059      2.196234093       0.1025128519      0.3389074673      
6290002340        0.1275138131      0.08269167527     2.815065046       0.4686571844      
                  2.815065046       0.4686571844      0.1975797585      -0.2473825295     
6375002250        -0.07609576418    -0.1222693149     -1.00524387       -2.559659899      
                  -1.00524387       -2.559659899      -0.3764407737     0.1287422484      
6460002160        -0.1330371627     0.1370045728      -1.769161623      2.069590392       
                  -1.769161623      2.069590392       0.2714740842      0.2733797946      
6545002070        0.1616513313      0.1166165867      2.620102918       0.4851393034      
                  2.620102918       0.4851393034      0.03044628541     -0.3207321046     
6630001980        -0.03630939357    -0.1669769468     -0.8768507367     -2.437183514      
                  -0.8768507367     -2.437183514      -0.2996302158     0.3024055439      
6715001890        -0.18267541       0.1521593024      -1.670898346      1.860120027       
                  -1.670898346      1.860120027       0.3842862704      0.1579022356      
6800001800        0.1852742672      0.1951397035      2.391871907       0.5735403077      
                  2.391871907       0.5735403077      -0.1309815675     -0.3093499841     
6885001710        0.06092553556     -0.218182967      -0.653436725      -2.284679301      
                  -0.653436725      -2.284679301      -0.1890255372     0.3888643419      
6970001620        -0.2549191576     0.08747068681     -1.706565336      1.610682376       
                  -1.706565336      1.610682376       0.4240914512      0.02474811623     
7055001530        0.147957304       0.2905889047      2.230891902       0.7040696701      
                  2.230891902       0.7040696701      -0.2573980866     -0.2718593464     
7140001440        0.1941174571      -0.2237659653     -0.4806822308     -2.252770874      
                  -0.4806822308     -2.252770874      -0.06428277112    0.455006529       
7225001350        -0.2811102051     -0.03711756679    -1.76100898       1.430748718       
                  -1.76100898       1.430748718       0.4534361219      -0.1025138296     
7310001260        0.05764622853     0.3684680152      2.10443091        0.7310949335      
                  2.10443091        0.7310949335      -0.3594714641     -0.1855822122     
7395001170        0.3421173009      -0.1248846414     -0.266865323      -2.138312866      
                  -0.266865323      -2.138312866      0.07630566373     0.4831831583      
7480001080        -0.2298967456     -0.2149336184     -1.693118079      1.216546138       
                  -1.693118079      1.216546138       0.395376825       -0.2368306674     
7565000990        -0.1388310073     0.3723793839      1.920289521       0.7755860213      
                  1.920289521       0.7755860213      -0.4262403817     -0.08513683834    
7650000900        0.4089572658      0.03834247197     -0.1109414496     -1.984632163      
                  -0.1109414496     -1.984632163      0.212082653       0.4400881144      
7735000810        -0.08188852602    -0.3514431489     -1.749704454      1.074834403       
                  -1.749704454      1.074834403       0.3179774259      -0.3467027937     
7820000720        -0.2778923129     0.2639742638      1.775501094       0.9204262051      
                  1.775501094       0.9204262051      -0.4076731103     0.02419648997     
7905000630        0.3904720011      0.207509898       0.03480403966     -1.843622531      
                  0.03480403966     -1.843622531      0.3240643309      0.3636801925      
7990000540        0.1425898632      -0.3956784873     -1.737946028      0.7481251494      
                  -1.737946028      0.7481251494      0.2220892516      -0.4083939578     
8075000450        -0.3858718143     0.04982134826     1.520381174       1.128128823       
                  1.520381174       1.128128823       -0.3895167666     0.1183782107      
8160000360        0.2509006241      0.3638975569      0.1786850461      -1.773079203      
                  0.1786850461      -1.773079203      0.3997343208      0.2809212796      
8245000270        0.3121006806      -0.3146855366     -1.67830145       0.5366460748      
                  -1.67830145       0.5366460748      0.1147088843      -0.4453171428     
8330000180        -0.3642038527     -0.1953430551     1.359932194       1.217063236       
                  1.359932194       1.217063236       -0.3440183665     0.1930843798      
8415000090        0.02521827728     0.4133428841      0.2997116537      -1.670117225      
                  0.2997116537      -1.670117225      0.4369360775      0.1675285755      
8500000000        0.4144317093      -0.1522796338     -1.567342107      0.4084697929      
                  -1.567342107      0.4084697929      -0.003698047325   -0.4621509422     
