! RsaToolbox (C) 2013 Rohde & Schwarz America
! 
! Number of points: 101
! Number of ports: 2
! Balanced ports?: 0
! 
! 
# Hz S RI R 50
9000              1.011671862       -0.03147160146    -2.986576714e-05  6.32983258e-05    
                  -2.986576714e-05  6.32983258e-05    1.019748043       -0.0236972955     
85008910          0.003333433966    0.1594525071      3.193276551       5.523515049       
                  3.193276551       5.523515049       -0.09227236884    -0.1151805107     
170008820         0.142023303       -0.044550659      3.204149897       -5.227526141      
                  3.204149897       -5.227526141      -0.02132036269    0.1719254051      
255008730         -0.1766687724     -0.07558899198    -6.062547692      -0.1761065177     
                  -6.062547692      -0.1761065177     0.07677100377     -0.02706987673    
340008640         -0.06296587633    0.1709613648      2.650961858       5.363844938       
                  2.650961858       5.363844938       -0.1264467927     -0.05319560956    
425008550         0.1597510919      -0.04643302112    3.393078447       -4.872089311      
                  3.393078447       -4.872089311      0.01729165073     0.1030354421      
510008460         -0.1019956537     -0.1636991568     -5.912265062      -0.6565067749     
                  -5.912265062      -0.6565067749     0.07089621853     -0.07924576076    
595008370         -0.1077992524     0.1402395857      2.222960575       5.438170729       
                  2.222960575       5.438170729       -0.08351217709    -0.01223114111    
680008280         0.2045625053      0.03366474364     3.676497631       -4.577112983      
                  3.676497631       -4.577112983      0.09180730092     0.07517844298     
765008190         0.008825344564    -0.1639372582     -5.738243051      -1.10907641       
                  -5.738243051      -1.10907641       0.06053296219     -0.06029227423    
850008100         -0.1821828278     0.1117334382      1.86978387        5.530325975       
                  1.86978387        5.530325975       -0.07179625292    0.06513738173     
935008010         0.1462890265      0.1237137292      3.95799212        -4.230579042      
                  3.95799212        -4.230579042      0.1029760241      0.0394869114      
1020007920        0.07558132908     -0.1544289302     -5.594064629      -1.459501653      
                  -5.594064629      -1.459501653      -0.004059018073   -0.07560196473    
1105007830        -0.2257692229     -0.00867585667    1.471864232       5.625346858       
                  1.471864232       5.625346858       -0.06336767464    0.07516050018     
1190007740        0.0720365196      0.1406665122      4.20693016        -3.861413581      
                  4.20693016        -3.861413581      0.1244473595      -0.04255362836    
1275007650        0.1650510812      -0.1088728143     -5.470318615      -1.847611492      
                  -5.470318615      -1.847611492      -0.02960243992    -0.08841670098    
1360007560        -0.1644047172     -0.1011243811     1.033026426       5.652675869       
                  1.033026426       5.652675869       -0.00512918964    0.1008877529      
1445007470        0.0004149724518   0.1418563196      4.421239539       -3.544434273      
                  4.421239539       -3.544434273      0.1472713849      -0.08832532427    
1530007380        0.1855154911      -0.01120483737    -5.311015584      -2.193198745      
                  -5.311015584      -2.193198745      -0.06842149303    -0.06337758191    
1615007290        -0.09450081557    -0.1242749891     0.6126319911      5.608730346       
                  0.6126319911      5.608730346       0.02302017777     0.1413867909      
1700007200        -0.08918834922    0.09774413931     4.679308539       -3.238848441      
                  4.679308539       -3.238848441      0.1106833807      -0.1337302578     
1785007110        0.1291145167      0.03171712759     -5.067478781      -2.538116362      
                  -5.067478781      -2.538116362      -0.1315800276     -0.06340789813    
1870007020        -0.02165620749    -0.1364850895     0.2176384545      5.616243596       
                  0.2176384545      5.616243596       0.06604161926     0.1320410457      
1955006930        -0.107153855      0.02162391086     4.88367687        -2.884071144      
                  4.88367687        -2.884071144      0.08938959396     -0.193899948      
2040006840        0.08350087322     0.03922359407     -4.828846926      -2.8228804        
                  -4.828846926      -2.8228804        -0.1550235715     -0.04172970808    
2125006750        0.03720741478     -0.09392739695    -0.1992668618     5.640954746       
                  -0.1992668618     5.640954746       0.1312409642      0.1360759515      
2210006660        -0.09290391937    -0.001039397052   4.9829053         -2.528569781      
                  4.9829053         -2.528569781      0.04778240324     -0.2173313457     
2295006570        0.02978290913     0.03679976239     -4.595473021      -3.158160698      
                  -4.595473021      -3.158160698      -0.1861251756     0.0154352939      
2380006480        0.0294772575      -0.05310594266    -0.5650501217     5.581706229       
                  -0.5650501217     5.581706229       0.1667094611      0.1139024046      
2465006390        -0.08800070296    -0.01685193238    5.061385459       -2.210245793      
                  5.061385459       -2.210245793      -0.02030531306    -0.2591272201     
2550006300        0.01168983977     0.001856330217    -4.297788304      -3.492159963      
                  -4.297788304      -3.492159963      -0.1910092141     0.06071025775     
2635006210        0.02637053205     -0.04528524443    -0.9051993164     5.523943059       
                  -0.9051993164     5.523943059       0.2129737432      0.06449420149     
2720006120        -0.08374849924    -0.01070795108    5.136883245       -1.838087273      
                  5.136883245       -1.838087273      -0.09076184125    -0.2638335632     
2805006030        0.01754434702     0.0008158100749   -4.010591567      -3.740463195      
                  -4.010591567      -3.740463195      -0.1625243967     0.1238257797      
2890005940        0.02187812937     -0.03631658523    -1.249102452      5.402516813       
                  -1.249102452      5.402516813       0.2320417105      0.008571457928    
2975005850        -0.09520839122    -0.009040336693   5.168980346       -1.387368926      
                  5.168980346       -1.387368926      -0.1620921066     -0.2479779431     
3060005760        0.01764345273     0.01076142256     -3.711010676      -4.086326445      
                  -3.711010676      -4.086326445      -0.1182131363     0.1683964168      
3145005670        0.03681839812     -0.04409000433    -1.636806591      5.247778219       
                  -1.636806591      5.247778219       0.2314784589      -0.07195303812    
3230005580        -0.1025944772     -0.03406806733    5.279163065       -0.9833265178     
                  5.279163065       -0.9833265178     -0.2266947013     -0.2081710581     
3315005490        0.01083922774     0.03138803656     -3.43522199       -4.310838814      
                  -3.43522199       -4.310838814      -0.04659975839    0.2026554436      
3400005400        0.06227505382     -0.02807149366    -1.999244783      5.083382055       
                  -1.999244783      5.083382055       0.2008164715      -0.1458596941     
3485005310        -0.09777911929    -0.06417846186    5.38282331        -0.6127215961     
                  5.38282331        -0.6127215961     -0.2813520987     -0.1304312035     
3570005220        -0.02084009312    0.04801712708     -3.255948408      -4.504683269      
                  -3.255948408      -4.504683269      0.03360987666     0.2096206797      
3655005130        0.06908492995     0.004200172218    -2.195994097      4.954030505       
                  -2.195994097      4.954030505       0.1340961888      -0.2082048869     
3740005040        -0.07643879169    -0.09373315104    5.374821658       -0.2601555794     
                  5.374821658       -0.2601555794     -0.312378606      -0.03988178054    
3825004950        -0.05893070466    0.037149696       -2.981563517      -4.639983877      
                  -2.981563517      -4.639983877      0.1138445441      0.174447719       
3910004860        0.06383242035     0.03752799922     -2.616721011      4.729871746       
                  -2.616721011      4.729871746       0.05003321027     -0.2587431131     
3995004770        -0.02970811234    -0.1100302409     5.408516548       0.06795420235     
                  5.408516548       0.06795420235     -0.3058722076     0.06499309803     
4080004680        -0.08518288579    0.008312408304    -2.708298352      -4.81001328       
                  -2.708298352      -4.81001328       0.1911755699      0.1278089009      
4165004590        0.03849414443     0.06978827939     -2.87797654       4.590528532       
                  -2.87797654       4.590528532       -0.04644389773    -0.2720726573     
4250004500        0.01227143639     -0.08718903646    5.493922016       0.3070589171      
                  5.493922016       0.3070589171      -0.265715036      0.1749509845      
4335004410        -0.1010401884     -0.01996327358    -2.45452226       -4.919242209      
                  -2.45452226       -4.919242209      0.2297784971      0.04388282933     
4420004320        -0.007925810345   0.08331579306     -3.077739363      4.481487108       
                  -3.077739363      4.481487108       -0.1642292003     -0.2507889792     
4505004230        0.03806413981     -0.05540438093    5.44810666        0.4863614861      
                  5.44810666        0.4863614861      -0.1958726844     0.2588845229      
4590004140        -0.09930010441    -0.05210285296    -2.186870991      -4.959269913      
                  -2.186870991      -4.959269913      0.2299735861      -0.05726192396    
4675004050        -0.04556519181    0.07082982306     -3.180445611      4.362335173       
                  -3.180445611      4.362335173       -0.2555825467     -0.1908765154     
4760003960        0.05751005586     -0.0154998338     5.297339514       0.7285087629      
                  5.297339514       0.7285087629      -0.08592844063    0.3114483548      
4845003870        -0.07530962681    -0.06854057742    -1.939416743      -5.012258125      
                  -1.939416743      -5.012258125      0.200197853       -0.15557579       
4930003780        -0.07588776268    0.04000514394     -3.363216354      4.17996185        
                  -3.363216354      4.17996185        -0.3193706814     -0.09936725896    
5015003690        0.04878436088     0.03872107273     5.173010173       0.967058895       
                  5.173010173       0.967058895       0.03598677471     0.3350392283      
5100003600        -0.05178304756    -0.05553883912    -1.766618001      -5.087326171      
                  -1.766618001      -5.087326171      0.1196817057      -0.2285419711     
5185003510        -0.09051793681    0.002658161936    -3.420071807      3.958975407       
                  -3.420071807      3.958975407       -0.3488388927     0.01118486476     
5270003420        0.01409896582     0.07070907056     5.037454717       1.200438738       
                  5.037454717       1.200438738       0.1496449103      0.2991025607      
5355003330        -0.04310051209    -0.02225239032    -1.651762141      -5.146270005      
                  -1.651762141      -5.146270005      -0.002369558998   -0.2786701993     
5440003240        -0.07065137784    -0.03943080022    -3.36851712       3.793574749       
                  -3.36851712       3.793574749       -0.3197232503     0.1324224293      
5525003150        -0.01884492902    0.06033245888     5.022841144       1.31469536        
                  5.022841144       1.31469536        0.2687796292      0.1999540353      
5610003060        -0.03929282007    0.0285936233      -1.598788155      -4.9898228        
                  -1.598788155      -4.9898228        -0.1367848727     -0.2674186796     
5695002970        -0.01357509682    -0.04331812177    -3.367076575      3.575740184       
                  -3.367076575      3.575740184       -0.220772695      0.2528619237      
5780002880        -0.02582930587    0.02228657282     4.974127683       1.408191088       
                  4.974127683       1.408191088       0.3288876967      0.05741996329     
5865002790        -0.07794593732    0.07607028818     -1.504390944      -4.722088022      
                  -1.504390944      -4.722088022      -0.2727040877     -0.1851070891     
5950002700        0.03667664398     0.005037412483    -3.398617947      3.368151361       
                  -3.398617947      3.368151361       -0.08223092973    0.3323132432      
6035002610        -0.01918496576    -0.04005921095    4.760645355       1.300774481       
                  4.760645355       1.300774481       0.2976495029      -0.0986561601     
6120002520        -0.1460276703     0.07296402437     -1.385335991      -4.469131664      
                  -1.385335991      -4.469131664      -0.3587203919     -0.04532576148    
6205002430        0.07171147717     0.08783281967     -3.287539897      3.168961262       
                  -3.287539897      3.168961262       0.1027506728      0.3357403457      
6290002340        0.06050624122     -0.09166296105    4.539963956       1.155773459       
                  4.539963956       1.155773459       0.1943121961      -0.2498149215     
6375002250        -0.216876368      0.008254794428    -1.292867237      -4.164767791      
                  -1.292867237      -4.164767791      -0.3763792911     0.1297549181      
6460002160        0.02922428583     0.2067882443      -3.021727583      2.955009339       
                  -3.021727583      2.955009339       0.269434241       0.2704263194      
6545002070        0.1752933864      -0.05734388074    4.096056813       1.061871701       
                  4.096056813       1.061871701       0.02837023594     -0.3178161802     
6630001980        -0.206698348      -0.1100842083     -1.125459728      -3.829925274      
                  -1.125459728      -3.829925274      -0.2982533575     0.3003466959      
6715001890        -0.0714886367     0.2722258749      -2.704184602      2.626188785       
                  -2.704184602      2.626188785       0.3796281002      0.1523420528      
6800001800        0.2658291648      0.05076854518     3.622402861       1.088790514       
                  3.622402861       1.088790514       -0.1317025737     -0.3071845102     
6885001710        -0.1035170151     -0.2411432119     -0.8564621729     -3.482977342      
                  -0.8564621729     -3.482977342      -0.1833911593     0.3822255937      
6970001620        -0.2055250742     0.2329324056      -2.61846627       2.242323476       
                  -2.61846627       2.242323476       0.4205901393      0.02149685877     
7055001530        0.2625331668      0.2061624528      3.221863783       1.23928077        
                  3.221863783       1.23928077        -0.2558404105     -0.2722626869     
7140001440        0.08129756238     -0.3000168902     -0.5266145292     -3.217579539      
                  -0.5266145292     -3.217579539      -0.066461814      0.4478585856      
7225001350        -0.2939682952     0.09180966605     -2.557213645      1.878084572       
                  -2.557213645      1.878084572       0.448329676       -0.1047920601     
7310001260        0.1722406157      0.3389047746      2.839825959       1.134375551       
                  2.839825959       1.134375551       -0.3518763621     -0.185388647      
7395001170        0.2844294966      -0.2287798579     -0.2710169784     -2.946208056      
                  -0.2710169784     -2.946208056      0.08251876596     0.4774689876      
7480001080        -0.2979888464     -0.1076731153     -2.40577445       1.630595096       
                  -2.40577445       1.630595096       0.3955151786      -0.2377523857     
7565000990        -0.03067725804    0.4018279511      2.630029138       1.162581887       
                  2.630029138       1.162581887       -0.4271277962     -0.08239476978    
7650000900        0.4002190498      -0.05560136906    -0.04977785151    -2.616478707      
                  -0.04977785151    -2.616478707      0.2112523268      0.4401349617      
7735000810        -0.1599767428     -0.3078830359     -2.296905341      1.346670148       
                  -2.296905341      1.346670148       0.3167081191      -0.3460232406     
7820000720        -0.2057251883     0.3170953685      2.277625872       1.235698834       
                  2.277625872       1.235698834       -0.4033055514     0.0251883387      
7905000630        0.4137335076      0.1384193499      0.09081686613     -2.302375635      
                  0.09081686613     -2.302375635      0.3252975551      0.3610581793      
7990000540        0.06482994194     -0.3903116136     -2.218501717      0.9311102383      
                  -2.218501717      0.9311102383      0.2219669291      -0.4069711736     
8075000450        -0.3504090852     0.1197098688      1.906392216       1.43224802        
                  1.906392216       1.43224802        -0.3873987996     0.1180386432      
8160000360        0.296565132       0.3121169129      0.2493317544      -2.18191961       
                  0.2493317544      -2.18191961       0.3993476199      0.2806897239      
8245000270        0.2551759456      -0.334163189      -2.022463764      0.6155401798      
                  -2.022463764      0.6155401798      0.1154877672      -0.439690843      
8330000180        -0.3607422231     -0.1281732406     1.620684665       1.478741286       
                  1.620684665       1.478741286       -0.338675847      0.1900284283      
8415000090        0.0772199212      0.3916198758      0.3961092538      -1.983290046      
                  0.3961092538      -1.983290046      0.4369095356      0.1708371336      
8500000000        0.3845009126      -0.1822320822     -1.82711497       0.4365835892      
                  -1.82711497       0.4365835892      -0.001591718729   -0.4615258686     
