! RsaToolbox (C) 2013 Rohde & Schwarz America
! 
! Number of points: 101
! Number of ports: 2
! Balanced ports?: 0
! 
! 
# Hz S RI R 50
9000              1.016998215       -0.02482800775    0.0003724376342   0.000136550074    
                  0.0003724376342   0.000136550074    1.024127573       -0.03876409665    
85008910          0.002944790721    0.1595454217      3.195007512       5.528054582       
                  3.195007512       5.528054582       -0.09204624533    -0.1156041443     
170008820         0.1423847575      -0.04496483696    3.203437849       -5.225839624      
                  3.203437849       -5.225839624      -0.02075687645    0.1717760166      
255008730         -0.1765530155     -0.0758412437     -6.06539543       -0.1738349075     
                  -6.06539543       -0.1738349075     0.07751839798     -0.02556634825    
340008640         -0.06328151279    0.1701550009      2.644560816       5.366081183       
                  2.644560816       5.366081183       -0.1272638483     -0.05384566093    
425008550         0.1599801537      -0.04618143592    3.399419583       -4.869988402      
                  3.399419583       -4.869988402      0.01688021739     0.1018546156      
510008460         -0.1023597846     -0.163742665      -5.913483573      -0.6552039367     
                  -5.913483573      -0.6552039367     0.07035517675     -0.08065835636    
595008370         -0.1076457101     0.1405784724      2.223308711       5.434742057       
                  2.223308711       5.434742057       -0.08358992802    -0.01324847197    
680008280         0.2047202545      0.03365973816     3.673446259       -4.574980417      
                  3.673446259       -4.574980417      0.09177432729     0.0754066299      
765008190         0.009676357038    -0.1643647778     -5.737425417      -1.110897283      
                  -5.737425417      -1.110897283      0.05976072729     -0.0609896268     
850008100         -0.182378643      0.1116478116      1.865260388       5.531132096       
                  1.865260388       5.531132096       -0.07141741546    0.06499871643     
935008010         0.1460633918      0.1233717131      3.958654908       -4.230898794      
                  3.958654908       -4.230898794      0.1027330068      0.03819855503     
1020007920        0.07585707755     -0.1544015513     -5.593233342      -1.456624731      
                  -5.593233342      -1.456624731      -0.005023651602   -0.07576905152    
1105007830        -0.2261021915     -0.007933698878   1.469998133       5.628507837       
                  1.469998133       5.628507837       -0.06267346332    0.07461423757     
1190007740        0.071682622       0.1406128145      4.20180037        -3.861074068      
                  4.20180037        -3.861074068      0.1246077069      -0.0423286366     
1275007650        0.1647169088      -0.1096317725     -5.47302996       -1.840591223      
                  -5.47302996       -1.840591223      -0.02987716451    -0.09012040346    
1360007560        -0.1636185373     -0.1008017131     1.039408857       5.651198809       
                  1.039408857       5.651198809       -0.005375333175   0.1012235162      
1445007470        0.0005687986176   0.1425092289      4.417890246       -3.547040452      
                  4.417890246       -3.547040452      0.1469500284      -0.08863570678    
1530007380        0.1851457927      -0.01115921701    -5.313030731      -2.194328109      
                  -5.313030731      -2.194328109      -0.06951759128    -0.06502842651    
1615007290        -0.0948627503     -0.1243372949     0.6145706495      5.607188086       
                  0.6145706495      5.607188086       0.02345385532     0.1420882108      
1700007200        -0.08910557141    0.0974684211      4.675855291       -3.242751253      
                  4.675855291       -3.242751253      0.1106470081      -0.1337722416     
1785007110        0.1293123706      0.03235483109     -5.067644833      -2.535591657      
                  -5.067644833      -2.535591657      -0.1317683243     -0.06395124962    
1870007020        -0.02210154791    -0.1366509838     0.2198703885      5.613429232       
                  0.2198703885      5.613429232       0.06624681997     0.1320626288      
1955006930        -0.1073925936     0.02251392491     4.885458089       -2.886084782      
                  4.885458089       -2.886084782      0.08954421066     -0.1935795538     
2040006840        0.08334028977     0.04011703182     -4.833015689      -2.822911486      
                  -4.833015689      -2.822911486      -0.154401471      -0.04183751246    
2125006750        0.03628686498     -0.09399271243    -0.197346572      5.645211721       
                  -0.197346572      5.645211721       0.1314929882      0.1369498797      
2210006660        -0.09253918897    -0.001247581781   4.982243153       -2.532213191      
                  4.982243153       -2.532213191      0.04807654485     -0.2179869696     
2295006570        0.03026960554     0.03785387342     -4.598051298      -3.153065625      
                  -4.598051298      -3.153065625      -0.1867176798     0.01541959921     
2380006480        0.02935296863     -0.05354917841    -0.563678083      5.579992364       
                  -0.563678083      5.579992364       0.166986047       0.1142630981      
2465006390        -0.08900419859    -0.0162918397     5.059973551       -2.211637941      
                  5.059973551       -2.211637941      -0.01947359372    -0.2595165551     
2550006300        0.01190546607     0.00198542935     -4.290073464      -3.492326835      
                  -4.290073464      -3.492326835      -0.1909860359     0.06091107832     
2635006210        0.02612268603     -0.04539338238    -0.9039890143     5.526235874       
                  -0.9039890143     5.526235874       0.2136082763      0.06492098734     
2720006120        -0.08260151966    -0.01101959576    5.136665713       -1.83935164       
                  5.136665713       -1.83935164       -0.09082841667    -0.264311183      
2805006030        0.01739689332     0.0005661094692   -4.006139984      -3.742609386      
                  -4.006139984      -3.742609386      -0.1627473655     0.1242057809      
2890005940        0.02226683593     -0.03640880319    -1.243462722      5.399150714       
                  -1.243462722      5.399150714       0.2315933402      0.008749010582    
2975005850        -0.09531663815    -0.009367565628   5.171358428       -1.384448433      
                  5.171358428       -1.384448433      -0.1607134888     -0.2465799896     
3060005760        0.01802344304     0.01006457684     -3.706463243      -4.084850826      
                  -3.706463243      -4.084850826      -0.1192455941     0.1689376443      
3145005670        0.03709613652     -0.04459493173    -1.642633688      5.248194642       
                  -1.642633688      5.248194642       0.2320733004      -0.07168744467    
3230005580        -0.102632966      -0.03409035866    5.280632035       -0.9831088449     
                  5.280632035       -0.9831088449     -0.2271632701     -0.2087049978     
3315005490        0.01106319772     0.03215220002     -3.434548266      -4.311240509      
                  -3.434548266      -4.311240509      -0.04649390042    0.2035895438      
3400005400        0.06181321103     -0.02837255541    -1.99747486       5.079098953       
                  -1.99747486       5.079098953       0.2012077078      -0.1449690995     
3485005310        -0.09781582381    -0.06474143       5.378677595       -0.6135498067     
                  5.378677595       -0.6135498067     -0.2822816445     -0.1291275165     
3570005220        -0.020471433      0.04937776628     -3.253075829      -4.504406293      
                  -3.253075829      -4.504406293      0.03404282221     0.2112428284      
3655005130        0.06873824742     0.003541972398    -2.192699283      4.952239907       
                  -2.192699283      4.952239907       0.1340016817      -0.2092826654     
3740005040        -0.07713292508    -0.093359735      5.375207348       -0.2575147447     
                  5.375207348       -0.2575147447     -0.3122395021     -0.04024850801    
3825004950        -0.0586162116     0.03678909122     -2.980317123      -4.64114965       
                  -2.980317123      -4.64114965       0.1131961215      0.1757923055      
3910004860        0.06316114755     0.03894775472     -2.616065171      4.726451054       
                  -2.616065171      4.726451054       0.05063243521     -0.2593827055     
3995004770        -0.03029965874    -0.1118983648     5.407153358       0.06737804257     
                  5.407153358       0.06737804257     -0.3053721468     0.06516087143     
4080004680        -0.08483611019    0.007843621087    -2.707041997      -4.810890245      
                  -2.707041997      -4.810890245      0.1905763885      0.1281929236      
4165004590        0.03827945838     0.0706443587      -2.876833684      4.59038769        
                  -2.876833684      4.59038769        -0.04654158823    -0.2717040414     
4250004500        0.01131315013     -0.08845541346    5.492026316       0.3087625266      
                  5.492026316       0.3087625266      -0.2651390955     0.1755264804      
4335004410        -0.101254102      -0.01963978211    -2.457956961      -4.917977648      
                  -2.457956961      -4.917977648      0.2292396565      0.04425251169     
4420004320        -0.006991653466   0.08292967637     -3.077643329      4.480350826       
                  -3.077643329      4.480350826       -0.1641236981     -0.2500092637     
4505004230        0.03763029228     -0.05664243373    5.447363435       0.4899655919      
                  5.447363435       0.4899655919      -0.1967839397     0.2593447733      
4590004140        -0.09913354616    -0.05191219435    -2.186871373      -4.961191042      
                  -2.186871373      -4.961191042      0.2298276433      -0.05751271766    
4675004050        -0.04542855874    0.06973433066     -3.180035549      4.360596118       
                  -3.180035549      4.360596118       -0.2551621203     -0.1901705886     
4760003960        0.05741963983     -0.01574142336    5.297394234       0.7289811947      
                  5.297394234       0.7289811947      -0.08647653123    0.3105270608      
4845003870        -0.0759881195     -0.0684290869     -1.934800153      -5.013296812      
                  -1.934800153      -5.013296812      0.2004661421      -0.154727303      
4930003780        -0.07705290431    0.03995445877     -3.366758527      4.180716006       
                  -3.366758527      4.180716006       -0.3192635        -0.09906289623    
5015003690        0.04946925454     0.0382111026      5.172353384       0.9675876289      
                  5.172353384       0.9675876289      0.03631592425     0.3342993887      
5100003600        -0.05229759264    -0.05569480675    -1.768239819      -5.088075824      
                  -1.768239819      -5.088075824      0.1191021999      -0.229535183      
5185003510        -0.09047901621    0.003493016879    -3.42266866       3.95748096        
                  -3.42266866       3.95748096        -0.349640555      0.01216434298     
5270003420        0.01408210914     0.07128846366     5.037776906       1.200217519       
                  5.037776906       1.200217519       0.150320929       0.299337255       
5355003330        -0.04208407979    -0.02221760059    -1.653926882      -5.147739652      
                  -1.653926882      -5.147739652      -0.001939503069   -0.2792420852     
5440003240        -0.07097974022    -0.03961046534    -3.363258632      3.79592139        
                  -3.363258632      3.79592139        -0.3185881506     0.1324541882      
5525003150        -0.01867324343    0.06085724409     5.023670044       1.312672312       
                  5.023670044       1.312672312       0.2687999266      0.2009273549      
5610003060        -0.03923267426    0.0283137394      -1.598157339      -4.99019422       
                  -1.598157339      -4.99019422       -0.1369503358     -0.2675321214     
5695002970        -0.01305263096    -0.0430104134     -3.366487376      3.576511707       
                  -3.366487376      3.576511707       -0.2201285484     0.2537079196      
5780002880        -0.02611039511    0.02271150844     4.975096548       1.409290708       
                  4.975096548       1.409290708       0.3290587529      0.0580707638      
5865002790        -0.07758984068    0.07601853117     -1.496938107      -4.725175855      
                  -1.496938107      -4.725175855      -0.2729347675     -0.1848872783     
5950002700        0.03652785575     0.005242713549    -3.399559582      3.366831991       
                  -3.399559582      3.366831991       -0.08308193819    0.3327160958      
6035002610        -0.01862904804    -0.04028140714    4.76283881        1.298617687       
                  4.76283881        1.298617687       0.2980925816      -0.09783439127    
6120002520        -0.1453442614     0.0742237732      -1.387598232      -4.46835559       
                  -1.387598232      -4.46835559       -0.3582134249     -0.04554398568    
6205002430        0.07254204973     0.08789883293     -3.287315305      3.168265165       
                  -3.287315305      3.168265165       0.1031044299      0.3362358297      
6290002340        0.06081052232     -0.09199943149    4.539162113       1.157547525       
                  4.539162113       1.157547525       0.1936265967      -0.2495399931     
6375002250        -0.216514552      0.0085901872      -1.286587547      -4.165198664      
                  -1.286587547      -4.165198664      -0.3761947882     0.1299253204      
6460002160        0.02869432467     0.2068295836      -3.021684345      2.953327983       
                  -3.021684345      2.953327983       0.2688906629      0.2720650299      
6545002070        0.1752486984      -0.05884194054    4.096660265       1.066227315       
                  4.096660265       1.066227315       0.02934425919     -0.3165700815     
6630001980        -0.2062569538     -0.1095747284     -1.124398736      -3.831582302      
                  -1.124398736      -3.831582302      -0.2972714996     0.2994372091      
6715001890        -0.07102136051    0.2722908002      -2.704379363      2.625709371       
                  -2.704379363      2.625709371       0.3794576297      0.1527462217      
6800001800        0.2651363331      0.05025358462     3.620647587       1.089006664       
                  3.620647587       1.089006664       -0.1326310347     -0.3077718262     
6885001710        -0.10424539       -0.241651067      -0.8534620226     -3.483480196      
                  -0.8534620226     -3.483480196      -0.1840294927     0.3827697475      
6970001620        -0.2059662512     0.2325819881      -2.617557115      2.243338263       
                  -2.617557115      2.243338263       0.4210374787      0.02040223287     
7055001530        0.2624407071      0.2054744432      3.219792456       1.23743739        
                  3.219792456       1.23743739        -0.2560366492     -0.2719148821     
7140001440        0.08100160673     -0.2992908897     -0.525671249      -3.215336405      
                  -0.525671249      -3.215336405      -0.06691312075    0.447491167       
7225001350        -0.293056251      0.09162193276     -2.55740537       1.87738019        
                  -2.55740537       1.87738019        0.4477109771      -0.1035188799     
7310001260        0.1733048951      0.3395572271      2.840740328       1.13569179        
                  2.840740328       1.13569179        -0.3521238902     -0.1860703015     
7395001170        0.2851176919      -0.2300065941     -0.2725830824     -2.946002835      
                  -0.2725830824     -2.946002835      0.08343926541     0.4775366409      
7480001080        -0.2986583406     -0.1081164153     -2.407113518      1.631420127       
                  -2.407113518      1.631420127       0.3955089589      -0.2376994867     
7565000990        -0.03122215627    0.4028979258      2.630918157       1.163862959       
                  2.630918157       1.163862959       -0.4278066187     -0.08390456279    
7650000900        0.4006705074      -0.05555873428    -0.05009839702    -2.618660638      
                  -0.05009839702    -2.618660638      0.2119047438      0.4395860066      
7735000810        -0.1607004176     -0.306813572      -2.296797641      1.343630501       
                  -2.296797641      1.343630501       0.3169757077      -0.3450477892     
7820000720        -0.2060253386     0.3170709701      2.276118595       1.237050411       
                  2.276118595       1.237050411       -0.4038780299     0.02504564667     
7905000630        0.414877364       0.1380630524      0.09137640314     -2.300004651      
                  0.09137640314     -2.300004651      0.3257938425      0.3612283665      
7990000540        0.06566374471     -0.391992512      -2.217097484      0.929890389       
                  -2.217097484      0.929890389       0.2209145074      -0.4068861148     
8075000450        -0.3503457522     0.1205769153      1.905650241       1.433626839       
                  1.905650241       1.433626839       -0.3869978586     0.1181320535      
8160000360        0.2970121143      0.3122049435      0.250799223       -2.180967125      
                  0.250799223       -2.180967125      0.3990074395      0.2798693473      
8245000270        0.2554088714      -0.3331019741     -2.021620483      0.61666294        
                  -2.021620483      0.61666294        0.1144704666      -0.4384320731     
8330000180        -0.3625885822     -0.1277528793     1.618995592       1.481549001       
                  1.618995592       1.481549001       -0.3380832687     0.1907695431      
8415000090        0.07718223916     0.3925450971      0.3953135727      -1.983234874      
                  0.3953135727      -1.983234874      0.4370771549      0.1710820072      
8500000000        0.3845629919      -0.1820632252     -1.826851192      0.4344404396      
                  -1.826851192      0.4344404396      -6.537325179e-05  -0.4595967192     
