! RsaToolbox (C) 2013 Rohde & Schwarz America
! 
! Number of points: 101
! Number of ports: 2
! Balanced ports?: 0
! 
! 
# Hz S RI R 50
9000              1.026222056       -0.03676307607    0.0001610379924   -4.452494303e-06  
                  0.0001610379924   -4.452494303e-06  1.02507569        -0.03524926455    
85008910          0.002955801486    0.1590460505      3.191115306       5.528749397       
                  3.191115306       5.528749397       -0.09213632663    -0.1137522585     
170008820         0.1418561544      -0.04452025977    3.200516473       -5.224397096      
                  3.200516473       -5.224397096      -0.0196133749     0.1718686305      
255008730         -0.1763266423     -0.0760649513     -6.070082874      -0.1754610905     
                  -6.070082874      -0.1754610905     0.07760643688     -0.0265413382     
340008640         -0.06336490398    0.1701582075      2.647140375       5.366082809       
                  2.647140375       5.366082809       -0.1265949889     -0.05346053236    
425008550         0.1596241269      -0.04611945893    3.403468042       -4.865016349      
                  3.403468042       -4.865016349      0.01704400694     0.1030916849      
510008460         -0.1015197912     -0.1630556028     -5.90771991       -0.6515281559     
                  -5.90771991       -0.6515281559     0.07020453051     -0.0786641962     
595008370         -0.1067161931     0.1406888881      2.221162213       5.439146212       
                  2.221162213       5.439146212       -0.08396351118    -0.0123618567     
680008280         0.2048639126      0.03344714154     3.674970419       -4.58196518       
                  3.674970419       -4.58196518       0.0921715305      0.07504419884     
765008190         0.00938991895     -0.1641985203     -5.737268185      -1.11231258       
                  -5.737268185      -1.11231258       0.05913518328     -0.06011089762    
850008100         -0.1823205507     0.1114129205      1.86429146        5.533747556       
                  1.86429146        5.533747556       -0.07168652448    0.06569195494     
935008010         0.1458870476      0.1238733229      3.955214093       -4.233576534      
                  3.955214093       -4.233576534      0.1028030249      0.03981358422     
1020007920        0.07550123879     -0.1543804017     -5.598568997      -1.454102385      
                  -5.598568997      -1.454102385      -0.004704063706   -0.0743217761     
1105007830        -0.2262196935     -0.008636040917   1.469913035       5.62618704        
                  1.469913035       5.62618704        -0.06264446112    0.07492570695     
1190007740        0.07113379053     0.1408179114      4.205096249       -3.857055149      
                  4.205096249       -3.857055149      0.1247715755      -0.04240268006    
1275007650        0.1653427712      -0.1092459927     -5.473051874      -1.839306215      
                  -5.473051874      -1.839306215      -0.02996415797    -0.08970486349    
1360007560        -0.1641277495     -0.1009087929     1.036174501       5.655661616       
                  1.036174501       5.655661616       -0.005464095545   0.10180174        
1445007470        9.653003489e-05   0.1422521627      4.422378089       -3.541356188      
                  4.422378089       -3.541356188      0.146832342       -0.08955558978    
1530007380        0.1855138541      -0.01150342709    -5.310383258      -2.197200034      
                  -5.310383258      -2.197200034      -0.06901068261    -0.06371235979    
1615007290        -0.09474534037    -0.1246997704     0.6122440249      5.611076124       
                  0.6122440249      5.611076124       0.02333492727     0.1414199548      
1700007200        -0.08879479642    0.09798615869     4.680117749       -3.241125589      
                  4.680117749       -3.241125589      0.1111017903      -0.1333694102     
1785007110        0.1292404003      0.03220855823     -5.066099515      -2.53827074       
                  -5.066099515      -2.53827074       -0.1315192726     -0.06425552781    
1870007020        -0.02155785582    -0.1369526297     0.2164379786      5.616130392       
                  0.2164379786      5.616130392       0.06569300519     0.1314583437      
1955006930        -0.1076019464     0.02247145199     4.882258007       -2.890901937      
                  4.882258007       -2.890901937      0.08928195134     -0.1929454725     
2040006840        0.08410303532     0.04016272009     -4.831622082      -2.826348167      
                  -4.831622082      -2.826348167      -0.1543522743     -0.04074801092    
2125006750        0.03668659266     -0.09386955972    -0.2014961485     5.642701862       
                  -0.2014961485     5.642701862       0.1308552922      0.1366106216      
2210006660        -0.09297767367    -0.0007756309272  4.984079533       -2.529129806      
                  4.984079533       -2.529129806      0.04784639589     -0.2179422086     
2295006570        0.02943858869     0.03759755897     -4.598121699      -3.154474734      
                  -4.598121699      -3.154474734      -0.1856126358     0.01582942585     
2380006480        0.02926689624     -0.05278395402    -0.5623662767     5.578614076       
                  -0.5623662767     5.578614076       0.166383673       0.1136897648      
2465006390        -0.08857851934    -0.01596238531    5.060782169       -2.210599226      
                  5.060782169       -2.210599226      -0.01905154041    -0.2588310786     
2550006300        0.01180539932     0.001953462026    -4.286577022      -3.495579518      
                  -4.286577022      -3.495579518      -0.1911870273     0.06079237841     
2635006210        0.02654899153     -0.04557484021    -0.9084859572     5.524920815       
                  -0.9084859572     5.524920815       0.2132893895      0.0642132781      
2720006120        -0.08316541208    -0.01172047784    5.137027962       -1.83857297       
                  5.137027962       -1.83857297       -0.09048876379    -0.2645116328     
2805006030        0.01683701114     0.001128874318    -4.006491608      -3.73975496       
                  -4.006491608      -3.73975496       -0.1631374943     0.1239702416      
2890005940        0.02181295501     -0.03661438911    -1.243469997      5.39855326        
                  -1.243469997      5.39855326        0.2319567707      0.00916266036     
2975005850        -0.09478658915    -0.008811584543   5.168470467       -1.381155938      
                  5.168470467       -1.381155938      -0.1621342868     -0.2475821353     
3060005760        0.01817851856     0.01041442142     -3.70773377       -4.085080242      
                  -3.70773377       -4.085080242      -0.1191403298     0.1688411393      
3145005670        0.03731970251     -0.04453854047    -1.641589886      5.245921093       
                  -1.641589886      5.245921093       0.2323393238      -0.07210194607    
3230005580        -0.1017788847     -0.03421051029    5.278863643       -0.9836123068     
                  5.278863643       -0.9836123068     -0.2268595879     -0.2078843585     
3315005490        0.01242076072     0.03234649932     -3.434352916      -4.313912869      
                  -3.434352916      -4.313912869      -0.04592806001    0.202943881       
3400005400        0.06124192949     -0.02919455706    -1.997812066      5.080994703       
                  -1.997812066      5.080994703       0.2013834569      -0.144310885      
3485005310        -0.09687171552    -0.0643744464     5.382604837       -0.6164640936     
                  5.382604837       -0.6164640936     -0.2825827565     -0.1292228436     
3570005220        -0.02109999604    0.04882797139     -3.253143648      -4.503099188      
                  -3.253143648      -4.503099188      0.03427464921     0.2103034971      
3655005130        0.06842883348     0.004384733678    -2.195313915      4.950952633       
                  -2.195313915      4.950952633       0.1343440383      -0.209002984      
3740005040        -0.07753295842    -0.09334013143    5.373494751       -0.254588358      
                  5.373494751       -0.254588358      -0.3109333011     -0.04018723041    
3825004950        -0.05941117871    0.03704577216     -2.981543357      -4.644497586      
                  -2.981543357      -4.644497586      0.1133869543      0.1760811353      
3910004860        0.06363184553     0.03823608975     -2.619011024      4.726703735       
                  -2.619011024      4.726703735       0.05119647093     -0.259762569      
3995004770        -0.03048312071    -0.1122258259     5.40595466        0.06765741352     
                  5.40595466        0.06765741352     -0.3049502295     0.06461454762     
4080004680        -0.08490341374    0.007083502034    -2.707744417      -4.812624482      
                  -2.707744417      -4.812624482      0.190346033       0.1289701433      
4165004590        0.03894883428     0.07048031921     -2.87666384       4.588993133       
                  -2.87666384       4.588993133       -0.04595591734    -0.2708956198     
4250004500        0.01175858124     -0.0875609091     5.494533003       0.3069663558      
                  5.494533003       0.3069663558      -0.2654670568     0.1746796416      
4335004410        -0.1019082505     -0.02104316103    -2.451425213      -4.921581909      
                  -2.451425213      -4.921581909      0.2292608095      0.04403497594     
4420004320        -0.007817842194   0.08320191998     -3.079505326      4.479733696       
                  -3.079505326      4.479733696       -0.165118721      -0.2496228993     
4505004230        0.03828253775     -0.05667556077    5.4488934         0.4916222744      
                  5.4488934         0.4916222744      -0.1966447376     0.2591146221      
4590004140        -0.0999848771     -0.05174190626    -2.186766038      -4.961552203      
                  -2.186766038      -4.961552203      0.2296036496      -0.05707600483    
4675004050        -0.04509020946    0.06998062747     -3.180648389      4.360999998       
                  -3.180648389      4.360999998       -0.2549250482     -0.1914004534     
4760003960        0.05654184939     -0.01670944799    5.299162972       0.7260016398      
                  5.299162972       0.7260016398      -0.08634628284    0.3106718114      
4845003870        -0.07677548866    -0.0683571299     -1.937471213      -5.012962906      
                  -1.937471213      -5.012962906      0.2001617207      -0.1551943164     
4930003780        -0.07592632213    0.0404132751      -3.360520716      4.187108684       
                  -3.360520716      4.187108684       -0.3191010071     -0.09902564294    
5015003690        0.04951006624     0.03785557933     5.174105869       0.9678328012      
                  5.174105869       0.9678328012      0.03595929836     0.3346632676      
5100003600        -0.05108371491    -0.05559753633    -1.766666402      -5.086811441      
                  -1.766666402      -5.086811441      0.1195341528      -0.2292833194     
5185003510        -0.09034128767    0.00439949439     -3.426819684      3.957465784       
                  -3.426819684      3.957465784       -0.3496327281     0.01204704243     
5270003420        0.01402512455     0.0715910076      5.040245775       1.195588064       
                  5.040245775       1.195588064       0.1499006775      0.2995941899      
5355003330        -0.04181070491    -0.02140775702    -1.654520298      -5.14998449       
                  -1.654520298      -5.14998449       -0.002851340204   -0.2791617426     
5440003240        -0.0711125376     -0.04029834168    -3.367014537      3.792999568       
                  -3.367014537      3.792999568       -0.3187747163     0.1318163094      
5525003150        -0.01888761997    0.06000570464     5.023813899       1.314150697       
                  5.023813899       1.314150697       0.2685154422      0.2018531789      
5610003060        -0.03966670541    0.02827428122     -1.598042951      -4.990419006      
                  -1.598042951      -4.990419006      -0.136755631      -0.2674689449     
5695002970        -0.01311150004    -0.04277418371    -3.368254729      3.575451652       
                  -3.368254729      3.575451652       -0.2208705135     0.251880983       
5780002880        -0.0262490716     0.02312155785     4.976688839       1.408594477       
                  4.976688839       1.408594477       0.3296031834      0.05743973458     
5865002790        -0.07745060529    0.07588669332     -1.497694649      -4.725340722      
                  -1.497694649      -4.725340722      -0.272820154      -0.1854734435     
5950002700        0.03737627057     0.005438820865    -3.400484949      3.367553281       
                  -3.400484949      3.367553281       -0.08332746572    0.3327533702      
6035002610        -0.0188175527     -0.03975794623    4.763766582       1.301816271       
                  4.763766582       1.301816271       0.2979062839      -0.097956626      
6120002520        -0.1450257229     0.07317989894     -1.380012092      -4.471672209      
                  -1.380012092      -4.471672209      -0.358561477      -0.04601730419    
6205002430        0.07209987814     0.0877213478      -3.288296967      3.169040573       
                  -3.288296967      3.169040573       0.1025627422      0.3355469688      
6290002340        0.0607933396      -0.09277241918    4.540572653       1.159067401       
                  4.540572653       1.159067401       0.1943583195      -0.2479536544     
6375002250        -0.2160073954     0.008694463155    -1.288113544      -4.166279469      
                  -1.288113544      -4.166279469      -0.3768644587     0.1305401096      
6460002160        0.02871355727     0.2063939998      -3.023015582      2.95374801        
                  -3.023015582      2.95374801        0.2691867346      0.2712163391      
6545002070        0.1750277049      -0.05875241397    4.097708531       1.061873844       
                  4.097708531       1.061873844       0.0288183384      -0.3170642165     
6630001980        -0.2054745114     -0.1104609452     -1.125699992      -3.831816837      
                  -1.125699992      -3.831816837      -0.297450761      0.2997860386      
6715001890        -0.07080219342    0.2722779961      -2.704911637      2.627135648       
                  -2.704911637      2.627135648       0.379776139       0.1535217952      
6800001800        0.2652471817      0.05086431359     3.619626646       1.090994926       
                  3.619626646       1.090994926       -0.1312309502     -0.3080265388     
6885001710        -0.1034166487     -0.241243595      -0.8540841027     -3.487035155      
                  -0.8540841027     -3.487035155      -0.1840476332     0.3821315257      
6970001620        -0.2056301169     0.2335483377      -2.618477912      2.241870428       
                  -2.618477912      2.241870428       0.4210675409      0.01998140658     
7055001530        0.2630596319      0.2047116618      3.220156943       1.233047394       
                  3.220156943       1.233047394       -0.2561970774     -0.2716289641     
7140001440        0.08132768229     -0.2998734825     -0.5281126231     -3.217781337      
                  -0.5281126231     -3.217781337      -0.06587020873    0.4475817858      
7225001350        -0.2940435947     0.09111113451     -2.559995713      1.87892041        
                  -2.559995713      1.87892041        0.4481830756      -0.1051062528     
7310001260        0.1727455284      0.3392982675      2.841683768       1.135446076       
                  2.841683768       1.135446076       -0.3517503025     -0.1856105718     
7395001170        0.2849867782      -0.2296841844     -0.2695200375     -2.946804438      
                  -0.2695200375     -2.946804438      0.08220651003     0.4772701802      
7480001080        -0.2983464222     -0.1073789524     -2.40733081       1.630992603       
                  -2.40733081       1.630992603       0.395073161       -0.238420276      
7565000990        -0.02960216845    0.4028665359      2.632590197       1.162246834       
                  2.632590197       1.162246834       -0.4270588554     -0.08340787024    
7650000900        0.4002773591      -0.0568147821     -0.05210463192    -2.618336983      
                  -0.05210463192    -2.618336983      0.2111246988      0.4393623647      
7735000810        -0.1601095514     -0.3069500229     -2.297516529      1.345121053       
                  -2.297516529      1.345121053       0.3174714235      -0.3457660999     
7820000720        -0.2055412825     0.3174612456      2.27641922        1.237149435       
                  2.27641922        1.237149435       -0.404375031      0.02623325766     
7905000630        0.4160000346      0.1372249349      0.0881193973      -2.301397933      
                  0.0881193973      -2.301397933      0.3256048684      0.3629979284      
7990000540        0.06599057816     -0.3916499209     -2.218504171      0.9284832214      
                  -2.218504171      0.9284832214      0.220526937       -0.4061955471     
8075000450        -0.3503439921     0.1188896134      1.906859708       1.434493883       
                  1.906859708       1.434493883       -0.3855226322     0.1171857558      
8160000360        0.2967210743      0.3125916627      0.2490239542      -2.181072591      
                  0.2490239542      -2.181072591      0.3981909906      0.2797808467      
8245000270        0.2556243692      -0.3340213715     -2.02369207       0.6165493431      
                  -2.02369207       0.6165493431      0.1151097661      -0.4394599644     
8330000180        -0.3604146184     -0.1290523329     1.618980992       1.481395918       
                  1.618980992       1.481395918       -0.3381256484     0.1920753434      
8415000090        0.07711365316     0.3919513022      0.3957613345      -1.983431083      
                  0.3957613345      -1.983431083      0.4368011478      0.1699847966      
8500000000        0.38419888        -0.1829586802     -1.826761365      0.4359844182      
                  -1.826761365      0.4359844182      -0.000767070163   -0.4595912713     
