! RsaToolbox (C) 2013 Rohde & Schwarz America
! 
! Number of points: 101
! Number of ports: 2
! Balanced ports?: 0
! 
! 
# Hz S RI R 50
9000              1.007920547       -0.02004878157    0.0001082754472   -1.071905524e-06  
                  0.0001082754472   -1.071905524e-06  1.017562368       -0.02446883505    
85008910          0.001955733718    0.1580970226      3.193415321       5.494971141       
                  3.193415321       5.494971141       -0.09236863897    -0.1158481439     
170008820         0.1416261878      -0.04354466238    3.180452879       -5.219687258      
                  3.180452879       -5.219687258      -0.02063044761    0.1716198306      
255008730         -0.1753246877     -0.07564759307    -6.051866213      -0.1613621211     
                  -6.051866213      -0.1613621211     0.0777493803      -0.0265161464     
340008640         -0.06356600153    0.1689149178      2.653601427       5.346328637       
                  2.653601427       5.346328637       -0.1265997502     -0.05389640096    
425008550         0.1587353964      -0.04616461559    3.38062607        -4.867092627      
                  3.38062607        -4.867092627      0.01661592833     0.1029181853      
510008460         -0.1011683336     -0.1628486381     -5.900247399      -0.6382920418     
                  -5.900247399      -0.6382920418     0.07081068646     -0.07978665141    
595008370         -0.1071043311     0.1390371307      2.233257786       5.418480105       
                  2.233257786       5.418480105       -0.08373538876    -0.01210083361    
680008280         0.2036129792      0.03383541479     3.653477548       -4.576495719      
                  3.653477548       -4.576495719      0.09216473009     0.07537544519     
765008190         0.009723672891    -0.1629698741     -5.727931055      -1.094157618      
                  -5.727931055      -1.094157618      0.06017666606     -0.06062377048    
850008100         -0.1812686369     0.1109697314      1.877199788       5.515568955       
                  1.877199788       5.515568955       -0.07173409874    0.06506886723     
935008010         0.1450128066      0.1230940239      3.936945328       -4.233017401      
                  3.936945328       -4.233017401      0.1019988989      0.03885375506     
1020007920        0.07532794451     -0.1530783982     -5.585129191      -1.438345246      
                  -5.585129191      -1.438345246      -0.004711116621   -0.07557894843    
1105007830        -0.2245107807     -0.008306867359   1.49079748        5.606506798       
                  1.49079748        5.606506798       -0.06290108735    0.07527569245     
1190007740        0.07084719619     0.1395139958      4.183257875       -3.861278377      
                  4.183257875       -3.861278377      0.1242057204      -0.04255224457    
1275007650        0.163758344       -0.1080887151     -5.464169089      -1.818201969      
                  -5.464169089      -1.818201969      -0.03005226       -0.08913682033    
1360007560        -0.1627236561     -0.1003085478     1.053522281       5.633826125       
                  1.053522281       5.633826125       -0.005419768204   0.1017767565      
1445007470        0.0004530806915   0.1409623672      4.399585682       -3.544369763      
                  4.399585682       -3.544369763      0.1470578925      -0.08837526345    
1530007380        0.1836926124      -0.01100369636    -5.30417546       -2.173573403      
                  -5.30417546       -2.173573403      -0.0692833079     -0.06461792558    
1615007290        -0.09350877121    -0.1231573377     0.630233329       5.59241577        
                  0.630233329       5.59241577        0.02333597213     0.1422015157      
1700007200        -0.0880562068     0.09619995715     4.655438742       -3.247553433      
                  4.655438742       -3.247553433      0.1108815236      -0.1335658276     
1785007110        0.1270458762      0.03157207073     -5.060928324      -2.514604976      
                  -5.060928324      -2.514604976      -0.1317609519     -0.06417501992    
1870007020        -0.02158802547    -0.1346500888     0.2364270171      5.597053955       
                  0.2364270171      5.597053955       0.0657984089      0.1322166879      
1955006930        -0.1059711184     0.02066126        4.861835365       -2.894037777      
                  4.861835365       -2.894037777      0.0891973834      -0.1940154169     
2040006840        0.08164139451     0.03820263438     -4.824565468      -2.79709103       
                  -4.824565468      -2.79709103       -0.1547475335     -0.04166387183    
2125006750        0.03578758826     -0.09164339339    -0.1793411575     5.626005292       
                  -0.1793411575     5.626005292       0.1309727359      0.1369157565      
2210006660        -0.09085969175    -0.0009724519673  4.955590538       -2.540433499      
                  4.955590538       -2.540433499      0.04790482994     -0.2181444891     
2295006570        0.02884898557     0.03501288102     -4.592066373      -3.124912317      
                  -4.592066373      -3.124912317      -0.186242488      0.01533665163     
2380006480        0.02775579197     -0.05147484202    -0.5411961234     5.561385622       
                  -0.5411961234     5.561385622       0.1669843619      0.113998325       
2465006390        -0.086333382      -0.01562615852    5.031075761       -2.222750834      
                  5.031075761       -2.222750834      -0.0196307135     -0.2596255322     
2550006300        0.01169404267     -0.0005759701353  -4.28322278       -3.462705881      
                  -4.28322278       -3.462705881      -0.1909818972     0.06059436487     
2635006210        0.023685764       -0.04434761545    -0.8765962633     5.502016547       
                  -0.8765962633     5.502016547       0.2134455022      0.06422532618     
2720006120        -0.08123118097    -0.009306624655   5.105329137       -1.851711933      
                  5.105329137       -1.851711933      -0.09052190347    -0.2646335853     
2805006030        0.01845769416     -0.0015826613     -4.000215827      -3.705765057      
                  -4.000215827      -3.705765057      -0.1631980541     0.1234381848      
2890005940        0.01919590473     -0.0371434792     -1.213200108      5.375470213       
                  -1.213200108      5.375470213       0.232134681       0.009010681789    
2975005850        -0.09468329265    -0.006024264359   5.136437497       -1.394649785      
                  5.136437497       -1.394649785      -0.1622501295     -0.2476134963     
3060005760        0.02021286611     0.008858297931    -3.699911005      -4.04638425       
                  -3.699911005      -4.04638425       -0.1191248088     0.1686818275      
3145005670        0.03441984845     -0.04601884616    -1.608332508      5.221147397       
                  -1.608332508      5.221147397       0.231631191       -0.07148689461    
3230005580        -0.1022918632     -0.03093512605    5.24175454        -0.9927153161     
                  5.24175454        -0.9927153161     -0.2268499196     -0.2082425724     
3315005490        0.01374488925     0.0316832857      -3.428512153      -4.269201099      
                  -3.428512153      -4.269201099      -0.04591910117    0.2027467423      
3400005400        0.06025224046     -0.03156114027    -1.957764339      5.053392135       
                  -1.957764339      5.053392135       0.2016261238      -0.1450484081     
3485005310        -0.09951324706    -0.06201931634    5.338618303       -0.6306811144     
                  5.338618303       -0.6306811144     -0.2819596008     -0.129904732      
3570005220        -0.01775017552    0.05048518851     -3.250654593      -4.452344784      
                  -3.250654593      -4.452344784      0.03359384169     0.2109057777      
3655005130        0.06919756841     0.0009025579256   -2.149089141      4.918482763       
                  -2.149089141      4.918482763       0.1352457635      -0.2083699589     
3740005040        -0.07980845478    -0.09254049196    5.325549634       -0.280911705      
                  5.325549634       -0.280911705      -0.3120733457     -0.03974709024    
3825004950        -0.057280388      0.03975027172     -2.982296902      -4.575985903      
                  -2.982296902      -4.575985903      0.1133914095      0.1762070863      
3910004860        0.06613403466     0.03478736839     -2.561196761      4.697016187       
                  -2.561196761      4.697016187       0.05049856267     -0.2590144716     
3995004770        -0.0342501806     -0.1123045711     5.350292961       0.03337334862     
                  5.350292961       0.03337334862     -0.3054187519     0.06535790636     
4080004680        -0.08462418989    0.01179266422     -2.706937027      -4.744923518      
                  -2.706937027      -4.744923518      0.19083862        0.1282907166      
4165004590        0.04312076531     0.06858767332     -2.828850429      4.553867209       
                  -2.828850429      4.553867209       -0.04634774281    -0.2717799535     
4250004500        0.008659262602    -0.09078092743    5.43357351        0.2807997779      
                  5.43357351        0.2807997779      -0.2658250815     0.1756448734      
4335004410        -0.1033922547     -0.01592408503    -2.451861275      -4.848452182      
                  -2.451861275      -4.848452182      0.2299624967      0.04492423545     
4420004320        -0.002957164066   0.0838825086      -3.019054194      4.440279984       
                  -3.019054194      4.440279984       -0.1638230139     -0.2508800333     
4505004230        0.03654599309     -0.06140333431    5.376344049       0.4505303426      
                  5.376344049       0.4505303426      -0.1967527493     0.2590321109      
4590004140        -0.1040827493     -0.04894876758    -2.188889889      -4.876102278      
                  -2.188889889      -4.876102278      0.2296067146      -0.05762473524    
4675004050        -0.04056825598    0.07307783864     -3.105120441      4.320257702       
                  -3.105120441      4.320257702       -0.2552874861     -0.1913046734     
4760003960        0.05780178826     -0.02152038075    5.222513078       0.6793681953      
                  5.222513078       0.6793681953      -0.08645017073    0.3111336352      
4845003870        -0.0820384006     -0.06731549815    -1.943097168      -4.917326106      
                  -1.943097168      -4.917326106      0.2003643773      -0.1549841033     
4930003780        -0.07345156299    0.04584745153     -3.278262951      4.13398467        
                  -3.278262951      4.13398467        -0.3195718817     -0.09968118196    
5015003690        0.05341885098     0.03247204563     5.092220883       0.9157460822      
                  5.092220883       0.9157460822      0.03559017169     0.3346064814      
5100003600        -0.05807720912    -0.05808598061    -1.774072504      -4.974489918      
                  -1.774072504      -4.974489918      0.1195632126      -0.2293052704     
5185003510        -0.09041198576    0.01062771582     -3.324893633      3.9083305         
                  -3.324893633      3.9083305         -0.3496882445     0.0113685783      
5270003420        0.02028848856     0.06826010212     4.952411623       1.141965846       
                  4.952411623       1.141965846       0.1497683642      0.2997465017      
5355003330        -0.04739636997    -0.02759711857    -1.664628472      -5.017866768      
                  -1.664628472      -5.017866768      -0.002077660853   -0.2791773693     
5440003240        -0.07421213207    -0.03274953666    -3.271546022      3.739712937       
                  -3.271546022      3.739712937       -0.3194830925     0.1320432991      
5525003150        -0.01158201171    0.06020879142     4.928301441       1.25309737        
                  4.928301441       1.25309737        0.2689593593      0.2015788282      
5610003060        -0.04098716968    0.02041277799     -1.604108208      -4.857907301      
                  -1.604108208      -4.857907301      -0.1368316639     -0.2677970069     
5695002970        -0.01932448388    -0.03793564662    -3.268318571      3.520138274       
                  -3.268318571      3.520138274       -0.2212917035     0.2529302823      
5780002880        -0.0192750274     0.02649296522     4.868430832       1.338856017       
                  4.868430832       1.338856017       0.3295274218      0.05808952712     
5865002790        -0.07545573894    0.06841776385     -1.496974332      -4.601608905      
                  -1.496974332      -4.601608905      -0.2722404879     -0.1855320603     
5950002700        0.02900627479     0.007359198513    -3.299163657      3.311781649       
                  -3.299163657      3.311781649       -0.08293425802    0.3331606583      
6035002610        -0.01397832       -0.03272609191    4.648581291       1.238794273       
                  4.648581291       1.238794273       0.2986490008      -0.09737752028    
6120002520        -0.1402209653     0.06750511837     -1.372707841      -4.353229043      
                  -1.372707841      -4.353229043      -0.3585939477     -0.04560438552    
6205002430        0.06392855973     0.08706494319     -3.194302335      3.106737196       
                  -3.194302335      3.106737196       0.1020012928      0.337595888       
6290002340        0.06155013539     -0.0831136268     4.424535812       1.112975169       
                  4.424535812       1.112975169       0.1947327259      -0.2484389254     
6375002250        -0.208647742      0.004888488254    -1.266734027      -4.074418694      
                  -1.266734027      -4.074418694      -0.3758824863     0.1297837134      
6460002160        0.02434387877     0.201992132       -2.966238565      2.908913484       
                  -2.966238565      2.908913484       0.270968675       0.2723741645      
6545002070        0.1740583174      -0.05303914303    4.034458201       1.02973632        
                  4.034458201       1.02973632        0.02882951794     -0.3200609226     
6630001980        -0.2003694599     -0.1113054807     -1.119100193      -3.781994831      
                  -1.119100193      -3.781994831      -0.2989612733     0.3021401736      
6715001890        -0.0744395331     0.2695565919      -2.680084513      2.596535846       
                  -2.680084513      2.596535846       0.3838893814      0.1562691775      
6800001800        0.2615149829      0.05967915923     3.567509881       1.097204107       
                  3.567509881       1.097204107       -0.1313266667     -0.3089059105     
6885001710        -0.09754808196    -0.2382206968     -0.8086644176     -3.448322031      
                  -0.8086644176     -3.448322031      -0.1880583814     0.3881564241      
6970001620        -0.2096432819     0.228406156       -2.601260514      2.19622918        
                  -2.601260514      2.19622918        0.423465695       0.02347544579     
7055001530        0.258281624       0.2092505142      3.180244365       1.222482331       
                  3.180244365       1.222482331       -0.2570949078     -0.2713636856     
7140001440        0.08437087976     -0.2960205812     -0.5327332234     -3.193430764      
                  -0.5327332234     -3.193430764      -0.06334094927    0.4539705124      
7225001350        -0.2951034013     0.09230867068     -2.551718894      1.876400171       
                  -2.551718894      1.876400171       0.4527220646      -0.1034363721     
7310001260        0.1661748427      0.3466366742      2.836254534       1.151931829       
                  2.836254534       1.151931829       -0.358534544      -0.1851292293     
7395001170        0.2858721981      -0.2237167292     -0.2415804264     -2.937467241      
                  -0.2415804264     -2.937467241      0.077220309       0.482190067       
7480001080        -0.2959276185     -0.1134883783     -2.391858478      1.592930576       
                  -2.391858478      1.592930576       0.3948857633      -0.2371219576     
7565000990        -0.03418677778    0.3980299805      2.589985032       1.156623679       
                  2.589985032       1.156623679       -0.4249872997     -0.0843495596     
7650000900        0.3999267015      -0.0538066528     -0.04977466173    -2.591550935      
                  -0.04977466173    -2.591550935      0.2129715083      0.4388619452      
7735000810        -0.1588340382     -0.3069343846     -2.283919612      1.333071033       
                  -2.283919612      1.333071033       0.3173910999      -0.3463734371     
7820000720        -0.2087619869     0.3151361774      2.259212144       1.237585772       
                  2.259212144       1.237585772       -0.4060203878     0.02505495652     
7905000630        0.4130122352      0.1402464182      0.1011545634      -2.288258796      
                  0.1011545634      -2.288258796      0.3243240058      0.3625424186      
7990000540        0.06815682781     -0.3901114524     -2.204896245      0.9139370229      
                  -2.204896245      0.9139370229      0.2215959551      -0.4071679519     
8075000450        -0.3506986028     0.1178898089      1.892573029       1.431094074       
                  1.892573029       1.431094074       -0.3881294713     0.1187489669      
8160000360        0.2954024793      0.3141289811      0.2560276294      -2.179574034      
                  0.2560276294      -2.179574034      0.3994578229      0.280025964       
8245000270        0.2586337042      -0.3358166285     -2.032766319      0.6084040909      
                  -2.032766319      0.6084040909      0.1144234434      -0.4441721888     
8330000180        -0.3653592651     -0.1337445721     1.626961804       1.497001714       
                  1.626961804       1.497001714       -0.3433163631     0.1935439117      
8415000090        0.0770113952      0.3928187301      0.3879214175      -1.989184381      
                  0.3879214175      -1.989184381      0.4358767656      0.1677063136      
8500000000        0.3832189166      -0.1849254851     -1.827781924      0.4412396172      
                  -1.827781924      0.4412396172      -0.003824087672   -0.4605644785     
