! RsaToolbox (C) 2013 Rohde & Schwarz America
! 
! Number of points: 101
! Number of ports: 2
! Balanced ports?: 0
! 
! 
# Hz S RI R 50
9000              1.014299261       -0.02527505397    9.229746362e-05   -8.83750812e-05   
                  9.229746362e-05   -8.83750812e-05   1.021544584       -0.02309113853    
85008910          0.002802115992    0.1593816627      3.194301543       5.527011026       
                  3.194301543       5.527011026       -0.09253825658    -0.1153409026     
170008820         0.14272049        -0.04433844509    3.194912537       -5.226429751      
                  3.194912537       -5.226429751      -0.02003726048    0.1717848517      
255008730         -0.1764348389     -0.07639304076    -6.061975         -0.1759315159     
                  -6.061975         -0.1759315159     0.07752398717     -0.02625836067    
340008640         -0.06353950978    0.1705721081      2.648969717       5.364243165       
                  2.648969717       5.364243165       -0.1263639324     -0.05353716515    
425008550         0.1594507298      -0.04673451092    3.39864633        -4.867524979      
                  3.39864633        -4.867524979      0.01650642748     0.1033083089      
510008460         -0.1017987481     -0.1638275414     -5.913325537      -0.652346573      
                  -5.913325537      -0.652346573      0.07108857433     -0.08026557259    
595008370         -0.1072214658     0.1402359252      2.223870031       5.437894718       
                  2.223870031       5.437894718       -0.08350178514    -0.01226016345    
680008280         0.2047143726      0.03413232222     3.673479555       -4.575574072      
                  3.673479555       -4.575574072      0.09215000898     0.07548325994     
765008190         0.009670305595    -0.1639602756     -5.735408337      -1.117649326      
                  -5.735408337      -1.117649326      0.06024894249     -0.06054099881    
850008100         -0.1822122331     0.1118733322      1.864483625       5.533424114       
                  1.864483625       5.533424114       -0.07131984828    0.06514562877     
935008010         0.1457317273      0.1239517811      3.955415354       -4.231414457      
                  3.955415354       -4.231414457      0.102168725       0.03912680737     
1020007920        0.07612005937     -0.1543641827     -5.595478962      -1.454158665      
                  -5.595478962      -1.454158665      -0.004723990815   -0.07509071871    
1105007830        -0.2253623925     -0.007619183312   1.474455416       5.627047524       
                  1.474455416       5.627047524       -0.06318097974    0.07529590053     
1190007740        0.07117727091     0.1407313644      4.209820062       -3.854591282      
                  4.209820062       -3.854591282      0.1243757731      -0.04259218879    
1275007650        0.1643165527      -0.1095289894     -5.472973719      -1.835126154      
                  -5.472973719      -1.835126154      -0.02969269729    -0.08917137756    
1360007560        -0.1641248867     -0.1007745585     1.03761764        5.650331587       
                  1.03761764        5.650331587       -0.005279498618   0.101293989       
1445007470        0.0005505050617   0.1418159107      4.414915758       -3.541255754      
                  4.414915758       -3.541255754      0.1472159255      -0.08861195084    
1530007380        0.1855041905      -0.01175093966    -5.311648882      -2.196907752      
                  -5.311648882      -2.196907752      -0.06907310129    -0.06463580855    
1615007290        -0.09470690525    -0.1243577526     0.6149648794      5.61051093        
                  0.6149648794      5.61051093        0.02309757276     0.1415904733      
1700007200        -0.08859403054    0.09798293271     4.678304293       -3.244269583      
                  4.678304293       -3.244269583      0.110521778       -0.1335342526     
1785007110        0.1290025086      0.03201687911     -5.063902596      -2.538801554      
                  -5.063902596      -2.538801554      -0.1321859921     -0.06379349576    
1870007020        -0.0216482318     -0.1366562308     0.221542091       5.615922009       
                  0.221542091       5.615922009       0.06619204644     0.1316923656      
1955006930        -0.1077309436     0.02207170698     4.885582752       -2.887098254      
                  4.885582752       -2.887098254      0.08871410695     -0.193780408      
2040006840        0.08361026965     0.03978202234     -4.829487203      -2.821221504      
                  -4.829487203      -2.821221504      -0.1546447529     -0.04157572484    
2125006750        0.03594533757     -0.09385786023    -0.1960305013     5.644738709       
                  -0.1960305013     5.644738709       0.1310378172      0.1366109024      
2210006660        -0.0933474229     -0.0008504252669  4.980180554       -2.528401972      
                  4.980180554       -2.528401972      0.04802449609     -0.2181439278     
2295006570        0.02993272275     0.03739880172     -4.599465167      -3.151247356      
                  -4.599465167      -3.151247356      -0.1866526712     0.01544777339     
2380006480        0.02943910498     -0.0527354826     -0.5616437467     5.581129566       
                  -0.5616437467     5.581129566       0.1669182298      0.1138953718      
2465006390        -0.08890943179    -0.01654211926    5.059035622       -2.211539929      
                  5.059035622       -2.211539929      -0.01984797922    -0.2595908041     
2550006300        0.01243035572     0.002231815106    -4.289031414      -3.491784053      
                  -4.289031414      -3.491784053      -0.1911910089     0.06056209876     
2635006210        0.02669956242     -0.04511092234    -0.9047573272     5.524643146       
                  -0.9047573272     5.524643146       0.2137473038      0.0641966469      
2720006120        -0.08265214889    -0.01125597524    5.13790988        -1.8371035        
                  5.13790988        -1.8371035        -0.0907800605     -0.2647752524     
2805006030        0.01790328935     0.0005804320138   -4.005158381      -3.740056953      
                  -4.005158381      -3.740056953      -0.1631533346     0.1234650075      
2890005940        0.02237501007     -0.03628046079    -1.242220615      5.39689431        
                  -1.242220615      5.39689431        0.2318886066      0.008445091137    
2975005850        -0.09515299899    -0.009038995807   5.165824474       -1.384087113      
                  5.165824474       -1.384087113      -0.1625198996     -0.2469220983     
3060005760        0.01783203786     0.010425513       -3.709984975      -4.086658503      
                  -3.709984975      -4.086658503      -0.1188909394     0.1683997518      
3145005670        0.03701850867     -0.04436490658    -1.642218612      5.249820502       
                  -1.642218612      5.249820502       0.2317203767      -0.07165248089    
3230005580        -0.101663806      -0.03410151161    5.275512842       -0.9831437073     
                  5.275512842       -0.9831437073     -0.2266941624     -0.2079970014     
3315005490        0.01073716621     0.03174861257     -3.4334263        -4.310091502      
                  -3.4334263        -4.310091502      -0.045560984      0.2024737257      
3400005400        0.06157879079     -0.02842850757    -1.995831279      5.079371577       
                  -1.995831279      5.079371577       0.2019846194      -0.144837939      
3485005310        -0.09766630913    -0.06426728548    5.381075598       -0.614761835      
                  5.381075598       -0.614761835      -0.2825612977     -0.1293950768     
3570005220        -0.02011487785    0.04888688363     -3.252461005      -4.503296642      
                  -3.252461005      -4.503296642      0.03302972932     0.2111289365      
3655005130        0.06903265933     0.004249707454    -2.193666634      4.947800654       
                  -2.193666634      4.947800654       0.1349347757      -0.2083790298     
3740005040        -0.07629653839    -0.09324250287    5.369374307       -0.2578553646     
                  5.369374307       -0.2578553646     -0.3118519772     -0.03962376563    
3825004950        -0.0589002111     0.03728268846     -2.979166634      -4.638900446      
                  -2.979166634      -4.638900446      0.113305054       0.1759283431      
3910004860        0.06388238764     0.03688652037     -2.617988778      4.725971478       
                  -2.617988778      4.725971478       0.05091227084     -0.2587716718     
3995004770        -0.03079871126    -0.1116551849     5.406292846       0.06740846078     
                  5.406292846       0.06740846078     -0.3051309101     0.06528434437     
4080004680        -0.08457896124    0.007205871784    -2.709285449      -4.810575749      
                  -2.709285449      -4.810575749      0.1907655609      0.127524343       
4165004590        0.03843051103     0.07065574095     -2.877080965      4.59188272        
                  -2.877080965      4.59188272        -0.04703205536    -0.2718396613     
4250004500        0.01177858529     -0.08773345073    5.495266393       0.3089180284      
                  5.495266393       0.3089180284      -0.2655972749     0.1751167892      
4335004410        -0.1006785365     -0.01973392854    -2.449597135      -4.922578408      
                  -2.449597135      -4.922578408      0.2295429068      0.04469119981     
4420004320        -0.00722108681    0.08347993033     -3.079694164      4.478945338       
                  -3.079694164      4.478945338       -0.1639824194     -0.2507961197     
4505004230        0.03785132305     -0.05649831868    5.444785849       0.4911114431      
                  5.444785849       0.4911114431      -0.195655331      0.2589552018      
4590004140        -0.09949555588    -0.05233818001    -2.186222806      -4.960485169      
                  -2.186222806      -4.960485169      0.2299623625      -0.0568042807     
4675004050        -0.04491875358    0.069610779       -3.180336278      4.362936883       
                  -3.180336278      4.362936883       -0.2557728238     -0.1904469915     
4760003960        0.0568578607      -0.01580953755    5.298959469       0.7251121156      
                  5.298959469       0.7251121156      -0.08662408698    0.3111188369      
4845003870        -0.07615074813    -0.06800379727    -1.937943618      -5.010174399      
                  -1.937943618      -5.010174399      0.1999656609      -0.1548131967     
4930003780        -0.07631952397    0.04034273522     -3.36681432       4.176847571       
                  -3.36681432       4.176847571       -0.3199320958     -0.09914740511    
5015003690        0.04958479983     0.03756421467     5.17058298        0.9656780994      
                  5.17058298        0.9656780994      0.0355571887      0.3343807814      
5100003600        -0.05169605984    -0.05601058213    -1.766277944      -5.082911618      
                  -1.766277944      -5.082911618      0.1191351495      -0.2296897396     
5185003510        -0.09052433288    0.003480806823    -3.418590689      3.957041017       
                  -3.418590689      3.957041017       -0.3491721        0.01194903468     
5270003420        0.01412591546     0.07148494443     5.038917672       1.199888745       
                  5.038917672       1.199888745       0.1493022385      0.2999844074      
5355003330        -0.04229606031    -0.02155911608    -1.651331039      -5.145587123      
                  -1.651331039      -5.145587123      -0.002362155508   -0.2794775013     
5440003240        -0.07097955399    -0.03982444754    -3.365194107      3.791862502       
                  -3.365194107      3.791862502       -0.3189453986     0.1316433139      
5525003150        -0.01867482802    0.0603331422      5.021663482       1.308788574       
                  5.021663482       1.308788574       0.2690010894      0.2011014373      
5610003060        -0.03929499136    0.02824374682     -1.595940574      -4.987560141      
                  -1.595940574      -4.987560141      -0.1373438767     -0.266802129      
5695002970        -0.01310764324    -0.04304204314    -3.364357621      3.5702242         
                  -3.364357621      3.5702242         -0.2211195525     0.2533345423      
5780002880        -0.02624521755    0.02293653019     4.973550811       1.407525391       
                  4.973550811       1.407525391       0.3293964025      0.05771333965     
5865002790        -0.07727151146    0.07643687579     -1.4968473        -4.723230308      
                  -1.4968473        -4.723230308      -0.2726851976     -0.1851242408     
5950002700        0.03692414309     0.005731756113    -3.40082441       3.367069604       
                  -3.40082441       3.367069604       -0.08279479866    0.3329881721      
6035002610        -0.01818200573    -0.03953956058    4.759253664       1.303571466       
                  4.759253664       1.303571466       0.2977397747      -0.09746752635    
6120002520        -0.1452825351     0.07380366135     -1.380568444      -4.46652608       
                  -1.380568444      -4.46652608       -0.3583237796     -0.04566934751    
6205002430        0.0718087212      0.08866851737     -3.286381948      3.159049317       
                  -3.286381948      3.159049317       0.102146757       0.3369766318      
6290002340        0.06055347202     -0.09141818205    4.531912334       1.164080417       
                  4.531912334       1.164080417       0.1944090639      -0.2477033132     
6375002250        -0.2157396366     0.008531217832    -1.28053355       -4.170260783      
                  -1.28053355       -4.170260783      -0.3758078431     0.1303528837      
6460002160        0.02956732675     0.2067497913      -3.037873048      2.957885316       
                  -3.037873048      2.957885316       0.2706517639      0.2722931881      
6545002070        0.1769572998      -0.06064616373    4.127481739       1.063854848       
                  4.127481739       1.063854848       0.02838097414     -0.320352251      
6630001980        -0.2074969203     -0.1108924479     -1.135848895      -3.860686579      
                  -1.135848895      -3.860686579      -0.2984420183     0.3023736239      
6715001890        -0.07183729986    0.2751254785      -2.735115931      2.639557092       
                  -2.735115931      2.639557092       0.3841109207      0.1549315233      
6800001800        0.266782974       0.05534392613     3.637851512       1.124961372       
                  3.637851512       1.124961372       -0.1316584774     -0.3089164744     
6885001710        -0.1039209229     -0.2413765382     -0.8229275878     -3.50975003       
                  -0.8229275878     -3.50975003       -0.1886689496     0.3877520542      
6970001620        -0.210338005      0.2344612662      -2.648358698      2.228381499       
                  -2.648358698      2.228381499       0.4233222431      0.02308203866     
7055001530        0.2636231009      0.2075552179      3.229450152       1.243945395       
                  3.229450152       1.243945395       -0.2569437089     -0.2707040151     
7140001440        0.08155370443     -0.3001265724     -0.5430077946     -3.234686432      
                  -0.5430077946     -3.234686432      -0.06309998696    0.454056753       
7225001350        -0.2969796386     0.09677234711     -2.5814573        1.903800392       
                  -2.5814573        1.903800392       0.4527683898      -0.1035814192     
7310001260        0.1708068763      0.3476048578      2.87130185        1.161285033       
                  2.87130185        1.161285033       -0.3580372714     -0.1847147651     
7395001170        0.285536889       -0.2280216053     -0.2490319479     -2.970095218      
                  -0.2490319479     -2.970095218      0.07786134929     0.4812258819      
7480001080        -0.299331683      -0.1106908005     -2.418797063      1.614468669       
                  -2.418797063      1.614468669       0.3952572868      -0.2375046865     
7565000990        -0.03079243522    0.4003295553      2.619503785       1.163207729       
                  2.619503785       1.163207729       -0.4251099018     -0.08470343263    
7650000900        0.4006360473      -0.05666486095    -0.05559313301    -2.613008338      
                  -0.05559313301    -2.613008338      0.2129375003      0.4386451721      
7735000810        -0.1618283457     -0.306745958      -2.299093275      1.351142008       
                  -2.299093275      1.351142008       0.317427227       -0.3463962139     
7820000720        -0.2068336802     0.3178389767      2.280438634       1.241623131       
                  2.280438634       1.241623131       -0.4054809157     0.02350804111     
7905000630        0.4148435691      0.1388409879      0.09567264204     -2.301577531      
                  0.09567264204     -2.301577531      0.3244719455      0.361566374       
7990000540        0.06561727772     -0.3909352363     -2.217494079      0.9274931924      
                  -2.217494079      0.9274931924      0.2218418997      -0.406852037      
8075000450        -0.3506308432     0.1198483331      1.910691469       1.433023202       
                  1.910691469       1.433023202       -0.3873855969     0.1195185341      
8160000360        0.2977503307      0.3132813247      0.2507824223      -2.191340904      
                  0.2507824223      -2.191340904      0.3997705673      0.2794774774      
8245000270        0.2586312431      -0.3370426824     -2.040404402      0.6164356778      
                  -2.040404402      0.6164356778      0.1154792896      -0.4436012756     
8330000180        -0.3668901059     -0.1326416296     1.640172396       1.498805647       
                  1.640172396       1.498805647       -0.3425258974     0.1929891818      
8415000090        0.07865439338     0.3926234781      0.3844870899      -1.998078157      
                  0.3844870899      -1.998078157      0.4355090217      0.1672040015      
8500000000        0.3834185097      -0.1862128655     -1.833594496      0.446601154       
                  -1.833594496      0.446601154       -0.003557078239   -0.4600668809     
