! RsaToolbox (C) 2013 Rohde & Schwarz America
! 
! Number of points: 101
! Number of ports: 2
! Balanced ports?: 0
! 
! 
# Hz S RI R 50
9000              1.010724192       -0.02088318379    5.647965413e-05   3.15350446e-06    
                  5.647965413e-05   3.15350446e-06    1.020852841       -0.02589000616    
85008910          0.002157028418    0.1586820971      3.194788142       5.503568726       
                  3.194788142       5.503568726       -0.09201897376    -0.1156392405     
170008820         0.1420387653      -0.04386032       3.183867613       -5.224567652      
                  3.183867613       -5.224567652      -0.02040122195    0.171742995       
255008730         -0.1757797054     -0.0757446897     -6.057958339      -0.162235695      
                  -6.057958339      -0.162235695      0.07759928086     -0.02650580293    
340008640         -0.06357821351    0.1694537886      2.655342577       5.351924477       
                  2.655342577       5.351924477       -0.1264679968     -0.05363097738    
425008550         0.1589886642      -0.0463730873     3.38323282        -4.871022012      
                  3.38323282        -4.871022012      0.0166245299      0.1027431359      
510008460         -0.1016145401     -0.1631597987     -5.90551119       -0.6395635137     
                  -5.90551119       -0.6395635137     0.0707902149      -0.07969467006    
595008370         -0.1072396475     0.1395351975      2.233496908       5.422812332       
                  2.233496908       5.422812332       -0.08376101594    -0.01215094727    
680008280         0.2039903372      0.0337549506      3.657713583       -4.578109645      
                  3.657713583       -4.578109645      0.0920246435      0.0752239989      
765008190         0.009578241952    -0.1634088983     -5.731478775      -1.097794049      
                  -5.731478775      -1.097794049      0.06004789789     -0.06056145689    
850008100         -0.1815632659     0.1112074478      1.874789949       5.520236084       
                  1.874789949       5.520236084       -0.07175264353    0.06489680326     
935008010         0.1452170714      0.1234101866      3.948029262       -4.227345881      
                  3.948029262       -4.227345881      0.1020483924      0.03893693961     
1020007920        0.07536477574     -0.1535164885     -5.588435825      -1.441460921      
                  -5.588435825      -1.441460921      -0.004792284365   -0.07571051765    
1105007830        -0.2250399091     -0.008395075005   1.484933878       5.612232857       
                  1.484933878       5.612232857       -0.06299068128    0.07520663498     
1190007740        0.0712249301      0.1400261294      4.189191789       -3.863227678      
                  4.189191789       -3.863227678      0.1243111659      -0.04272785253    
1275007650        0.1640117734      -0.1084201155     -5.468270139      -1.823860951      
                  -5.468270139      -1.823860951      -0.03011941151    -0.08917620112    
1360007560        -0.1630514471     -0.1004129035     1.049996775       5.639597218       
                  1.049996775       5.639597218       -0.005549747746   0.1018286119      
1445007470        0.0006376366626   0.1415870494      4.404951606       -3.544486105      
                  4.404951606       -3.544486105      0.147150555       -0.08828750058    
1530007380        0.1841776609      -0.01110285163    -5.307093242      -2.180114896      
                  -5.307093242      -2.180114896      -0.06927075194    -0.06460418348    
1615007290        -0.09390702352    -0.1235670965     0.6256601602      5.598348045       
                  0.6256601602      5.598348045       0.02324165993     0.1421201706      
1700007200        -0.08829812377    0.09678526523     4.662182151       -3.246393994      
                  4.662182151       -3.246393994      0.1109142647      -0.1333343581     
1785007110        0.1276133812      0.03166468649     -5.063631966      -2.52031836       
                  -5.063631966      -2.52031836       -0.1319063435     -0.06402874333    
1870007020        -0.02170461646    -0.1354220574     0.2314662327      5.602632762       
                  0.2314662327      5.602632762       0.06583390066     0.1321374375      
1955006930        -0.1063888728     0.02119568161     4.868353132       -2.89201444       
                  4.868353132       -2.89201444       0.08927337548     -0.193939944      
2040006840        0.08229870661     0.03878625484     -4.827022477      -2.805225141      
                  -4.827022477      -2.805225141      -0.1548368823     -0.04172487199    
2125006750        0.03604448758     -0.09235815437    -0.1824391221     5.630568235       
                  -0.1824391221     5.630568235       0.1310041771      0.1370277226      
2210006660        -0.09163348291    -0.0009548194421  4.963491974       -2.537137552      
                  4.963491974       -2.537137552      0.04799917254     -0.2180151097     
2295006570        0.02928150876     0.03584675493     -4.594056834      -3.133681394      
                  -4.594056834      -3.133681394      -0.1862455211     0.01526146817     
2380006480        0.02834274967     -0.05208787353    -0.5482055446     5.56801837        
                  -0.5482055446     5.56801837        0.1669926456      0.1139484539      
2465006390        -0.08728820988    -0.0161536541     5.041896452       -2.21961115       
                  5.041896452       -2.21961115       -0.01967740724    -0.259407193      
2550006300        0.01159986939     0.0004188045108   -4.285139951      -3.472393944      
                  -4.285139951      -3.472393944      -0.1909236505     0.06072051718     
2635006210        0.0247789257      -0.04477926354    -0.8859454225     5.508876126       
                  -0.8859454225     5.508876126       0.2135697257      0.06415012731     
2720006120        -0.08191103027    -0.01012778746    5.115416336       -1.846382374      
                  5.115416336       -1.846382374      -0.09045133851    -0.264568905      
2805006030        0.01801681054     -0.0006679973509  -3.999590171      -3.718356185      
                  -3.999590171      -3.718356185      -0.1630822087     0.1234493232      
2890005940        0.02048766577     -0.03715696016    -1.224533734      5.383168044       
                  -1.224533734      5.383168044       0.232019226       0.009050650657    
2975005850        -0.0946974501     -0.007185827687   5.146830651       -1.389625892      
                  5.146830651       -1.389625892      -0.1624176717     -0.2476094632     
3060005760        0.01935741295     0.009350946559    -3.701833912      -4.060257087      
                  -3.701833912      -4.060257087      -0.118997893      0.1687444414      
3145005670        0.03535985561     -0.04536599518    -1.621135295      5.230194791       
                  -1.621135295      5.230194791       0.2318913214      -0.07149488309    
3230005580        -0.1021188508     -0.03207485831    5.2549536         -0.9873776347     
                  5.2549536         -0.9873776347     -0.2268024344     -0.2080019113     
3315005490        0.01270152222     0.03187508861     -3.429554521      -4.284667091      
                  -3.429554521      -4.284667091      -0.0459034002     0.2026851756      
3400005400        0.06091597322     -0.03027041218    -1.973081223      5.062411028       
                  -1.973081223      5.062411028       0.2014283997      -0.1448179156     
3485005310        -0.09878239898    -0.06298093714    5.353036006       -0.6247618807     
                  5.353036006       -0.6247618807     -0.2822553478     -0.1295495454     
3570005220        -0.01898795747    0.04987907844     -3.24950116       -4.4710756        
                  -3.24950116       -4.4710756        0.03327183071     0.2107879122      
3655005130        0.06926688275     0.002433437681    -2.166646926      4.928330814       
                  -2.166646926      4.928330814       0.1345646877      -0.2086412737     
3740005040        -0.07843033608    -0.09314600048    5.34177809        -0.2704526849     
                  5.34177809        -0.2704526849     -0.3119373116     -0.03960792431    
3825004950        -0.05811315227    0.03835057456     -2.980450716      -4.599109999      
                  -2.980450716      -4.599109999      0.1134419522      0.1761406424      
3910004860        0.0651749644      0.03626608002     -2.582924207      4.7063963         
                  -2.582924207      4.7063963         0.05037584707     -0.2589169199     
3995004770        -0.03247225588    -0.1117389464     5.370802455       0.0479025202      
                  5.370802455       0.0479025202      -0.3052447907     0.06523498788     
4080004680        -0.08482556849    0.009972412083    -2.702975697      -4.769365803      
                  -2.702975697      -4.769365803      0.1905066937      0.128657189       
4165004590        0.0412591747      0.06972268329     -2.849659523      4.564340653       
                  -2.849659523      4.564340653       -0.04638363006    -0.2717448536     
4250004500        0.01018514444     -0.08964193515    5.454267282       0.2957269481      
                  5.454267282       0.2957269481      -0.2658865367     0.1758021901      
4335004410        -0.1025794132     -0.01797832679    -2.445769241      -4.87657152       
                  -2.445769241      -4.87657152       0.2299103935      0.04459072611     
4420004320        -0.005128347147   0.08389472247     -3.04631409       4.450304431       
                  -3.04631409       4.450304431       -0.1638381579     -0.2509355199     
4505004230        0.03758295453     -0.05905709087    5.400429974       0.4741539493      
                  5.400429974       0.4741539493      -0.1966174993     0.2591228456      
4590004140        -0.1020579406     -0.05061129065    -2.182515157      -4.908542026      
                  -2.182515157      -4.908542026      0.2295224875      -0.05776868994    
4675004050        -0.04306004083    0.07198692512     -3.137766558      4.331103617       
                  -3.137766558      4.331103617       -0.2553662676     -0.1912041883     
4760003960        0.05769985178     -0.0186091211     5.249753735       0.7030159512      
                  5.249753735       0.7030159512      -0.08639681587    0.3112034822      
4845003870        -0.07930441113    -0.0682800572     -1.934104403      -4.954759324      
                  -1.934104403      -4.954759324      0.2002877629      -0.1548348774     
4930003780        -0.07545168332    0.04330273486     -3.316755589      4.145381158       
                  -3.316755589      4.145381158       -0.3194690447     -0.09958834109    
5015003690        0.05184581521     0.03528706115     5.120139617       0.9419786587      
                  5.120139617       0.9419786587      0.03560416191     0.3345239151      
5100003600        -0.05480644164    -0.05753031344    -1.762789071      -5.019947419      
                  -1.762789071      -5.019947419      0.1196116361      -0.2293143387     
5185003510        -0.09100829221    0.00751520715     -3.367971683      3.921793678       
                  -3.367971683      3.921793678       -0.3495285424     0.01138577949     
5270003420        0.01746935197     0.07031152024     4.981948406       1.172927229       
                  4.981948406       1.172927229       0.14985812        0.299711183       
5355003330        -0.04439489894    -0.02536217561    -1.649572407      -5.071946421      
                  -1.649572407      -5.071946421      -0.002179332492   -0.2790640698     
5440003240        -0.07357140946    -0.03610661319    -3.31372699       3.753984874       
                  -3.31372699       3.753984874       -0.3195012469     0.1320964266      
5525003150        -0.01508471781    0.06119641402     4.960881142       1.285011571       
                  4.960881142       1.285011571       0.2690058238      0.2014019692      
5610003060        -0.03931521296    0.02379382107     -1.591129294      -4.912573144      
                  -1.591129294      -4.912573144      -0.1367391168     -0.2678075603     
5695002970        -0.01702483882    -0.04105445956    -3.312840564      3.535595658       
                  -3.312840564      3.535595658       -0.2212791725     0.2528982745      
5780002880        -0.02307471952    0.02553524508     4.907017974       1.376544598       
                  4.907017974       1.376544598       0.3295223908      0.05797080406     
5865002790        -0.07544031876    0.07211233583     -1.488406654      -4.654088982      
                  -1.488406654      -4.654088982      -0.272278408      -0.1852753285     
5950002700        0.0324013744      0.005676774203    -3.344842734      3.328022444       
                  -3.344842734      3.328022444       -0.0830732464     0.3330911939      
6035002610        -0.01688774905    -0.03527277241    4.69070269        1.27446273        
                  4.69070269        1.27446273        0.2988498826      -0.09693855923    
6120002520        -0.1418280767     0.07076824845     -1.367713863      -4.401757893      
                  -1.367713863      -4.401757893      -0.3583132906     -0.0455801001     
6205002430        0.06752029181     0.08697362498     -3.238132599      3.122780057       
                  -3.238132599      3.122780057       0.1018666147      0.3379127098      
6290002340        0.06025353553     -0.08653610928    4.467424156       1.144160444       
                  4.467424156       1.144160444       0.1949954829      -0.2480809959     
6375002250        -0.211280155      0.007024817589    -1.265002193      -4.116725527      
                  -1.265002193      -4.116725527      -0.3764544921     0.1300154249      
6460002160        0.02712116741     0.2033605557      -3.001776216      2.925097591       
                  -3.001776216      2.925097591       0.2709550091      0.27237825        
6545002070        0.1745778674      -0.05635731973    4.07070038        1.052721779       
                  4.07070038        1.052721779       0.02875252745     -0.3200959724     
6630001980        -0.2033251091     -0.1103947987     -1.119713285      -3.817328773      
                  -1.119713285      -3.817328773      -0.2989259177     0.3020924365      
6715001890        -0.07277568648    0.2718126513      -2.707401322      2.61083739        
                  -2.707401322      2.61083739        0.3839284559      0.1561328737      
6800001800        0.2632058104      0.05750020678     3.595930605       1.1152003         
                  3.595930605       1.1152003         -0.1313789463     -0.3087825992     
6885001710        -0.1001595703     -0.2389786788     -0.8094758395     -3.476570215      
                  -0.8094758395     -3.476570215      -0.1886615719     0.3880650002      
6970001620        -0.2091630657     0.2306108711      -2.623198131      2.20736768        
                  -2.623198131      2.20736768        0.4233611985      0.02353451398     
7055001530        0.2604342484      0.2079943107      3.200777892       1.235453674       
                  3.200777892       1.235453674       -0.2570408118     -0.2713909582     
7140001440        0.0829055843      -0.2972504473     -0.5332689885     -3.211907714      
                  -0.5332689885     -3.211907714      -0.06346785929    0.4540342742      
7225001350        -0.2954876742     0.09417642299     -2.566961401      1.884774456       
                  -2.566961401      1.884774456       0.4526916037      -0.1034627627     
7310001260        0.1681370648      0.3465563462      2.850540421       1.159530565       
                  2.850540421       1.159530565       -0.3586560739     -0.1848721017     
7395001170        0.2852604587      -0.2254356581     -0.2415236023     -2.952532058      
                  -0.2415236023     -2.952532058      0.07715126159     0.4820357273      
7480001080        -0.29722089       -0.1120044301     -2.405626264      1.599778126       
                  -2.405626264      1.599778126       0.3948823092      -0.2372236276     
7565000990        -0.03282486803    0.3985530677      2.602039071       1.163159679       
                  2.602039071       1.163159679       -0.424955057      -0.08451093963    
7650000900        0.4000677649      -0.0549184216     -0.05009963377    -2.601163824      
                  -0.05009963377    -2.601163824      0.2137607369      0.4390006399      
7735000810        -0.1598626734     -0.3066753706     -2.29196685       1.337996248       
                  -2.29196685       1.337996248       0.3172730831      -0.3464021827     
7820000720        -0.2079551094     0.3158125735      2.267511226       1.241686731       
                  2.267511226       1.241686731       -0.4060586218     0.02501345031     
7905000630        0.4134551832      0.1396138216      0.1008874488      -2.2945764        
                  0.1008874488      -2.2945764        0.3249933475      0.3624589818      
7990000540        0.06725482298     -0.3901930413     -2.211160572      0.9181139173      
                  -2.211160572      0.9181139173      0.2214985521      -0.4070746699     
8075000450        -0.3505271425     0.1188104921      1.898686763       1.433963342       
                  1.898686763       1.433963342       -0.3880899782     0.1189364161      
8160000360        0.296347759       0.3136070957      0.2556044442      -2.185256363      
                  0.2556044442      -2.185256363      0.3994038628      0.2800584787      
8245000270        0.2578688898      -0.336201725      -2.036849805      0.6107664172      
                  -2.036849805      0.6107664172      0.1142440797      -0.4439442616     
8330000180        -0.3662972504     -0.1325592153     1.63139523        1.499687667       
                  1.63139523        1.499687667       -0.3432837025     0.193331653       
8415000090        0.07773562907     0.392761211       0.3874718509      -1.993486113      
                  0.3874718509      -1.993486113      0.4360919064      0.1674892946      
8500000000        0.3829630791      -0.1852593016     -1.830397868      0.4428503498      
                  -1.830397868      0.4428503498      -0.004577896822   -0.4602233185     
