! RsaToolbox (C) 2013 Rohde & Schwarz America
! 
! Number of points: 101
! Number of ports: 2
! Balanced ports?: 0
! 
! 
# Hz S RI R 50
9000              1.007179563       -0.01627249779    7.766212986e-05   -1.926341912e-06  
                  7.766212986e-05   -1.926341912e-06  1.014470957       -0.02318254564    
85008910          0.001617539682    0.1573365922      3.191759895       5.481282414       
                  3.191759895       5.481282414       -0.09226343026    -0.1158342299     
170008820         0.1411223695      -0.04300333978    3.175594791       -5.214717618      
                  3.175594791       -5.214717618      -0.02060271672    0.1716336993      
255008730         -0.1747703137     -0.07535139777    -6.046289521      -0.1590228221     
                  -6.046289521      -0.1590228221     0.07769895956     -0.02669374779    
340008640         -0.06361889089    0.1683031928      2.65410503        5.339795763       
                  2.65410503        5.339795763       -0.126712815      -0.05380840856    
425008550         0.1580579367      -0.04594521458    3.374614989       -4.864677758      
                  3.374614989       -4.864677758      0.01656674074     0.1028491821      
510008460         -0.100798217      -0.1624215675     -5.896028941      -0.6343373969     
                  -5.896028941      -0.6343373969     0.0707492302      -0.07968736642    
595008370         -0.1067619473     0.1383194697      2.232873618       5.411643356       
                  2.232873618       5.411643356       -0.08374102082    -0.01209814305    
680008280         0.2029581272      0.03373885176     3.647720602       -4.575156227      
                  3.647720602       -4.575156227      0.09205984484     0.07541310155     
765008190         0.009847935375    -0.1623347405     -5.723149509      -1.089855166      
                  -5.723149509      -1.089855166      0.0601867966      -0.06062699162    
850008100         -0.1806926956     0.1105887829      1.879387224       5.509446286       
                  1.879387224       5.509446286       -0.07170408528    0.06500067444     
935008010         0.1443994869      0.122764617       3.930357845       -4.231621034      
                  3.930357845       -4.231621034      0.1021159236      0.03894810022     
1020007920        0.0751384157      -0.1524290325     -5.581233837      -1.43281344       
                  -5.581233837      -1.43281344       -0.004765971506   -0.07566168839    
1105007830        -0.2239605914     -0.008850546981   1.493357629       5.600511122       
                  1.493357629       5.600511122       -0.06307632354    0.07514269681     
1190007740        0.07051413296     0.1388289289      4.17694169        -3.859847199      
                  4.17694169        -3.859847199      0.1243364078      -0.04259608838    
1275007650        0.1633504889      -0.1074805177     -5.461366153      -1.81047264       
                  -5.461366153      -1.81047264       -0.03000262607    -0.0891238892     
1360007560        -0.1620581938     -0.09999690872    1.058452293       5.627351803       
                  1.058452293       5.627351803       -0.00558057089    0.101709491       
1445007470        0.0005564011337   0.1401743988      4.390611155       -3.544773273      
                  4.390611155       -3.544773273      0.1472137431      -0.08832201234    
1530007380        0.1829412996      -0.01078604034    -5.301095556      -2.166392982      
                  -5.301095556      -2.166392982      -0.06933359776    -0.06466011278    
1615007290        -0.09297361692    -0.1221892202     0.636804862       5.583961659       
                  0.636804862       5.583961659       0.02326518666     0.1422433959      
1700007200        -0.08741496337    0.09540042065     4.644384688       -3.24980612       
                  4.644384688       -3.24980612       0.1108158583      -0.1335041297     
1785007110        0.1259118786      0.03127825658     -5.05794086       -2.503694748      
                  -5.05794086       -2.503694748      -0.1319399897     -0.06411125331    
1870007020        -0.02147009225    -0.1335020298     0.2442338474      5.589061993       
                  0.2442338474      5.589061993       0.0657196464      0.1322263327      
1955006930        -0.1047608825     0.02034635988     4.8500244         -2.898860082      
                  4.8500244         -2.898860082      0.08936396769     -0.1939355997     
2040006840        0.08069377508     0.03721086299     -4.821558382      -2.784902344      
                  -4.821558382      -2.784902344      -0.1548719624     -0.04166444623    
2125006750        0.03522342488     -0.09054958228    -0.168790387      5.616793818       
                  -0.168790387      5.616793818       0.1310357173      0.1370328806      
2210006660        -0.08940754923    -0.0008682291428  4.9410424         -2.545963979      
                  4.9410424         -2.545963979      0.04798495232     -0.218151325      
2295006570        0.02830091455     0.03366312031     -4.58917984       -3.109510377      
                  -4.58917984       -3.109510377      -0.1862027        0.0153930523      
2380006480        0.02648345003     -0.05046557998    -0.5295274253     5.551256534       
                  -0.5295274253     5.551256534       0.1668762069      0.1140438926      
2465006390        -0.08479561143    -0.01489615524    5.015681805       -2.228778344      
                  5.015681805       -2.228778344      -0.0197015074     -0.25971871       
2550006300        0.01172967357     -0.002471950217   -4.280157484      -3.446016616      
                  -4.280157484      -3.446016616      -0.1911176983     0.06062006935     
2635006210        0.02206298441     -0.04404165164    -0.8598473935     5.490995899       
                  -0.8598473935     5.490995899       0.2135661969      0.06414261809     
2720006120        -0.08025458881    -0.007805119135   5.088320452       -1.859776805      
                  5.088320452       -1.859776805      -0.09055910728    -0.2646168115     
2805006030        0.01951077595     -0.003168322683   -3.996260215      -3.687678895      
                  -3.996260215      -3.687678895      -0.1630939        0.1234604261      
2890005940        0.01716322957     -0.03766080676    -1.192713706      5.3634933         
                  -1.192713706      5.3634933         0.2321387431      0.009048760398    
2975005850        -0.09413529476    -0.004108442864   5.11763743        -1.402958176      
                  5.11763743        -1.402958176      -0.1623643568     -0.2475914752     
3060005760        0.02190461429     0.007704338705    -3.698862828      -4.02550841       
                  -3.698862828      -4.02550841       -0.1189800159     0.1687155553      
3145005670        0.03258930798     -0.0472501915     -1.588052941      5.208946537       
                  -1.588052941      5.208946537       0.231823118       -0.0714966246     
3230005580        -0.1027577234     -0.02896862583    5.222811225       -1.001469207      
                  5.222811225       -1.001469207      -0.2269258419     -0.2082098522     
3315005490        0.01580800895     0.0315463708      -3.43095498       -4.244317645      
                  -3.43095498       -4.244317645      -0.04603926886    0.2027017597      
3400005400        0.05945147297     -0.03367058957    -1.932930051      5.042051404       
                  -1.932930051      5.042051404       0.2016557587      -0.1447835914     
3485005310        -0.1012197249     -0.06038909506    5.317529192       -0.6464025372     
                  5.317529192       -0.6464025372     -0.2821476661     -0.129886706      
3570005220        -0.01542494681    0.05163530073     -3.256096648      -4.422183135      
                  -3.256096648      -4.422183135      0.03347114076     0.2110248097      
3655005130        0.0695261863      -0.002034707188   -2.118731596      4.906652711       
                  -2.118731596      4.906652711       0.1349857076      -0.2085744772     
3740005040        -0.08232577378    -0.09186278998    5.301642463       -0.2999673882     
                  5.301642463       -0.2999673882     -0.3119045528     -0.03969943097    
3825004950        -0.05538727418    0.04232483619     -2.992598789      -4.537019283      
                  -2.992598789      -4.537019283      0.1135944655      0.176311722       
3910004860        0.06812138908     0.03207602548     -2.522207593      4.686903274       
                  -2.522207593      4.686903274       0.05068154513     -0.2589655741     
3995004770        -0.03734070961    -0.1130119594     5.321966182       0.003793339188    
                  5.321966182       0.003793339188    -0.3054425385     0.06536540563     
4080004680        -0.08419002165    0.01559625219     -2.718382074      -4.699258932      
                  -2.718382074      -4.699258932      0.1909783368      0.1282070103      
4165004590        0.04666925959     0.06692098753     -2.787234125      4.539896521       
                  -2.787234125      4.539896521       -0.04615096697    -0.2717377916     
4250004500        0.005605479251    -0.09371902524    5.397462788       0.2468185927      
                  5.397462788       0.2468185927      -0.2656965259     0.1756358776      
4335004410        -0.1049622455     -0.01156294151    -2.465664859      -4.797287398      
                  -2.465664859      -4.797287398      0.2300128595      0.04464049633     
4420004320        0.001735500088    0.08375958947     -2.967643656      4.427909722       
                  -2.967643656      4.427909722       -0.1637142895     -0.2509497674     
4505004230        0.03461680266     -0.06586927956    5.335278917       0.4072186608      
                  5.335278917       0.4072186608      -0.196734107      0.2590935155      
4590004140        -0.1079595185     -0.04517880654    -2.207581739      -4.817480536      
                  -2.207581739      -4.817480536      0.229719852       -0.05755405922    
4675004050        -0.03572536891    0.07529568401     -3.042600628      4.305239608       
                  -3.042600628      4.305239608       -0.2554514612     -0.1913433136     
4760003960        0.05812335415     -0.02714367847    5.177724276       0.6294105146      
                  5.177724276       0.6294105146      -0.08657559241    0.3112217168      
4845003870        -0.08784680236    -0.0654489322     -1.965930538      -4.847868076      
                  -1.965930538      -4.847868076      0.2004413702      -0.1549144399     
4930003780        -0.06945606587    0.05088759963     -3.202349968      4.117113911       
                  -3.202349968      4.117113911       -0.3196572878     -0.09976386527    
5015003690        0.05634710598     0.02670598704     5.044290875       0.8616781328      
                  5.044290875       0.8616781328      0.03555409124     0.3347551883      
5100003600        -0.06522167754    -0.05906217552    -1.803994488      -4.889874472      
                  -1.803994488      -4.889874472      0.1198241323      -0.22930316       
5185003510        -0.08874979384    0.0177202795      -3.243121526      3.888524111       
                  -3.243121526      3.888524111       -0.3497034295     0.01105077638     
5270003420        0.02594068595     0.06358854311     4.898693523       1.081333729       
                  4.898693523       1.081333729       0.1497201344      0.299978489       
5355003330        -0.0543046735     -0.03213581997    -1.69831637       -4.914932167      
                  -1.69831637       -4.914932167      -0.002025609487   -0.2792433282     
5440003240        -0.0756384057     -0.02540740321    -3.188287579      3.716017654       
                  -3.188287579      3.716017654       -0.319727779      0.1320612171      
5525003150        -0.004134536634   0.05840565386     4.866888292       1.184691994       
                  4.866888292       1.184691994       0.2690010836      0.201555288       
5610003060        -0.04524792089    0.01333026557     -1.634230988      -4.752104254      
                  -1.634230988      -4.752104254      -0.1366519099     -0.2679185062     
5695002970        -0.02396458379    -0.03137902652    -3.181653979      3.495423152       
                  -3.181653979      3.495423152       -0.2214412393     0.2528499409      
5780002880        -0.01100285217    0.02812264948     4.796819015       1.262213282       
                  4.796819015       1.262213282       0.3296360985      0.0580996659      
5865002790        -0.07616622865    0.06041703851     -1.519273709      -4.501328026      
                  -1.519273709      -4.501328026      -0.2722703513     -0.1854981342     
5950002700        0.02231654458     0.01149618604     -3.209623448      3.286731892       
                  -3.209623448      3.286731892       -0.08282076267    0.3331560716      
6035002610        -0.007230590964   -0.02769890527    4.571779741       1.163621708       
                  4.571779741       1.163621708       0.2987370795      -0.09716435531    
6120002520        -0.1375630218     0.06034272721     -1.388536716      -4.260201848      
                  -1.388536716      -4.260201848      -0.3584135091     -0.04560392905    
6205002430        0.05631630302     0.0876737542      -3.109510979      3.081268532       
                  -3.109510979      3.081268532       0.1020302226      0.3376245694      
6290002340        0.06510091692     -0.07610201543    4.34682734        1.052188157       
                  4.34682734        1.052188157       0.1953589636      -0.2480591047     
6375002250        -0.203971921      9.12202146e-05    -1.274345806      -3.996709173      
                  -1.274345806      -3.996709173      -0.3761835755     0.1297493035      
6460002160        0.01825354413     0.1997131753      -2.896852681      2.88375492        
                  -2.896852681      2.88375492        0.2709311471      0.2725019034      
6545002070        0.1738722873      -0.04631773201    3.967711373       0.9828309037      
                  3.967711373       0.9828309037      0.02890173979     -0.3202017977     
6630001980        -0.1945549003     -0.1132686227     -1.123002308      -3.715861862      
                  -1.123002308      -3.715861862      -0.2989995696     0.3022066082      
6715001890        -0.07827291582    0.2654644858      -2.625701245      2.57306641        
                  -2.625701245      2.57306641        0.3840212827      0.1563450562      
6800001800        0.2587548928      0.06475119637     3.515984451       1.058877811       
                  3.515984451       1.058877811       -0.131403719      -0.3089475735     
6885001710        -0.09233044235    -0.2375167318     -0.8127130528     -3.394868519      
                  -0.8127130528     -3.394868519      -0.1882017595     0.3881223943      
6970001620        -0.2111395264     0.2238653026      -2.559192253      2.178366456       
                  -2.559192253      2.178366456       0.4234880035      0.02365662098     
7055001530        0.2547116656      0.2117424121      3.144725176       1.19354367        
                  3.144725176       1.19354367        -0.257095454      -0.2715030977     
7140001440        0.08747817804     -0.2939181559     -0.5349950579     -3.157614897      
                  -0.5349950579     -3.157614897      -0.06342051166    0.4539748924      
7225001350        -0.2945657693     0.08877699444     -2.520701017      1.863813601       
                  -2.520701017      1.863813601       0.4528991558      -0.1033562847     
7310001260        0.1633778262      0.3471275997      2.811822773       1.13468377        
                  2.811822773       1.13468377        -0.3586226023     -0.1852058998     
7395001170        0.2870673942      -0.2210376885     -0.244247311      -2.91057797       
                  -0.244247311      -2.91057797       0.07696996422     0.482329833       
7480001080        -0.2940947889     -0.1163087025     -2.365693343      1.581711693       
                  -2.365693343      1.581711693       0.3949617759      -0.2372623652     
7565000990        -0.03702893083    0.3970973091      2.568076692       1.141797922       
                  2.568076692       1.141797922       -0.4250714746     -0.08451341659    
7650000900        0.399978531       -0.05161111155    -0.05199448836    -2.573754083      
                  -0.05199448836    -2.573754083      0.2127331933      0.43911974        
7735000810        -0.1569908247     -0.3078509927     -2.268907554      1.325190477       
                  -2.268907554      1.325190477       0.3177081402      -0.3461985618     
7820000720        -0.2102490511     0.3138658267      2.244998453       1.228674755       
                  2.244998453       1.228674755       -0.4062709184     0.02497262893     
7905000630        0.4123449918      0.1417633311      0.1005462947      -2.276895724      
                  0.1005462947      -2.276895724      0.3243378216      0.3627326027      
7990000540        0.06975437736     -0.3901013299     -2.192247927      0.9081491245      
                  -2.192247927      0.9081491245      0.2218429604      -0.4073110497     
8075000450        -0.3514378181     0.1163926167      1.881339167       1.423464072       
                  1.881339167       1.423464072       -0.3881596407     0.1188900325      
8160000360        0.2945502554      0.3147848719      0.2555933052      -2.16925597       
                  0.2555933052      -2.16925597       0.3994636249      0.2803002166      
8245000270        0.2595234897      -0.3351315143     -2.024218773      0.6056150764      
                  -2.024218773      0.6056150764      0.1144354497      -0.4443339545     
8330000180        -0.3652544392     -0.1351395903     1.619607691       1.490895921       
                  1.619607691       1.490895921       -0.343465886      0.1933613616      
8415000090        0.07596881375     0.3929592794      0.38747734        -1.981650399      
                  0.38747734        -1.981650399      0.4360163566      0.1673150355      
8500000000        0.3836772783      -0.1839375478     -1.82234702       0.4392065832      
                  -1.82234702       0.4392065832      -0.004352734581   -0.4608601806     
