! RsaToolbox (C) 2013 Rohde & Schwarz America
! 
! Number of points: 101
! Number of ports: 2
! Balanced ports?: 0
! 
! 
# Hz S RI R 50
9000              0.9753875055      -0.006476630144   7.044065934e-05   -1.714081408e-05  
                  7.044065934e-05   -1.714081408e-05  0.9903127287      -0.01578219725    
85008910          -0.0997038489     -0.1118438626     1.801091284       2.84123902        
                  1.801091284       2.84123902        -0.0922643025     -0.1172372621     
170008820         -0.03204143561    0.1265601803      1.708255387       -3.175414343      
                  1.708255387       -3.175414343      -0.0214393391     0.1720556807      
255008730         0.04183162291     0.002291479789    -3.610451217      0.2136063041      
                  -3.610451217      0.2136063041      0.07802160309     -0.02679357597    
340008640         -0.06738859985    -0.04408726213    1.930384365       3.131100884       
                  1.930384365       3.131100884       -0.1272938559     -0.05467899622    
425008550         -0.03750794114    0.03844998802     1.733429985       -3.181346424      
                  1.733429985       -3.181346424      0.01612283719     0.1031174666      
510008460         0.0481657042      -0.01662980504    -3.638109992      0.01887266777     
                  -3.638109992      0.01887266777     0.07110942314     -0.08022036296    
595008370         -0.01928998417    -0.05077451697    1.791466331       3.29215376        
                  1.791466331       3.29215376        -0.08454046006    -0.01249315488    
680008280         -0.0004212044218  0.0447592267      1.871903147       -3.091189641      
                  1.871903147       -3.091189641      0.09219373813     0.07601792049     
765008190         0.05711654681     0.05275318703     -3.732191205      -0.1847136726     
                  -3.732191205      -0.1847136726     0.06054606114     -0.06112517762    
850008100         -0.03533616572    -0.03104943941    1.641317372       3.245667612       
                  1.641317372       3.245667612       -0.07244513281    0.0649392975      
935008010         -0.03483980717    0.01317119115     2.056068056       -3.096332018      
                  2.056068056       -3.096332018      0.1024302383      0.03900074014     
1020007920        0.005189090534    0.07013543838     -3.720785714      -0.2439771178     
                  -3.720785714      -0.2439771178     -0.005098365866   -0.07661656271    
1105007830        -0.0326012551     -0.0647474376     1.527454232       3.244186107       
                  1.527454232       3.244186107       -0.06390534446    0.07532164808     
1190007740        -0.01935510878    -0.105803728      2.149980955       -3.032233111      
                  2.149980955       -3.032233111      0.12454248        -0.04233178215    
1275007650        0.02272159977     0.06133188124     -3.655437374      -0.4349924647     
                  -3.655437374      -0.4349924647     -0.03061432529    -0.0895974944     
1360007560        0.04828800636     -0.0233094252     1.414545902       3.36327986        
                  1.414545902       3.36327986        -0.006113504716   0.102420614       
1445007470        0.04216626574     -0.1314192085     2.237991046       -2.957438081      
                  2.237991046       -2.957438081      0.1476862051      -0.08833313626    
1530007380        -0.04702618158    0.06862357699     -3.504907953      -0.4876610982     
                  -3.504907953      -0.4876610982     -0.07007425856    -0.06513709041    
1615007290        0.07144006059     0.109370085       1.352725648       3.271272055       
                  1.352725648       3.271272055       0.02262600921     0.1429017046      
1700007200        0.07525556146     -0.1377936771     2.137771798       -2.792897001      
                  2.137771798       -2.792897001      0.111301769       -0.1339464089     
1785007110        -0.1576735435     -0.04647181837    -3.485289953      -0.5459617593     
                  -3.485289953      -0.5459617593     -0.1330973248     -0.0646618791     
1870007020        0.004724158461    0.1719145308      1.278466991       3.267154903       
                  1.278466991       3.267154903       0.06538005004     0.1330064709      
1955006930        0.1673653805      -0.107942067      2.18811127        -2.744515994      
                  2.18811127        -2.744515994      0.08966056858     -0.1947612989     
2040006840        -0.143450322      -0.1910829337     -3.490041984      -0.632289719      
                  -3.490041984      -0.632289719      -0.1560683315     -0.04201298423    
2125006750        -0.09894155636    0.1978341513      1.21138273        3.283833411       
                  1.21138273        3.283833411       0.1310907767      0.1376280065      
2210006660        0.2471021644      0.01318086889     2.172521019       -2.610861642      
                  2.172521019       -2.610861642      0.04823177629     -0.2193276266     
2295006570        -0.07177460891    -0.2908193032     -3.320991666      -0.6625155103     
                  -3.320991666      -0.6625155103     -0.1873632904     0.015118462       
2380006480        -0.2345789847     0.1485774617      1.049442499       3.255925355       
                  1.049442499       3.255925355       0.1673538471      0.1142015025      
2465006390        0.2270694859      0.1594816424      2.16583035        -2.438948758      
                  2.16583035        -2.438948758      -0.01962522671    -0.2612004262     
2550006300        0.07147038309     -0.3351730619     -3.218869725      -0.8694339336     
                  -3.218869725      -0.8694339336     -0.191853193      0.06073455301     
2635006210        -0.3036674177     0.01797482744     0.841265957       3.206563798       
                  0.841265957       3.206563798       0.2143406846      0.06393381966     
2720006120        0.1199776305      0.2892624195      2.275887274       -2.246865435      
                  2.275887274       -2.246865435      -0.09077531066    -0.2662839877     
2805006030        0.220852478       -0.2789951514     -3.028716851      -0.9662092753     
                  -3.028716851      -0.9662092753     -0.1636980281     0.1230636562      
2890005940        -0.3037224845     -0.135642279      0.6387965555      3.11962242        
                  0.6387965555      3.11962242        0.2334540979      0.008404419182    
2975005850        -0.05325819249    0.3490965248      2.385131555       -1.914700854      
                  2.385131555       -1.914700854      -0.1624329613     -0.2496765733     
3060005760        0.3188457968      -0.133953717      -2.913734506      -1.275514378      
                  -2.913734506      -1.275514378      -0.1192152273     0.1685998898      
3145005670        -0.2144755288     -0.2770106607     0.3255609906      3.089885932       
                  0.3255609906      3.089885932       0.2332727383      -0.07229198714    
3230005580        -0.2204569061     0.2832519383      2.623660971       -1.636763127      
                  2.623660971       -1.636763127      -0.2270074298     -0.2093426909     
3315005490        0.3465657811      0.03240293735     -2.698515683      -1.409435391      
                  -2.698515683      -1.409435391      -0.04568991013    0.2031034654      
3400005400        -0.06584081961    -0.3475466135     0.03371526319     3.011268513       
                  0.03371526319     3.011268513       0.2031433413      -0.1456618408     
3485005310        -0.3414532612     0.1643796411      2.663356159       -1.385260297      
                  2.663356159       -1.385260297      -0.2820211187     -0.1308219943     
3570005220        0.2895808914      0.1946306264      -2.495855973      -1.518165296      
                  -2.495855973      -1.518165296      0.0342388914      0.2120307715      
3655005130        0.08554058578     -0.3428495084     -0.137289507      2.850864218       
                  -0.137289507      2.850864218       0.1368273832      -0.2085139168     
3740005040        -0.3907069536     0.007743029058    2.588212314       -1.145686915      
                  2.588212314       -1.145686915      -0.3116509099     -0.04022270804    
3825004950        0.1577567249      0.3039634349      -2.239002083      -1.616776914      
                  -2.239002083      -1.616776914      0.114890196       0.1789183799      
3910004860        0.2360067407      -0.2656952129     -0.3838666907     2.712618121       
                  -0.3838666907     2.712618121       0.05362686548     -0.2585751253     
3995004770        -0.3605815707     -0.1590436456     2.527980257       -0.9123655113     
                  2.527980257       -0.9123655113     -0.3057795115     0.06600156745     
4080004680        -0.01219040057    0.344249104       -2.029095016      -1.758310636      
                  -2.029095016      -1.758310636      0.1940897         0.1287342813      
4165004590        0.3217554764      -0.1269699584     -0.6022363903     2.653147637       
                  -0.6022363903     2.653147637       -0.04627026848    -0.2757398316     
4250004500        -0.2632934247     -0.2749650872     2.568340069       -0.6966986386     
                  2.568340069       -0.6966986386     -0.2647065337     0.1769605186      
4335004410        -0.183418025      0.3095804733      -1.841612944      -1.86316752       
                  -1.841612944      -1.86316752       0.232599668       0.04451574381     
4420004320        0.3236868994      0.03472614488     -0.7971216481     2.576833681       
                  -0.7971216481     2.576833681       -0.1637997309     -0.2523047423     
4505004230        -0.1249052636     -0.3396525668     2.552151822       -0.5317312828     
                  2.552151822       -0.5317312828     -0.1972502997     0.2601470767      
4590004140        -0.3076491996     0.2017752088      -1.648159509      -1.933426541      
                  -1.648159509      -1.933426541      0.2309210439      -0.0575179096     
4675004050        0.2657015016      0.1701173338      -0.9029057095     2.411485187       
                  -0.9029057095     2.411485187       -0.2562613902     -0.1923637265     
4760003960        0.03349124057     -0.3408687937     2.463278514       -0.3435676481     
                  2.463278514       -0.3435676481     -0.08760688276    0.3122664073      
4845003870        -0.3632248616     0.06406896806     -1.433985495      -1.970989679      
                  -1.433985495      -1.970989679      0.2012896001      -0.1549660312     
4930003780        0.1434581888      0.2674967972      -1.075618772      2.266917441       
                  -1.075618772      2.266917441       -0.32132677       -0.1006167637     
5015003690        0.1675905996      -0.2658630198     2.398267043       -0.1411419836     
                  2.398267043       -0.1411419836     0.03539496138     0.3366660231      
5100003600        -0.3563836607     -0.07096584173    -1.272996636      -1.98795609       
                  -1.272996636      -1.98795609       0.1201126346      -0.2300706827     
5185003510        0.002153025089    0.3022044544      -1.186196261      2.075326942       
                  -1.186196261      2.075326942       -0.3518613462     0.01054419671     
5270003420        0.2463252865      -0.138941458      2.382070086       0.08899875304     
                  2.382070086       0.08899875304     0.148892002       0.3018939086      
5355003330        -0.2991543818     -0.1740864719     -1.135589449      -2.000548806      
                  -1.135589449      -2.000548806      -0.001636119483   -0.2807458339     
5440003240        -0.1141130893     0.2672930265      -1.260169935      1.967729738       
                  -1.260169935      1.967729738       -0.3217814811     0.1313970681      
5525003150        0.2675413934      -0.0175318097     2.337958506       0.2078008643      
                  2.337958506       0.2078008643      0.2690564666      0.2034807922      
5610003060        -0.1956707151     -0.2197179706     -1.0579401        -2.016384928      
                  -1.0579401        -2.016384928      -0.1357928415     -0.2697050426     
5695002970        -0.1802698521     0.2069635302      -1.312133817      1.82782475        
                  -1.312133817      1.82782475        -0.2232092906     0.2526804914      
5780002880        0.248012834       0.08811828326     2.276188513       0.3131319299      
                  2.276188513       0.3131319299      0.3306359434      0.06023764025     
5865002790        -0.1076220854     -0.2210212777     -0.9059510515     -1.963944132      
                  -0.9059510515     -1.963944132      -0.2711914505     -0.187463033      
5950002700        -0.2124680915     0.1513964349      -1.352067719      1.688462566       
                  -1.352067719      1.688462566       -0.08439346675    0.334393512       
6035002610        0.1902844038      0.1431700711      2.148286379       0.3628851532      
                  2.148286379       0.3628851532      0.3011980441      -0.09497657003    
6120002520        -0.03759832706    -0.2007260615     -0.7848305171     -1.939541027      
                  -0.7848305171     -1.939541027      -0.357802023      -0.04741883357    
6205002430        -0.2087145531     0.1053718292      -1.357699799      1.595205414       
                  -1.357699799      1.595205414       0.1023473838      0.3400019643      
6290002340        0.1610867194      0.166054556       2.047867792       0.3931873616      
                  2.047867792       0.3931873616      0.1988446354      -0.2473510575     
6375002250        -0.004574401284   -0.1927840874     -0.684848581      -1.897715974      
                  -0.684848581      -1.897715974      -0.3765251623     0.1277477062      
6460002160        -0.2208511773     0.1021031434      -1.336519713      1.503784867       
                  -1.336519713      1.503784867       0.2715725227      0.2740485933      
6545002070        0.1546578407      0.2072121403      1.925630409       0.4153685059      
                  1.925630409       0.4153685059      0.03093985511     -0.3211314988     
6630001980        0.06095752095     -0.2001876336     -0.5775090939     -1.806564929      
                  -0.5775090939     -1.806564929      -0.3002273167     0.302257499       
6715001890        -0.2491113611     0.08096238543     -1.271776109      1.341387883       
                  -1.271776109      1.341387883       0.384563871       0.1580854177      
6800001800        0.1399025652      0.2751164187      1.751919654       0.4765096195      
                  1.751919654       0.4765096195      -0.1305281434     -0.3096573022     
6885001710        0.1599886047      -0.2045612552     -0.4188452153     -1.711277386      
                  -0.4188452153     -1.711277386      -0.1897814804     0.3889511193      
6970001620        -0.2835577774     -0.007143597948   -1.309614671      1.159377117       
                  -1.309614671      1.159377117       0.4242590776      0.02559118424     
7055001530        0.07457622637     0.3430322419      1.654456493       0.5716118502      
                  1.654456493       0.5716118502      -0.2573494869     -0.2722994843     
7140001440        0.2749684296      -0.1668478993     -0.3060320593     -1.6983704        
                  -0.3060320593     -1.6983704        -0.06508679874    0.4552213322      
7225001350        -0.2664590632     -0.1344512028     -1.351228472      1.030874542       
                  -1.351228472      1.030874542       0.4535921799      -0.1018510158     
7310001260        -0.03155172823    0.3832413667      1.563287646       0.5857375236      
                  1.563287646       0.5857375236      -0.3596950441     -0.1859851456     
7395001170        0.3846027313      -0.04350199913    -0.1589923413     -1.621480283      
                  -0.1589923413     -1.621480283      0.07577717087     0.4832871578      
7480001080        -0.1753684078     -0.2888825896     -1.317586234      0.8853601023      
                  -1.317586234      0.8853601023      0.395694182       -0.2366292879     
7565000990        -0.2219601391     0.3471876993      1.439150711       0.6324985471      
                  1.439150711       0.6324985471      -0.4267964541     -0.08578795328    
7650000900        0.4131658408      0.1247727453      -0.05795307687    -1.523815239      
                  -0.05795307687    -1.523815239      0.2116391892      0.4404788815      
7735000810        0.001842759314    -0.389866409      -1.350571709      0.7805718915      
                  -1.350571709      0.7805718915      0.3182550279      -0.3470364059     
7820000720        -0.34285934       0.2051310585      1.34039664        0.7398389088      
                  1.34039664        0.7398389088      -0.4081797619     0.02453184791     
7905000630        0.3588725569      0.2843696674      0.04895763851     -1.423552834      
                  0.04895763851     -1.423552834      0.3238711344      0.3641529003      
7990000540        0.2249186582      -0.3933472597     -1.354844142      0.5415082144      
                  -1.354844142      0.5415082144      0.222317765       -0.4091148148     
8075000450        -0.4163952905     -0.02959063806    1.156024122       0.9122373633      
                  1.156024122       0.9122373633      -0.3903935815     0.1181792815      
8160000360        0.189996295       0.422705756       0.1706927332      -1.360757671      
                  0.1706927332      -1.360757671      0.4000425899      0.2808208394      
8245000270        0.3829387563      -0.281120577      -1.304766785      0.392752895       
                  -1.304766785      0.392752895       0.114488158       -0.4457901384     
8330000180        -0.3559383744     -0.2750126894     1.030619321       0.9679309894      
                  1.030619321       0.9679309894      -0.3442012338     0.1931021445      
8415000090        -0.04830061586    0.4371033818      0.2606525433      -1.300538856      
                  0.2606525433      -1.300538856      0.4373929804      0.1677939529      
8500000000        0.4618031675      -0.09815477189    -1.231971101      0.3103959428      
                  -1.231971101      0.3103959428      -0.003422669913   -0.4630688227     
