! RsaToolbox (C) 2013 Rohde & Schwarz America
! 
! Number of points: 101
! Number of ports: 2
! Balanced ports?: 0
! 
! 
# Hz S RI R 50
9000              1.016081244       -0.02202062991    9.79293658e-06    -0.000107691431   
                  9.79293658e-06    -0.000107691431   1.031610375       -0.02912705178    
85008910          0.002758126748    0.1595046813      3.19639649        5.528555468       
                  3.19639649        5.528555468       -0.09251934787    -0.1151308567     
170008820         0.1425843235      -0.04446023942    3.198751966       -5.226793463      
                  3.198751966       -5.226793463      -0.02044280123    0.171741183       
255008730         -0.1767164753     -0.07582487658    -6.066842296      -0.1777735858     
                  -6.066842296      -0.1777735858     0.07751822682     -0.02629929421    
340008640         -0.06304835417    0.1703579831      2.651028029       5.362960877       
                  2.651028029       5.362960877       -0.1261307427     -0.05295699036    
425008550         0.1598193141      -0.04666543053    3.398425846       -4.872648567      
                  3.398425846       -4.872648567      0.01680011239     0.1031141954      
510008460         -0.1018064723     -0.164151232      -5.912780093      -0.6525279843     
                  -5.912780093      -0.6525279843     0.07068665468     -0.07945652602    
595008370         -0.1075205829     0.1403080679      2.225685696       5.435017253       
                  2.225685696       5.435017253       -0.08366891483    -0.01166130963    
680008280         0.2045356301      0.03380329931     3.672822306       -4.578442574      
                  3.672822306       -4.578442574      0.09208787323     0.0749901098      
765008190         0.009427223656    -0.1641149738     -5.739131045      -1.110418067      
                  -5.739131045      -1.110418067      0.06003949815     -0.06058844005    
850008100         -0.1820241508     0.1118960473      1.865054426       5.531436626       
                  1.865054426       5.531436626       -0.07173598355    0.06535861519     
935008010         0.1465698409      0.1238620486      3.954727751       -4.232154472      
                  3.954727751       -4.232154472      0.1018476506      0.03895038171     
1020007920        0.07544937893     -0.1544532995     -5.595201101      -1.455206844      
                  -5.595201101      -1.455206844      -0.004716688353   -0.0749921783     
1105007830        -0.2257112666     -0.008474865865   1.475655703       5.625971866       
                  1.475655703       5.625971866       -0.0628929863     0.07532313023     
1190007740        0.07085066449     0.1402342221      4.209893187       -3.852712295      
                  4.209893187       -3.852712295      0.1242761194      -0.04260223054    
1275007650        0.1645986797      -0.1088924859     -5.47206669       -1.836376592      
                  -5.47206669       -1.836376592      -0.02973281022    -0.08930121376    
1360007560        -0.1638709595     -0.1006927131     1.035886138       5.653979031       
                  1.035886138       5.653979031       -0.004964235188   0.1019339406      
1445007470        0.0005903908338   0.1426922952      4.418769261       -3.545448748      
                  4.418769261       -3.545448748      0.1473092481      -0.08835205605    
1530007380        0.1850145713      -0.01146804958    -5.310200362      -2.193718994      
                  -5.310200362      -2.193718994      -0.06894062859    -0.06458567922    
1615007290        -0.09476954181    -0.1243328283     0.6136936432      5.608146036       
                  0.6136936432      5.608146036       0.02345562595     0.142214754       
1700007200        -0.08906850777    0.09769312071     4.677929218       -3.241804976      
                  4.677929218       -3.241804976      0.1113185973      -0.1334590146     
1785007110        0.1287212766      0.03193656893     -5.065525932      -2.535281585      
                  -5.065525932      -2.535281585      -0.131606719      -0.0641972871     
1870007020        -0.02193034161    -0.1367010097     0.2211428364      5.613167196       
                  0.2211428364      5.613167196       0.0663071335      0.1320678328      
1955006930        -0.1075867412     0.02164834539     4.883351586       -2.88620297       
                  4.883351586       -2.88620297       0.08943499376     -0.1939038634     
2040006840        0.08367255902     0.03951106699     -4.829061884      -2.819700695      
                  -4.829061884      -2.819700695      -0.154655624      -0.04137978384    
2125006750        0.03615803348     -0.09414466381    -0.2010313523     5.641816384       
                  -0.2010313523     5.641816384       0.1312484409      0.1368531483      
2210006660        -0.09292521653    -0.001284825989   4.979535242       -2.529593158      
                  4.979535242       -2.529593158      0.04766695022     -0.2179077209     
2295006570        0.02977683395     0.03724340898     -4.597677417      -3.151594074      
                  -4.597677417      -3.151594074      -0.1855293054     0.01564880836     
2380006480        0.02950476943     -0.05299198667    -0.5636702288     5.579374523       
                  -0.5636702288     5.579374523       0.1671862399      0.1140435098      
2465006390        -0.0886182974     -0.01669346262    5.058758013       -2.212176236      
                  5.058758013       -2.212176236      -0.01971865246    -0.2593691537     
2550006300        0.01167980374     0.001952995083    -4.290086929      -3.488008378      
                  -4.290086929      -3.488008378      -0.1908221222     0.06066403831     
2635006210        0.02588576541     -0.04553814777    -0.9001476327     5.524729065       
                  -0.9001476327     5.524729065       0.2131204653      0.0643807884      
2720006120        -0.08281882347    -0.01097991893    5.135928752       -1.84190734       
                  5.135928752       -1.84190734       -0.09011455276    -0.2639670387     
2805006030        0.0173893809      0.0009267171241   -4.007978327      -3.738768835      
                  -4.007978327      -3.738768835      -0.1626321204     0.1236627653      
2890005940        0.02201754238     -0.03670822893    -1.242884138      5.400723479       
                  -1.242884138      5.400723479       0.2321374918      0.00876229425     
2975005850        -0.09545946421    -0.009154155572   5.168920913       -1.385034632      
                  5.168920913       -1.385034632      -0.1619047251     -0.2472148952     
3060005760        0.01781325427     0.01003905655     -3.708766854      -4.080097707      
                  -3.708766854      -4.080097707      -0.1189677215     0.1689158953      
3145005670        0.03650221869     -0.0443712133     -1.635091369      5.246634382       
                  -1.635091369      5.246634382       0.2315865942      -0.0715256335     
3230005580        -0.10190714       -0.03332528676    5.274836517       -0.9841928677     
                  5.274836517       -0.9841928677     -0.2266680612     -0.2075138878     
3315005490        0.01082675771     0.03203605682     -3.43500728       -4.309809195      
                  -3.43500728       -4.309809195      -0.04625870498    0.2024859376      
3400005400        0.06175695975     -0.02844176763    -1.996968812      5.081310037       
                  -1.996968812      5.081310037       0.2018422628      -0.1447859191     
3485005310        -0.09780643435    -0.06420163449    5.377884776       -0.615406831      
                  5.377884776       -0.615406831      -0.2820115119     -0.1299018727     
3570005220        -0.01993320032    0.04907850389     -3.254586958      -4.501980022      
                  -3.254586958      -4.501980022      0.03392150659     0.2107950475      
3655005130        0.06865578165     0.005026245789    -2.19298338       4.948000208       
                  -2.19298338       4.948000208       0.1347619313      -0.208281209      
3740005040        -0.07701301364    -0.09311881091    5.372073843       -0.2593405306     
                  5.372073843       -0.2593405306     -0.3122971982     -0.03930530438    
3825004950        -0.05912798711    0.03643209962     -2.982805801      -4.636903762      
                  -2.982805801      -4.636903762      0.1133610923      0.1756434938      
3910004860        0.06335378142     0.03766795882     -2.612985149      4.727734253       
                  -2.612985149      4.727734253       0.0498921599      -0.2585603135     
3995004770        -0.03065995556    -0.1108947871     5.405723146       0.06521202487     
                  5.405723146       0.06521202487     -0.3050875421     0.06593168081     
4080004680        -0.08470800618    0.007631178435    -2.70758617       -4.808712213      
                  -2.70758617       -4.808712213      0.1905211684      0.1285562178      
4165004590        0.03919099237     0.07029876662     -2.876890509      4.590557314       
                  -2.876890509      4.590557314       -0.0467771531     -0.2716904237     
4250004500        0.01171202381     -0.08773197388    5.493040549       0.3100160908      
                  5.493040549       0.3100160908      -0.2656514171     0.1756642162      
4335004410        -0.10156391       -0.01972054612    -2.45103          -4.917067901      
                  -2.45103          -4.917067901      0.2295599258      0.04464398656     
4420004320        -0.007821674224   0.08366743427     -3.078283006      4.476399851       
                  -3.078283006      4.476399851       -0.1640657957     -0.2501160801     
4505004230        0.03813003735     -0.05678254871    5.444061152       0.4911887517      
                  5.444061152       0.4911887517      -0.1966834048     0.2592153526      
4590004140        -0.09979768281    -0.05162219695    -2.18252337       -4.956768871      
                  -2.18252337       -4.956768871      0.2290211385      -0.05800744806    
4675004050        -0.04516635555    0.07025571553     -3.178565689      4.359905508       
                  -3.178565689      4.359905508       -0.2555307544     -0.1906105353     
4760003960        0.0566663435      -0.01615180206    5.294304633       0.7251526599      
                  5.294304633       0.7251526599      -0.08634525382    0.311140384       
4845003870        -0.07599266076    -0.06849767378    -1.932365289      -5.010052422      
                  -1.932365289      -5.010052422      0.1998218435      -0.1549750546     
4930003780        -0.07644556202    0.04014501902     -3.362684614      4.178032808       
                  -3.362684614      4.178032808       -0.3194317024     -0.09970636707    
5015003690        0.04961130778     0.03805871772     5.167434459       0.9674376622      
                  5.167434459       0.9674376622      0.03544712681     0.3345698654      
5100003600        -0.05183778913    -0.05558606222    -1.765380257      -5.082416492      
                  -1.765380257      -5.082416492      0.1188789436      -0.2291956449     
5185003510        -0.09092974751    0.003176392218    -3.417426543      3.956055688       
                  -3.417426543      3.956055688       -0.3492971396     0.0116414382      
5270003420        0.01432483006     0.07209684942     5.033687226       1.202691443       
                  5.033687226       1.202691443       0.149466707       0.300280765       
5355003330        -0.04241751709    -0.02155511686    -1.650964555      -5.143467778      
                  -1.650964555      -5.143467778      -0.002533961197   -0.2792711388     
5440003240        -0.0709863913     -0.04001600636    -3.364492748      3.789750432       
                  -3.364492748      3.789750432       -0.3188684298     0.1318696449      
5525003150        -0.0185985913     0.06062938021     5.018073928       1.314053228       
                  5.018073928       1.314053228       0.2687110565      0.2011182924      
5610003060        -0.03877295591    0.02837277476     -1.595759153      -4.985013869      
                  -1.595759153      -4.985013869      -0.1371274865     -0.2673705024     
5695002970        -0.01336203076    -0.0434526333     -3.362922291      3.572723747       
                  -3.362922291      3.572723747       -0.2213331474     0.2522538792      
5780002880        -0.02636964247    0.02325490114     4.970836132       1.408613018       
                  4.970836132       1.408613018       0.3291764351      0.05777366513     
5865002790        -0.07721738046    0.07671774863     -1.496457803      -4.721259429      
                  -1.496457803      -4.721259429      -0.2728508381     -0.1847833562     
5950002700        0.03688537344     0.005688444146    -3.398146107      3.364277483       
                  -3.398146107      3.364277483       -0.08282051025    0.332889789       
6035002610        -0.01882262012    -0.03911326379    4.757164469       1.304038004       
                  4.757164469       1.304038004       0.2984137803      -0.0969979416     
6120002520        -0.145524331      0.07412027849     -1.380188766      -4.464779593      
                  -1.380188766      -4.464779593      -0.3586348136     -0.04496281493    
6205002430        0.07139480219     0.08829712548     -3.283217282      3.158098499       
                  -3.283217282      3.158098499       0.1019318734      0.3364385329      
6290002340        0.06076721904     -0.0911605156     4.531927576       1.163659988       
                  4.531927576       1.163659988       0.1947193504      -0.2477133451     
6375002250        -0.2156399184     0.00848474639     -1.280925905      -4.167451673      
                  -1.280925905      -4.167451673      -0.3759319092     0.1300883579      
6460002160        0.02966213316     0.2064645938      -3.037209834      2.958041729       
                  -3.037209834      2.958041729       0.2708924555      0.2731489723      
6545002070        0.1767115036      -0.06012755878    4.124312855       1.066880283       
                  4.124312855       1.066880283       0.02857609994     -0.3199222497     
6630001980        -0.207380438      -0.111443069      -1.134772742      -3.85996079       
                  -1.134772742      -3.85996079       -0.2982292459     0.3024483054      
6715001890        -0.07162567235    0.2750657764      -2.73314166       2.640496838       
                  -2.73314166       2.640496838       0.3841116391      0.155714928       
6800001800        0.2665089628      0.05531462282     3.63649075        1.125409953       
                  3.63649075        1.125409953       -0.1312498985     -0.3087341212     
6885001710        -0.1032746851     -0.2408996716     -0.8210388907     -3.50842657       
                  -0.8210388907     -3.50842657       -0.1880966198     0.3877020409      
6970001620        -0.2097773105     0.233363459       -2.643638477      2.229169229       
                  -2.643638477      2.229169229       0.4229352284      0.02293840523     
7055001530        0.2638573749      0.2078133735      3.228656428       1.243150685       
                  3.228656428       1.243150685       -0.2571684405     -0.2707762121     
7140001440        0.08176444485     -0.3001187332     -0.5424780869     -3.234768504      
                  -0.5424780869     -3.234768504      -0.0635003487     0.4538350381      
7225001350        -0.2968930523     0.09637621868     -2.582360769      1.901071416       
                  -2.582360769      1.901071416       0.4526951338      -0.1044275415     
7310001260        0.1703666725      0.3476787862      2.869972062       1.16185138        
                  2.869972062       1.16185138        -0.3588162112     -0.1844578816     
7395001170        0.2852905948      -0.2279382451     -0.2478683132     -2.969690275      
                  -0.2478683132     -2.969690275      0.07727178185     0.4818888108      
7480001080        -0.2993061829     -0.1106870413     -2.419040231      1.614127514       
                  -2.419040231      1.614127514       0.3946737575      -0.2374587671     
7565000990        -0.03050112108    0.4005828892      2.620363265       1.164665431       
                  2.620363265       1.164665431       -0.4245047319     -0.08482519144    
7650000900        0.4010468042      -0.05696934017    -0.05535562612    -2.611194626      
                  -0.05535562612    -2.611194626      0.2134838927      0.4388487341      
7735000810        -0.1612516264     -0.3055562175     -2.298907455      1.349130531       
                  -2.298907455      1.349130531       0.3172784074      -0.3458735521     
7820000720        -0.2069493435     0.3171342455      2.279972768       1.242372754       
                  2.279972768       1.242372754       -0.4054470589     0.0250662623      
7905000630        0.4142185265      0.1384164535      0.09626970883     -2.301150713      
                  0.09626970883     -2.301150713      0.3244014273      0.3620313909      
7990000540        0.06586505131     -0.3909417359     -2.216188926      0.9277245259      
                  -2.216188926      0.9277245259      0.2214422466      -0.40709862       
8075000450        -0.3507095261     0.1203608033      1.909035593       1.433582005       
                  1.909035593       1.433582005       -0.3882118859     0.1194782772      
8160000360        0.2978953054      0.3130554989      0.2510463111      -2.192071446      
                  0.2510463111      -2.192071446      0.3999124904      0.2798825383      
8245000270        0.2577652353      -0.3374915074     -2.040569785      0.6160269113      
                  -2.040569785      0.6160269113      0.1144565801      -0.4443112586     
8330000180        -0.3669796544     -0.1325927543     1.638467169       1.499862696       
                  1.638467169       1.499862696       -0.3430730627     0.1938817609      
8415000090        0.07885523798     0.3934517849      0.3843278037      -1.997653143      
                  0.3843278037      -1.997653143      0.4361071698      0.1677356518      
8500000000        0.38310707        -0.1861741526     -1.832132355      0.4467758735      
                  -1.832132355      0.4467758735      -0.004433072816   -0.4599496209     
