! RsaToolbox (C) 2013 Rohde & Schwarz America
! 
! Number of points: 101
! Number of ports: 2
! Balanced ports?: 0
! 
! 
# Hz S RI R 50
9000              0.973163829       -0.006015582531   7.381901034e-05   -1.389934653e-05  
                  7.381901034e-05   -1.389934653e-05  0.9889175666      -0.01479555416    
85008910          -0.1074619466     -0.1336260017     1.707531261       2.679942517       
                  1.707531261       2.679942517       -0.0923969017     -0.1174698408     
170008820         -0.04517139491    0.1384328684      1.620666643       -3.037284221      
                  1.620666643       -3.037284221      -0.02142874117    0.1720202597      
255008730         0.0628282469      0.01059552108     -3.41374966       0.2218634796      
                  -3.41374966       0.2218634796      0.07806328734     -0.02681482539    
340008640         -0.06670509336    -0.06453089236    1.852148156       2.956352188       
                  1.852148156       2.956352188       -0.1273610356     -0.05473911451    
425008550         -0.05610175275    0.04680083398     1.617825785       -3.026152555      
                  1.617825785       -3.026152555      0.01610831865     0.1031144969      
510008460         0.06198132712     -0.002914584582   -3.452797186      0.04663890954     
                  -3.452797186      0.04663890954     0.07116114868     -0.0802500135     
595008370         -0.007798152061   -0.06770493304    1.751258658       3.101136423       
                  1.751258658       3.101136423       -0.08455250271    -0.01253486796    
680008280         -0.02058053823    0.04534572934     1.743108005       -2.9536491        
                  1.743108005       -2.9536491        0.09225849643     0.07605876733     
765008190         0.05788728869     0.07601023344     -3.551378959      -0.09053356488    
                  -3.551378959      -0.09053356488    0.06060886729     -0.06119298441    
850008100         -0.01999162445    -0.04491116275    1.603699952       3.066386505       
                  1.603699952       3.066386505       -0.07248613078    0.06491424852     
935008010         -0.05282774952    -0.0003805062849  1.889651835       -2.988837768      
                  1.889651835       -2.988837768      0.1024448728      0.03901499714     
1020007920        -0.002911339752   0.09261623448     -3.542027798      -0.1359909563     
                  -3.542027798      -0.1359909563     -0.005088664362   -0.07675374374    
1105007830        -0.01495459639    -0.07125521149    1.493518576       3.066489281       
                  1.493518576       3.066489281       -0.06396650787    0.07534453042     
1190007740        -0.02807428457    -0.129350082      1.959987          -2.949952092      
                  1.959987          -2.949952092      0.1245950062      -0.04231401376    
1275007650        0.01030619438     0.07666264472     -3.491987389      -0.3428368929     
                  -3.491987389      -0.3428368929     -0.03065306629    -0.08966751668    
1360007560        0.06679395624     -0.01780685118    1.415827745       3.178005477       
                  1.415827745       3.178005477       -0.006137923209   0.102481408       
1445007470        0.04463106592     -0.1559735639     2.041717321       -2.890507477      
                  2.041717321       -2.890507477      0.1477338774      -0.08835144678    
1530007380        -0.06361133174    0.0768368264      -3.347798181      -0.3836631342     
                  -3.347798181      -0.3836631342     -0.07016609293    -0.06519785604    
1615007290        0.08635762763     0.1266871954      1.38726674        3.078302503       
                  1.38726674        3.078302503       0.0226085971      0.1429513759      
1700007200        0.08472473681     -0.15784916       1.936567145       -2.725410919      
                  1.936567145       -2.725410919      0.1113412341      -0.1339752193     
1785007110        -0.181654128      -0.05014873016    -3.331835719      -0.3940728838     
                  -3.331835719      -0.3940728838     -0.1331515622     -0.06470439045    
1870007020        0.009317005817    0.192009891       1.323247049       3.100099587       
                  1.323247049       3.100099587       0.06534197832     0.1329553478      
1955006930        0.1843047006      -0.122375428      1.982027043       -2.683244082      
                  1.982027043       -2.683244082      0.08970858506     -0.1948455201     
2040006840        -0.1662442674     -0.2060730357     -3.333027119      -0.4724414521     
                  -3.333027119      -0.4724414521     -0.1561110134     -0.04205653006    
2125006750        -0.1020465022     0.2214792934      1.26356638        3.072532478       
                  1.26356638        3.072532478       0.131152961       0.137580884       
2210006660        0.2718489256      0.006088049507    1.966824888       -2.543292717      
                  1.966824888       -2.543292717      0.04826990959     -0.2194068162     
2295006570        -0.08610108527    -0.31080616       -3.168687907      -0.5205593396     
                  -3.168687907      -0.5205593396     -0.1873079746     0.01490465405     
2380006480        -0.2463895786     0.1678279883      1.096022707       3.058118781       
                  1.096022707       3.058118781       0.1674345219      0.114140019       
2465006390        0.2517350958      0.1635167434      1.978169086       -2.372975084      
                  1.978169086       -2.372975084      -0.0195800412     -0.2612017829     
2550006300        0.06715945748     -0.3571581271     -3.081198754      -0.7269544536     
                  -3.081198754      -0.7269544536     -0.1918479341     0.06078973613     
2635006210        -0.322217372      0.02969428381     0.8851078816      3.017623828       
                  0.8851078816      3.017623828       0.2144464723      0.06385318112     
2720006120        0.1400545785      0.3020906475      2.092018434       -2.188644002      
                  2.092018434       -2.188644002      -0.09076509283    -0.2663238525     
2805006030        0.2250062408      -0.2990218373     -2.899265924      -0.8394961785     
                  -2.899265924      -0.8394961785     -0.1636395227     0.1231303778      
2890005940        -0.3276423294     -0.132620765      0.6898630959      2.909943008       
                  0.6898630959      2.909943008       0.2335744861      0.008397374194    
2975005850        -0.04186295051    0.3689554819      2.205467677       -1.870087304      
                  2.205467677       -1.870087304      -0.1623009326     -0.2497808607     
3060005760        0.3313251341      -0.1487515436     -2.796928699      -1.142395195      
                  -2.796928699      -1.142395195      -0.1191759905     0.1686391516      
3145005670        -0.2330471949     -0.2830310397     0.3752416852      2.923320097       
                  0.3752416852      2.923320097       0.2334488168      -0.07235078837    
3230005580        -0.2205502623     0.3037025044      2.455313216       -1.610180062      
                  2.455313216       -1.610180062      -0.2270201412     -0.2094078005     
3315005490        0.3625613385      0.02454915368     -2.588969089      -1.286150288      
                  -2.588969089      -1.286150288      -0.04560662082    0.2031796383      
3400005400        -0.07878283019    -0.3602679046     0.08373682576     2.862192503       
                  0.08373682576     2.862192503       0.2034944001      -0.1455165094     
3485005310        -0.3491391921     0.1806328733      2.508948724       -1.36270059       
                  2.508948724       -1.36270059       -0.2819710694     -0.1307967581     
3570005220        0.3053912938      0.1937729725      -2.397419992      -1.409787677      
                  -2.397419992      -1.409787677      0.0343151474      0.2122218076      
3655005130        0.07931387293     -0.3579583609     -0.09327038345    2.718026651       
                  -0.09327038345    2.718026651       0.136942199       -0.2083679066     
3740005040        -0.4020726553     0.0180438933      2.451817852       -1.126033922      
                  2.451817852       -1.126033922      -0.3116054501     -0.0401728013     
3825004950        0.171001543       0.3094914553      -2.152414254      -1.519246642      
                  -2.152414254      -1.519246642      0.1149450284      0.1791705745      
3910004860        0.2368358924      -0.2806001662     -0.337947257      2.590869957       
                  -0.337947257      2.590869957       0.05381413068     -0.2584585247     
3995004770        -0.3738416436     -0.1550948049     2.402662136       -0.8950898802     
                  2.402662136       -0.8950898802     -0.3058369059     0.06615084389     
4080004680        -0.003210683863   0.3544397113      -1.952777742      -1.660921307      
                  -1.952777742      -1.660921307      0.1944327761      0.1286811947      
4165004590        0.3289018936      -0.1392337546     -0.5498938123     2.543672188       
                  -0.5498938123     2.543672188       -0.04645974161    -0.2761541522     
4250004500        -0.2761594249     -0.2771028709     2.448250414       -0.6877387795     
                  2.448250414       -0.6877387795     -0.2645228996     0.1770989817      
4335004410        -0.1803596926     0.3220953213      -1.772740934      -1.766460004      
                  -1.772740934      -1.766460004      0.2328171212      0.04442479895     
4420004320        0.3352648329      0.02771118712     -0.7425406747     2.469934545       
                  -0.7425406747     2.469934545       -0.1639614255     -0.2523972022     
4505004230        -0.134880683      -0.3472138162     2.434540199       -0.5244651407     
                  2.434540199       -0.5244651407     -0.1971779054     0.2602850913      
4590004140        -0.3105355004     0.2135491216      -1.584022631      -1.839450813      
                  -1.584022631      -1.839450813      0.230999459       -0.05757450217    
4675004050        0.2781588783      0.168845778       -0.8509165549     2.309085442       
                  -0.8509165549     2.309085442       -0.2563855733     -0.1923593709     
4760003960        0.02814633903     -0.3516410691     2.352980721       -0.3398911938     
                  2.352980721       -0.3398911938     -0.08763089142    0.3123673927      
4845003870        -0.3692084261     0.07066825929     -1.388829021      -1.896869763      
                  -1.388829021      -1.896869763      0.201368517       -0.1549944138     
4930003780        0.1535594386      0.2722086813      -1.024061341      2.175380236       
                  -1.024061341      2.175380236       -0.3214726764     -0.1006144354     
5015003690        0.1677751156      -0.2775125484     2.293551326       -0.1422364262     
                  2.293551326       -0.1422364262     0.03547728416     0.3368055334      
5100003600        -0.3655384878     -0.06800912985    -1.223991152      -1.902622422      
                  -1.223991152      -1.902622422      0.1200516248      -0.2301526762     
5185003510        0.007952976544    0.3109529596      -1.13712666       1.992615582       
                  -1.13712666       1.992615582       -0.3519531774     0.01065711842     
5270003420        0.2527358576      -0.1487681396     2.277949792       0.08325579256     
                  2.277949792       0.08325579256     0.148948169       0.302014718       
5355003330        -0.3081361856     -0.1755745794     -1.089235759      -1.920430049      
                  -1.089235759      -1.920430049      -0.001743559557   -0.2808914571     
5440003240        -0.1131933104     0.2778280968      -1.213849352      1.890011604       
                  -1.213849352      1.890011604       -0.3219423164     0.1313091703      
5525003150        0.2760723437      -0.0221212157     2.24905055        0.1991036209      
                  2.24905055        0.1991036209      0.2692650021      0.2033980905      
5610003060        -0.2028464368     -0.2256263114     -1.013045243      -1.937225992      
                  -1.013045243      -1.937225992      -0.1357774674     -0.2697543037     
5695002970        -0.1840467951     0.2163245838      -1.265446995      1.755263376       
                  -1.265446995      1.755263376       -0.2233065835     0.2526745961      
5780002880        0.2570536445      0.0882838043      2.189102856       0.3059595119      
                  2.189102856       0.3059595119      0.3306695755      0.06035468519     
5865002790        -0.111125941      -0.2292997544     -0.8673140613     -1.89291517       
                  -0.8673140613     -1.89291517       -0.2711139868     -0.1875989903     
5950002700        -0.2195727703     0.1576705493      -1.305775281      1.621503197       
                  -1.305775281      1.621503197       -0.084538221      0.3344901245      
6035002610        0.1979735144      0.1475897521      2.067119575       0.3568405014      
                  2.067119575       0.3568405014      0.3012383437      -0.09476921148    
6120002520        -0.03634142194    -0.2100983625     -0.7481557707     -1.869556269      
                  -0.7481557707     -1.869556269      -0.3577375603     -0.04755200742    
6205002430        -0.2177343562     0.1077025799      -1.315082511      1.531524668       
                  -1.315082511      1.531524668       0.102320947       0.3402364228      
6290002340        0.1657365837      0.1736659036      1.971629951       0.3879274744      
                  1.971629951       0.3879274744      0.1989172707      -0.2473717257     
6375002250        0.001336825675    -0.2007792906     -0.6507725174     -1.831843946      
                  -0.6507725174     -1.831843946      -0.3765618171     0.1276257454      
6460002160        -0.2300906462     0.09980524659     -1.295709729      1.445500315       
                  -1.295709729      1.445500315       0.2715919072      0.2741696376      
6545002070        0.1552894298      0.216641227       1.85310545        0.4101464906      
                  1.85310545        0.4101464906      0.03105302189     -0.3211880285     
6630001980        0.06928000736     -0.2044554688     -0.5486123808     -1.74912495       
                  -0.5486123808     -1.74912495       -0.3003487036     0.30221204        
6715001890        -0.2560220678     0.07526937332     -1.236835117      1.292547948       
                  -1.236835117      1.292547948       0.3845694895      0.1581927856      
6800001800        0.1367387728      0.2828760817      1.693558813       0.4695691124      
                  1.693558813       0.4695691124      -0.1304875974     -0.3096843672     
6885001710        0.1692376329      -0.2043233983     -0.3956927634     -1.658570396      
                  -0.3956927634     -1.658570396      -0.1898495091     0.3889304066      
6970001620        -0.2872030272     -0.015886596      -1.273323114      1.115282232       
                  -1.273323114      1.115282232       0.4242590477      0.02571092829     
7055001530        0.06782639569     0.3489953076      1.596628957       0.560887768       
                  1.596628957       0.560887768       -0.2573276507     -0.2723910459     
7140001440        0.2831000827      -0.1618777734     -0.2873302514     -1.646921215      
                  -0.2873302514     -1.646921215      -0.06513262772    0.4551227043      
7225001350        -0.2658072536     -0.1439575719     -1.314036369      0.9910199413      
                  -1.314036369      0.9910199413      0.4536122815      -0.1018019166     
7310001260        -0.03993644504    0.3852477679      1.512236142       0.5751577878      
                  1.512236142       0.5751577878      -0.3596698371     -0.1861165272     
7395001170        0.3898673114      -0.03478790996    -0.1447505822     -1.566837545      
                  -0.1447505822     -1.566837545      0.07569742314     0.4831759846      
7480001080        -0.1702482972     -0.2967101408     -1.281761375      0.8507300424      
                  -1.281761375      0.8507300424      0.3956889026      -0.2365896489     
7565000990        -0.2305115459     0.3451788537      1.391505632       0.6207972906      
                  1.391505632       0.6207972906      -0.4268032384     -0.08595585132    
7650000900        0.41406885        0.1361640976      -0.04756654576    -1.466593142      
                  -0.04756654576    -1.466593142      0.2115489652      0.4405495646      
7735000810        0.01036126815     -0.3939034845     -1.313170365      0.7501686819      
                  -1.313170365      0.7501686819      0.3182694508      -0.3470605041     
7820000720        -0.349640088      0.1991488888      1.296719401       0.7242742761      
                  1.296719401       0.7242742761      -0.4084689085     0.02359497393     
7905000630        0.3548347906      0.2941604452      0.05376444311     -1.373942741      
                  0.05376444311     -1.373942741      0.3238326617      0.3642294664      
7990000540        0.2340100042      -0.392967316      -1.316119513      0.5185960849      
                  -1.316119513      0.5185960849      0.2223454407      -0.4092632554     
8075000450        -0.419647135      -0.03861057972    1.116758258       0.8908034159      
                  1.116758258       0.8908034159      -0.3904912078     0.1181405072      
8160000360        0.1832728684      0.4290517141      0.1716908071      -1.319267226      
                  0.1716908071      -1.319267226      0.3999669616      0.2810052012      
8245000270        0.3897932313      -0.2774136323     -1.270790088      0.3779458956      
                  -1.270790088      0.3779458956      0.1139767232      -0.4458526642     
8330000180        -0.3547608276     -0.2836230769     0.9965047164      0.9446737687      
                  0.9965047164      0.9446737687      -0.3441645054     0.1931002909      
8415000090        -0.05829320085    0.4400298954      0.2583475787      -1.254883903      
                  0.2583475787      -1.254883903      0.4373934116      0.1675867831      
8500000000        0.4680471615      -0.09054724813    -1.191678687      0.2953680066      
                  -1.191678687      0.2953680066      -0.00333321373    -0.4631614178     
