! RsaToolbox (C) 2013 Rohde & Schwarz America
! 
! Number of points: 101
! Number of ports: 2
! Balanced ports?: 0
! 
! 
# Hz S RI R 50
9000              1.003919697       -0.01520811093    6.277085981e-05   -3.509833925e-06  
                  6.277085981e-05   -3.509833925e-06  1.013798428       -0.024517326      
85008910          0.0008461381315   0.1557030312      3.186160938       5.461509322       
                  3.186160938       5.461509322       -0.0921895041     -0.1157503048     
170008820         0.1399709935      -0.04181458422    3.165204814       -5.202068982      
                  3.165204814       -5.202068982      -0.02061040624    0.1716661013      
255008730         -0.1735841359     -0.07489722578    -6.034697996      -0.156364866      
                  -6.034697996      -0.156364866      0.07762598455     -0.02658548556    
340008640         -0.06353941307    0.1668560165      2.649744706       5.327672346       
                  2.649744706       5.327672346       -0.1267862212     -0.05395567881    
425008550         0.156730652       -0.0456038071     3.363830925       -4.85709718       
                  3.363830925       -4.85709718       0.01653503934     0.102867845       
510008460         -0.1000135915     -0.16146673       -5.884990847      -0.6275547456     
                  -5.884990847      -0.6275547456     0.07087359385     -0.07974125555    
595008370         -0.1061291632     0.1371708719      2.23391071        5.39794358        
                  2.23391071        5.39794358        -0.08383480456    -0.01223750071    
680008280         0.2017668195      0.0335532682      3.635345959       -4.57127721       
                  3.635345959       -4.57127721       0.09221065441     0.07549408114     
765008190         0.01020340114     -0.1608938537     -5.712981883      -1.080235393      
                  -5.712981883      -1.080235393      0.06023259763     -0.06073049685    
850008100         -0.1797878406     0.1098784457      1.88542838        5.49652122        
                  1.88542838        5.49652122        -0.07178817177    0.06508568965     
935008010         0.1431758406      0.1220007471      3.916882842       -4.229458326      
                  3.916882842       -4.229458326      0.1020744682      0.03893184834     
1020007920        0.07482560515     -0.1511627361     -5.572069928      -1.420868036      
                  -5.572069928      -1.420868036      -0.00485591285    -0.07573385922    
1105007830        -0.2227102402     -0.008640466086   1.502139865       5.586940039       
                  1.502139865       5.586940039       -0.06311035197    0.07529799792     
1190007740        0.06988432716     0.1375814852      4.163768525       -3.856855091      
                  4.163768525       -3.856855091      0.1243223781      -0.04251532788    
1275007650        0.1624232824      -0.1064650923     -5.454704231      -1.797511978      
                  -5.454704231      -1.797511978      -0.03011679537    -0.08914589099    
1360007560        -0.1607012413     -0.09949590385    1.06768           5.613632696       
                  1.06768           5.613632696       -0.005708068959   0.1018926189      
1445007470        0.0008175705555   0.1386098546      4.373604562       -3.549027706      
                  4.373604562       -3.549027706      0.1471825315      -0.08840676955    
1530007380        0.1813104331      -0.01033919909    -5.294923093      -2.147886454      
                  -5.294923093      -2.147886454      -0.06937476894    -0.0646335893     
1615007290        -0.09185416852    -0.120533179      0.6502718072      5.567768799       
                  0.6502718072      5.567768799       0.02306273068     0.1422610216      
1700007200        -0.08635026133    0.09387936789     4.625157364       -3.253812872      
                  4.625157364       -3.253812872      0.1108695319      -0.1335306918     
1785007110        0.1238244653      0.03080171774     -5.051564843      -2.482479028      
                  -5.051564843      -2.482479028      -0.1321118852     -0.06419097193    
1870007020        -0.0213218841     -0.131173377      0.2603804222      5.573051505       
                  0.2603804222      5.573051505       0.06574683486     0.1322248482      
1955006930        -0.102798924      0.01929448169     4.82734178        -2.906019273      
                  4.82734178        -2.906019273      0.08937184523     -0.1939683381     
2040006840        0.07878964534     0.03548625539     -4.815680486      -2.759121941      
                  -4.815680486      -2.759121941      -0.1549746483     -0.04167258136    
2125006750        0.03421553508     -0.08815997682    -0.1468165178     5.59934692        
                  -0.1468165178     5.59934692        0.1309246097      0.1369968252      
2210006660        -0.08671556601    -0.000751721338   4.914338902       -2.555454282      
                  4.914338902       -2.555454282      0.04785464284     -0.2182537556     
2295006570        0.02727080819     0.03081322148     -4.583186889      -3.080607983      
                  -4.583186889      -3.080607983      -0.1863754573     0.01530533567     
2380006480        0.02409053009     -0.04865299902    -0.5065333231     5.530763978       
                  -0.5065333231     5.530763978       0.1668683295      0.114091606       
2465006390        -0.08196072848    -0.01351533892    4.983458342       -2.242335025      
                  4.983458342       -2.242335025      -0.01965784023    -0.2598562572     
2550006300        0.01212132057     -0.005814957995   -4.274010967      -3.413892841      
                  -4.274010967      -3.413892841      -0.1912505347     0.06047613275     
2635006210        0.01847171747     -0.043473856      -0.8274500988     5.469432477       
                  -0.8274500988     5.469432477       0.2135875124      0.0642385638      
2720006120        -0.0781672438     -0.004643907612   5.055176902       -1.875279506      
                  5.055176902       -1.875279506      -0.09074196877    -0.2648587176     
2805006030        0.02155718672     -0.006446849674   -3.992356791      -3.650550642      
                  -3.992356791      -3.650550642      -0.1632828078     0.1231404256      
2890005940        0.01304705222     -0.0392543698     -1.15197886       5.33932645        
                  -1.15197886       5.33932645        0.2323440605      0.00904528727     
2975005850        -0.09361148753    0.0001332173229   5.081432909       -1.421257069      
                  5.081432909       -1.421257069      -0.1621853515     -0.2480706864     
3060005760        0.02560284475     0.005787431079    -3.700017189      -3.982363198      
                  -3.700017189      -3.982363198      -0.1191347475     0.1686711161      
3145005670        0.02933089771     -0.05073822997    -1.543503342      5.185968979       
                  -1.543503342      5.185968979       0.2319519422      -0.07171347928    
3230005580        -0.1042533283     -0.02469087634    5.185083954       -1.024495279      
                  5.185083954       -1.024495279      -0.2269509129     -0.2081871722     
3315005490        0.02068346032     0.03165395843     -3.439084918      -4.192545706      
                  -3.439084918      -4.192545706      -0.04600084797    0.2027018129      
3400005400        0.0576036097      -0.03889773112    -1.875483333      5.019583467       
                  -1.875483333      5.019583467       0.2018691853      -0.14504548       
3485005310        -0.1053591101     -0.05670004908    5.273664374       -0.6789247007     
                  5.273664374       -0.6789247007     -0.2820950352     -0.129912271      
3570005220        -0.01031219486    0.05465132396     -3.270995769      -4.356430345      
                  -3.270995769      -4.356430345      0.03352791764     0.2109343882      
3655005130        0.07040727832     -0.008311463905   -2.050176796      4.883445596       
                  -2.050176796      4.883445596       0.1350037246      -0.2086270852     
3740005040        -0.08849311284    -0.09031844292    5.252841982       -0.3472053458     
                  5.252841982       -0.3472053458     -0.3119622244     -0.03980869888    
3825004950        -0.05150050963    0.04918792219     -3.020003181      -4.451855242      
                  -3.020003181      -4.451855242      0.1137571508      0.1764694542      
3910004860        0.07320714133     0.02542783155     -2.434751622      4.667591037       
                  -2.434751622      4.667591037       0.05096772397     -0.258988378      
3995004770        -0.04551032009    -0.1152685713     5.258252959       -0.06484900505    
                  5.258252959       -0.06484900505    -0.3053709388     0.06523585033     
4080004680        -0.08380885432    0.02560303982     -2.749572751      -4.596605054      
                  -2.749572751      -4.596605054      0.1911485819      0.1284987004      
4165004590        0.0556663214      0.06241711294     -2.691985481      4.515452751       
                  -2.691985481      4.515452751       -0.04617392733    -0.2720627285     
4250004500        -0.002357746035   -0.1007622767     5.320251263       0.1649766389      
                  5.320251263       0.1649766389      -0.2657218744     0.1756443327      
4335004410        -0.1096078313     -0.000414712311   -2.506997769      -4.673353358      
                  -2.506997769      -4.673353358      0.2302833347      0.04440537389     
4420004320        0.01372025738     0.08347485095     -2.84734599       4.402680124       
                  -2.84734599       4.402680124       -0.1637616227     -0.2510061416     
4505004230        0.02939082465     -0.07808970741    5.239771169       0.3036298854      
                  5.239771169       0.3036298854      -0.196878158      0.2591570916      
4590004140        -0.1182382361     -0.03552943062    -2.253317083      -4.676043216      
                  -2.253317083      -4.676043216      0.229853852       -0.05752347251    
4675004050        -0.02269964821    0.08137019806     -2.894296211      4.272712          
                  -2.894296211      4.272712          -0.2554847498     -0.1914309991     
4760003960        0.05863347751     -0.0422636627     5.071636815       0.5112411426      
                  5.071636815       0.5112411426      -0.08666142203    0.3113863867      
4845003870        -0.1030823492     -0.06020564317    -2.01894133       -4.681457011      
                  -2.01894133       -4.681457011      0.2005406881      -0.1548673837     
4930003780        -0.05859633883    0.06412238314     -3.024137185      4.074502179       
                  -3.024137185      4.074502179       -0.319767719      -0.09989788253    
5015003690        0.06430081079     0.01091583108     4.925063725       0.7281549544      
                  4.925063725       0.7281549544      0.03543061554     0.3348206282      
5100003600        -0.08428924614    -0.06133059734    -1.865554371      -4.680760592      
                  -1.865554371      -4.680760592      0.1197000762      -0.229342629      
5185003510        -0.08396849296    0.0362311042      -3.046936477      3.834697172       
                  -3.046936477      3.834697172       -0.3500242085     0.01125377135     
5270003420        0.04078044482     0.05138779442     4.768936851       0.935345124       
                  4.768936851       0.935345124       0.1495806722      0.3000435427      
5355003330        -0.07256850914    -0.04397780796    -1.765647169      -4.662656533      
                  -1.765647169      -4.662656533      -0.002036107779   -0.2793183406     
5440003240        -0.07902436555    -0.005989841105   -2.996020876      3.655096911       
                  -2.996020876      3.655096911       -0.3198605758     0.132022148       
5525003150        0.01524227803     0.05303607435     4.717099767       1.027686347       
                  4.717099767       1.027686347       0.2689888748      0.2017220544      
5610003060        -0.05657587332    -0.005231409362   -1.690581741      -4.499054329      
                  -1.690581741      -4.499054329      -0.1365965187     -0.2679995811     
5695002970        -0.03539722571    -0.01453094695    -2.98367923       3.429151178       
                  -2.98367923       3.429151178       -0.2215612402     0.2529249991      
5780002880        0.01010193636     0.03222756736     4.618598828       1.090002692       
                  4.618598828       1.090002692       0.3297036232      0.05841138604     
5865002790        -0.07848289111    0.03953704539     -1.558685538      -4.265838588      
                  -1.558685538      -4.265838588      -0.2722040789     -0.1856353577     
5950002700        0.004920799733    0.02216225176     -3.004393303      3.217774891       
                  -3.004393303      3.217774891       -0.08301670174    0.33325731        
6035002610        0.009888280021    -0.01459099371    4.380168752       1.004970296       
                  4.380168752       1.004970296       0.2988648555      -0.09720918138    
6120002520        -0.1309417994     0.04177319437     -1.415041887      -4.046991482      
                  -1.415041887      -4.046991482      -0.3583889257     -0.04575648055    
6205002430        0.03698371799     0.08950232117     -2.916088449      3.014990316       
                  -2.916088449      3.014990316       0.1020957891      0.3377791365      
6290002340        0.07378664129     -0.05792862883    4.16133981        0.9177180366      
                  4.16133981        0.9177180366      0.1955700727      -0.2479363142     
6375002250        -0.1917181024     -0.01289347328    -1.288447282      -3.816023198      
                  -1.288447282      -3.816023198      -0.3762067358     0.129575327       
6460002160        0.002580920098    0.1939812021      -2.736391494      2.822193895       
                  -2.736391494      2.822193895       0.2709891857      0.2725921431      
6545002070        0.1737981016      -0.02897731171    3.813036153       0.877830289       
                  3.813036153       0.877830289       0.02908382571     -0.3202842606     
6630001980        -0.1799042882     -0.1191702785     -1.131028978      -3.561838328      
                  -1.131028978      -3.561838328      -0.2988576397     0.3023238868      
6715001890        -0.08820219117    0.2554714572      -2.501737556      2.520041536       
                  -2.501737556      2.520041536       0.3841188112      0.1564403621      
6800001800        0.2522859726      0.07776106716     3.397920786       0.9725873409      
                  3.397920786       0.9725873409      -0.1313600303     -0.3089847522     
6885001710        -0.07901603074    -0.2363728263     -0.8220096709     -3.273944794      
                  -0.8220096709     -3.273944794      -0.1883021487     0.3882297828      
6970001620        -0.2151814318     0.2128033749      -2.460554577      2.140756036       
                  -2.460554577      2.140756036       0.4235462293      0.02374146708     
7055001530        0.2462687195      0.218593719       3.063936957       1.126850115       
                  3.063936957       1.126850115       -0.2572067643     -0.2715534889     
7140001440        0.09490244174     -0.2890426481     -0.5447226988     -3.077801017      
                  -0.5447226988     -3.077801017      -0.06356591536    0.4542756898      
7225001350        -0.2939367576     0.08001944575     -2.448957215      1.838807441       
                  -2.448957215      1.838807441       0.4529241774      -0.1032105117     
7310001260        0.1562545085      0.3486412896      2.759644207       1.092585806       
                  2.759644207       1.092585806       -0.3589274042     -0.185285478      
7395001170        0.2906605584      -0.2148837164     -0.2549532427     -2.850034567      
                  -0.2549532427     -2.850034567      0.07691531115     0.4823906568      
7480001080        -0.2899704498     -0.1233331919     -2.30476696       1.560200858       
                  -2.30476696       1.560200858       0.3950777897      -0.2370147328     
7565000990        -0.04378372009    0.3958442388      2.520254907       1.104865804       
                  2.520254907       1.104865804       -0.4252473601     -0.0845620969     
7650000900        0.4004241791      -0.04645778954    -0.0599599091     -2.533994419      
                  -0.0599599091     -2.533994419      0.2126999662      0.43916984        
7735000810        -0.152900816      -0.3102307994     -2.233535125      1.311434208       
                  -2.233535125      1.311434208       0.3174884793      -0.3464328508     
7820000720        -0.213874443      0.3112571212      2.215832371       1.205923523       
                  2.215832371       1.205923523       -0.4064443807     0.02475800094     
7905000630        0.4109597667      0.14488968        0.0957347824      -2.251162054      
                  0.0957347824      -2.251162054      0.3243884546      0.3628579002      
7990000540        0.07361547197     -0.3902666864     -2.16320189       0.899102862       
                  -2.16320189       0.899102862       0.221742208       -0.4074744595     
8075000450        -0.3531433195     0.1130818341      1.859266237       1.404565208       
                  1.859266237       1.404565208       -0.3883842805     0.1187905643      
8160000360        0.2922698511      0.3171757261      0.2505283384      -2.146629367      
                  0.2505283384      -2.146629367      0.3994985725      0.2802390024      
8245000270        0.262026277       -0.3340464418     -2.005504368      0.6016680568      
                  -2.005504368      0.6016680568      0.1144427497      -0.4444426453     
8330000180        -0.3649225148     -0.1380494617     1.60495265        1.475134657       
                  1.60495265        1.475134657       -0.3433873094     0.1933462436      
8415000090        0.07340896702     0.393753362       0.3846161233      -1.964274702      
                  0.3846161233      -1.964274702      0.4359980919      0.1675675312      
8500000000        0.3849889315      -0.1824627745     -1.809532227      0.4369435418      
                  -1.809532227      0.4369435418      -0.004254923213   -0.4609617367     
