! RsaToolbox (C) 2013 Rohde & Schwarz America
! 
! Number of points: 101
! Number of ports: 2
! Balanced ports?: 0
! 
! 
# Hz S RI R 50
9000              1.012905117       -0.02147467533    9.04922606e-05    7.514127538e-06   
                  9.04922606e-05    7.514127538e-06   1.020328354       -0.02387722221    
85008910          0.002406357673    0.1593393753      3.194498728       5.517548943       
                  3.194498728       5.517548943       -0.09238629668    -0.1154055573     
170008820         0.1422981439      -0.04434004792    3.19312971        -5.226345938      
                  3.19312971        -5.226345938      -0.02012862631    0.1714842858      
255008730         -0.1761757519     -0.07584987405    -6.062931472      -0.1656037851     
                  -6.062931472      -0.1656037851     0.07738337804     -0.02636494921    
340008640         -0.06322306417    0.1700167934      2.653450902       5.358763296       
                  2.653450902       5.358763296       -0.1264380875     -0.05352915468    
425008550         0.1595421499      -0.04657818378    3.392010238       -4.871670974      
                  3.392010238       -4.871670974      0.01663354129     0.1028119242      
510008460         -0.1018480486     -0.1637571153     -5.910215294      -0.6471901731     
                  -5.910215294      -0.6471901731     0.07051501299     -0.07935456747    
595008370         -0.107425139      0.1399670159      2.229650845       5.429832503       
                  2.229650845       5.429832503       -0.08359082739    -0.01204463825    
680008280         0.2046469614      0.03383665416     3.666749387       -4.576889673      
                  3.666749387       -4.576889673      0.09239505736     0.07524035095     
765008190         0.009392608012    -0.1639414747     -5.735928438      -1.104924054      
                  -5.735928438      -1.104924054      0.06021342114     -0.06068802267    
850008100         -0.181846836      0.1116342214      1.869592077       5.527642351       
                  1.869592077       5.527642351       -0.07171013495    0.06518675156     
935008010         0.1458533719      0.1235717399      3.949194803       -4.233010408      
                  3.949194803       -4.233010408      0.1019467753      0.03890222205     
1020007920        0.07550847824     -0.154216508      -5.593219716      -1.449434252      
                  -5.593219716      -1.449434252      -0.0046121256     -0.07575393798    
1105007830        -0.2255483402     -0.008288912181   1.47978824        5.618719769       
                  1.47978824        5.618719769       -0.06283142408    0.07513330107     
1190007740        0.0712586436      0.1404668584      4.198519865       -3.860320868      
                  4.198519865       -3.860320868      0.1241793689      -0.04261795825    
1275007650        0.1644141167      -0.1088198748     -5.469658597      -1.832023042      
                  -5.469658597      -1.832023042      -0.02981937727    -0.08911533372    
1360007560        -0.1635371468     -0.1007825148     1.04308502        5.645579288       
                  1.04308502        5.645579288       -0.005495820825   0.1015759986      
1445007470        0.0007148417958   0.1421440074      4.412484915       -3.54557629       
                  4.412484915       -3.54557629       0.1471348249      -0.08846651667    
1530007380        0.1849036819      -0.01142838158    -5.309561031      -2.190761281      
                  -5.309561031      -2.190761281      -0.06927086466    -0.06463833767    
1615007290        -0.09440188014    -0.1243981238     0.6190309218      5.606216493       
                  0.6190309218      5.606216493       0.02350427518     0.1422981855      
1700007200        -0.08863539715    0.09747492966     4.671430097       -3.243506808      
                  4.671430097       -3.243506808      0.1107428811      -0.1335349513     
1785007110        0.1285989029      0.03184583793     -5.064820888      -2.529750525      
                  -5.064820888      -2.529750525      -0.1319106898     -0.06378576591    
1870007020        -0.02181436047    -0.1363794953     0.2225753631      5.609884965       
                  0.2225753631      5.609884965       0.06577185418     0.1320584994      
1955006930        -0.107147771      0.02173980451     4.878985995       -2.888805182      
                  4.878985995       -2.888805182      0.08929690023     -0.1939512609     
2040006840        0.08304913168     0.03931492498     -4.829010734      -2.816822127      
                  -4.829010734      -2.816822127      -0.1545679452     -0.0413114207     
2125006750        0.0363395958      -0.09337335184    -0.1936580377     5.638995953       
                  -0.1936580377     5.638995953       0.1309982495      0.1369247574      
2210006660        -0.09277118117    -0.0009545573366  4.975741418       -2.532714581      
                  4.975741418       -2.532714581      0.04794723641     -0.2181898294     
2295006570        0.02989914098     0.03701292689     -4.596315345      -3.146960626      
                  -4.596315345      -3.146960626      -0.1859495181     0.01543664028     
2380006480        0.02911539417     -0.0527929675     -0.5568977152     5.576386286       
                  -0.5568977152     5.576386286       0.1667144918      0.1139170345      
2465006390        -0.08834720054    -0.01648896555    5.053753753       -2.217922561      
                  5.053753753       -2.217922561      -0.01985965034    -0.2591107017     
2550006300        0.0116952024      0.001657438286    -4.289452917      -3.485067139      
                  -4.289452917      -3.485067139      -0.1907626574     0.06087049564     
2635006210        0.02608669139     -0.04481592805    -0.8966048351     5.517325971       
                  -0.8966048351     5.517325971       0.2134775229      0.06438610291     
2720006120        -0.08254173629    -0.01110167412    5.129897079       -1.840955414      
                  5.129897079       -1.840955414      -0.09068288917    -0.2644959506     
2805006030        0.01766181778     0.0004877366319   -4.004146428      -3.733301715      
                  -4.004146428      -3.733301715      -0.1630003514     0.1239701327      
2890005940        0.02154925001     -0.03677982233    -1.235222128      5.39465388        
                  -1.235222128      5.39465388        0.2320252962      0.009243284636    
2975005850        -0.09516931368    -0.008540591096   5.162879344       -1.384726631      
                  5.162879344       -1.384726631      -0.1621524879     -0.247580278      
3060005760        0.01831612301     0.01042592036     -3.707347465      -4.074747721      
                  -3.707347465      -4.074747721      -0.1188991968     0.1686696341      
3145005670        0.03666090878     -0.04493095821    -1.633489914      5.24254586        
                  -1.633489914      5.24254586        0.2317546181      -0.07151065398    
3230005580        -0.1016225246     -0.03303023677    5.270568426       -0.9847870501     
                  5.270568426       -0.9847870501     -0.2277510875     -0.2073950411     
3315005490        0.01140045339     0.03243207524     -3.432725882      -4.302272294      
                  -3.432725882      -4.302272294      -0.04598602921    0.2026134722      
3400005400        0.06136473102     -0.02920123086    -1.990592205      5.074747438       
                  -1.990592205      5.074747438       0.2010620536      -0.1449925866     
3485005310        -0.09769361341    -0.06392236136    5.371882193       -0.6167519534     
                  5.371882193       -0.6167519534     -0.2822851564     -0.1295172423     
3570005220        -0.02021305285    0.04958451694     -3.252547763      -4.492845543      
                  -3.252547763      -4.492845543      0.03348044197     0.2106149146      
3655005130        0.06927770536     0.003739580253    -2.187219408      4.943046163       
                  -2.187219408      4.943046163       0.1341158462      -0.2090907057     
3740005040        -0.07699324537    -0.09294859078    5.363018902       -0.260706112      
                  5.363018902       -0.260706112      -0.3122814531     -0.03970182763    
3825004950        -0.05883556011    0.03705264193     -2.978915089      -4.626885768      
                  -2.978915089      -4.626885768      0.1133873991      0.1758983773      
3910004860        0.06402029056     0.03742870348     -2.607254235      4.720229892       
                  -2.607254235      4.720229892       0.04989038236     -0.259472797      
3995004770        -0.03086040116    -0.1113417777     5.393933509       0.06158796692     
                  5.393933509       0.06158796692     -0.305649051      0.06542519186     
4080004680        -0.08507124789    0.008123041155    -2.704768706      -4.799848041      
                  -2.704768706      -4.799848041      0.190436935       0.1284580051      
4165004590        0.03956265299     0.07049106577     -2.870924875      4.582085115       
                  -2.870924875      4.582085115       -0.04670940607    -0.2715092705     
4250004500        0.01145342538     -0.08846734978    5.483281578       0.3090060698      
                  5.483281578       0.3090060698      -0.2656811584     0.1755762314      
4335004410        -0.1014786445     -0.01956093788    -2.448438656      -4.909519467      
                  -2.448438656      -4.909519467      0.2296091383      0.04467989111     
4420004320        -0.007136618502   0.08382357005     -3.074175532      4.467905318       
                  -3.074175532      4.467905318       -0.1640935333     -0.2506545176     
4505004230        0.03810947513     -0.0569687233     5.432549792       0.4885660743      
                  5.432549792       0.4885660743      -0.1964471948     0.258882422       
4590004140        -0.1000116017     -0.05209029487    -2.181805505      -4.946035279      
                  -2.181805505      -4.946035279      0.2296340105      -0.05759114738    
4675004050        -0.04496426493    0.07051302031     -3.170941007      4.350926098       
                  -3.170941007      4.350926098       -0.2552410603     -0.191227901      
4760003960        0.05755509635     -0.01627602904    5.283253254       0.7241426617      
                  5.283253254       0.7241426617      -0.08563097666    0.3112010502      
4845003870        -0.07690649993    -0.06855510145    -1.933778489      -4.996758686      
                  -1.933778489      -4.996758686      0.2003119017      -0.1547649127     
4930003780        -0.07626169239    0.04090303024     -3.3543812        4.167502478       
                  -3.3543812        4.167502478       -0.3193796498     -0.09970225353    
5015003690        0.04999081079     0.03740054036     5.155285964       0.9647671821      
                  5.155285964       0.9647671821      0.03519328669     0.3342417793      
5100003600        -0.0520362332     -0.05683840868    -1.760194835      -5.069059139      
                  -1.760194835      -5.069059139      0.119704401       -0.2293206329     
5185003510        -0.09117397569    0.004314062923    -3.409873397      3.944434517       
                  -3.409873397      3.944434517       -0.3496243869     0.01169038513     
5270003420        0.01495583117     0.07150152849     5.02007381        1.196954811       
                  5.02007381        1.196954811       0.1498665653      0.299755946       
5355003330        -0.0422748769     -0.02276983505    -1.645163412      -5.129037056      
                  -1.645163412      -5.129037056      -0.002230835592   -0.2789029956     
5440003240        -0.07189551823    -0.03917192765    -3.356236106      3.778882732       
                  -3.356236106      3.778882732       -0.3193648064     0.1322291411      
5525003150        -0.01811508478    0.06107657216     5.003314303       1.312121423       
                  5.003314303       1.312121423       0.2689816096      0.2015338872      
5610003060        -0.03860636747    0.02711525356     -1.58880393       -4.969678822      
                  -1.58880393       -4.969678822      -0.1366593665     -0.2675690657     
5695002970        -0.01439207832    -0.0431541578     -3.355483915      3.559681685       
                  -3.355483915      3.559681685       -0.2210015828     0.2529563247      
5780002880        -0.02586060744    0.02389487683     4.953662395       1.40615486        
                  4.953662395       1.40615486        0.3291941834      0.05786518432     
5865002790        -0.07624680092    0.07575941838     -1.489892132      -4.708369162      
                  -1.489892132      -4.708369162      -0.2722887673     -0.1851150839     
5950002700        0.03560020786     0.004570111644    -3.390700056      3.352778438       
                  -3.390700056      3.352778438       -0.08280261511    0.3327887732      
6035002610        -0.01877322741    -0.03845265686    4.740857061       1.302835665       
                  4.740857061       1.302835665       0.2984833409      -0.09743385623    
6120002520        -0.1440996263     0.07343256473     -1.371612759      -4.452129756      
                  -1.371612759      -4.452129756      -0.35826418       -0.0456011685     
6205002430        0.07078565383     0.08769207265     -3.277685631      3.146260952       
                  -3.277685631      3.146260952       0.1017461664      0.3373959996      
6290002340        0.05993984453     -0.09013131036    4.515524881       1.164279546       
                  4.515524881       1.164279546       0.194849669       -0.2479319559     
6375002250        -0.2143741865     0.008520471998    -1.272930547      -4.159484995      
                  -1.272930547      -4.159484995      -0.3764804412     0.130115726       
6460002160        0.02952602395     0.205700538       -3.033694698      2.948179564       
                  -3.033694698      2.948179564       0.2706506404      0.2722426555      
6545002070        0.1758894438      -0.05959018923    4.111844258       1.067637111       
                  4.111844258       1.067637111       0.02857118218     -0.3197881544     
6630001980        -0.2065896217     -0.1105211334     -1.128243371      -3.85260559       
                  -1.128243371      -3.85260559       -0.2985385995     0.30215054        
6715001890        -0.07170886072    0.274312474       -2.731923745      2.631634622       
                  -2.731923745      2.631634622       0.3838234056      0.1559095928      
6800001800        0.2653962054      0.0554500012      3.627264511       1.126328932       
                  3.627264511       1.126328932       -0.1316168474     -0.3089231201     
6885001710        -0.1027532139     -0.2403840022     -0.8160069792     -3.504608386      
                  -0.8160069792     -3.504608386      -0.1880388962     0.3880117009      
6970001620        -0.2092885233     0.2332528233      -2.641229336      2.223655646       
                  -2.641229336      2.223655646       0.4233766431      0.02301886271     
7055001530        0.2626670245      0.2075579348      3.221847916       1.243733233       
                  3.221847916       1.243733233       -0.2571232164     -0.2711087641     
7140001440        0.08174621698     -0.2994621998     -0.5387336592     -3.230070741      
                  -0.5387336592     -3.230070741      -0.06339949498    0.4538924633      
7225001350        -0.2964591867     0.09587289906     -2.582809381      1.89443307        
                  -2.582809381      1.89443307        0.4524303164      -0.1034845139     
7310001260        0.1695576955      0.3469807245      2.864740752       1.162862638       
                  2.864740752       1.162862638       -0.3585021143     -0.1849734412     
7395001170        0.2854573138      -0.2272365505     -0.2447370241     -2.966534909      
                  -0.2447370241     -2.966534909      0.07715971749     0.4817913644      
7480001080        -0.2983308337     -0.1109954821     -2.416808081      1.610720291       
                  -2.416808081      1.610720291       0.3951593555      -0.2371443103     
7565000990        -0.0314485925     0.399778102       2.615833695       1.166442987       
                  2.615833695       1.166442987       -0.4247119987     -0.08446699653    
7650000900        0.4005220335      -0.05628871085    -0.05276888045    -2.610645739      
                  -0.05276888045    -2.610645739      0.2128219441      0.4386215838      
7735000810        -0.1611349482     -0.3066000701     -2.297660467      1.346120171       
                  -2.297660467      1.346120171       0.3171382479      -0.3462077036     
7820000720        -0.2069523265     0.3171349121      2.277193587       1.242640752       
                  2.277193587       1.242640752       -0.4056856855     0.02534587736     
7905000630        0.4143658701      0.1387603194      0.0978101862      -2.300587187      
                  0.0978101862      -2.300587187      0.3242899998      0.3624428697      
7990000540        0.06653157622     -0.3905364463     -2.216077632      0.9242316265      
                  -2.216077632      0.9242316265      0.2212648454      -0.4069295165     
8075000450        -0.3506003631     0.1198097895      1.907014434       1.43517602        
                  1.907014434       1.43517602        -0.3880000462     0.1187592978      
8160000360        0.2974631199      0.3133236606      0.2544565509      -2.190506593      
                  0.2544565509      -2.190506593      0.3992212048      0.2801604332      
8245000270        0.2576278144      -0.3369106246     -2.040140156      0.6153539006      
                  -2.040140156      0.6153539006      0.1143918531      -0.4442902731     
8330000180        -0.3665716398     -0.1327242579     1.636654565       1.500552656       
                  1.636654565       1.500552656       -0.343118706      0.19331452        
8415000090        0.0786448113      0.3930859901      0.3854919293      -1.99778474       
                  0.3854919293      -1.99778474       0.4359055716      0.167155462       
8500000000        0.3827632917      -0.1860949725     -1.832435988      0.4463020455      
                  -1.832435988      0.4463020455      -0.004256471243   -0.4600758652     
