! RsaToolbox (C) 2013 Rohde & Schwarz America
! 
! Number of points: 101
! Number of ports: 2
! Balanced ports?: 0
! 
! 
# Hz S RI R 50
9000              1.01637018        -0.02131703504    0.0002172223186   -4.144503357e-06  
                  0.0002172223186   -4.144503357e-06  1.022167602       -0.03199749336    
85008910          0.002722176579    0.1596103759      3.19571091        5.52671195        
                  3.19571091        5.52671195        -0.09170375156    -0.11540016       
170008820         0.1424101185      -0.04485807121    3.197216597       -5.229913055      
                  3.197216597       -5.229913055      -0.02050438238    0.1713128834      
255008730         -0.1764048615     -0.07611829629    -6.066863578      -0.1759845584     
                  -6.066863578      -0.1759845584     0.07791715404     -0.02658322658    
340008640         -0.0636400903     0.1700819232      2.651203995       5.363096596       
                  2.651203995       5.363096596       -0.1271139668     -0.05324379609    
425008550         0.159691486       -0.04644830928    3.397231961       -4.871603211      
                  3.397231961       -4.871603211      0.01651399902     0.1027185165      
510008460         -0.102255415      -0.1634917485     -5.910884766      -0.6504076144     
                  -5.910884766      -0.6504076144     0.07030077827     -0.07965692762    
595008370         -0.1075343132     0.1405759459      2.227390553       5.434685127       
                  2.227390553       5.434685127       -0.08396753149    -0.01236080989    
680008280         0.2045014872      0.03403578719     3.669863985       -4.578716075      
                  3.669863985       -4.578716075      0.09180401589     0.07530809745     
765008190         0.009301461943    -0.1643280683     -5.739355551      -1.1113465        
                  -5.739355551      -1.1113465        0.06012089769     -0.06050746801    
850008100         -0.1823793944     0.111825344       1.868190683       5.530035869       
                  1.868190683       5.530035869       -0.07181230891    0.06516793878     
935008010         0.1462485964      0.1238042771      3.956262961       -4.23076099       
                  3.956262961       -4.23076099       0.101973881       0.03880780893     
1020007920        0.07550563126     -0.1541952448     -5.594678325      -1.455559478      
                  -5.594678325      -1.455559478      -0.004696448484   -0.07544928953    
1105007830        -0.2256555558     -0.008233887843   1.476583935       5.625947947       
                  1.476583935       5.625947947       -0.06281401989    0.07505967411     
1190007740        0.07156229303     0.1404599792      4.202922755       -3.862275243      
                  4.202922755       -3.862275243      0.1237674605      -0.04257160694    
1275007650        0.1647040719      -0.1091887682     -5.473438453      -1.835749883      
                  -5.473438453      -1.835749883      -0.02999990269    -0.08912918979    
1360007560        -0.1636186677     -0.1007766081     1.04384831        5.651319031       
                  1.04384831        5.651319031       -0.005486221611   0.1018705332      
1445007470        0.0004456824957   0.1421629828      4.41810793        -3.543132511      
                  4.41810793        -3.543132511      0.146926322       -0.08856127139    
1530007380        0.1849697272      -0.01155306988    -5.312795676      -2.19631021       
                  -5.312795676      -2.19631021       -0.06882752573    -0.06438477055    
1615007290        -0.09462292739    -0.1241288207     0.6145003268      5.610307365       
                  0.6145003268      5.610307365       0.02339840385     0.1416629666      
1700007200        -0.08838734345    0.09794424776     4.676180658       -3.243184068      
                  4.676180658       -3.243184068      0.1109832423      -0.1331595848     
1785007110        0.1288649216      0.03186529218     -5.064932946      -2.534749399      
                  -5.064932946      -2.534749399      -0.1318900527     -0.06385937999    
1870007020        -0.02190461681    -0.1365054499     0.2205215522      5.61124991        
                  0.2205215522      5.61124991        0.06661844865     0.1318654935      
1955006930        -0.1071997115     0.021730256       4.882432672       -2.884742093      
                  4.882432672       -2.884742093      0.08863182343     -0.1936670243     
2040006840        0.08351986447     0.03936460373     -4.828489336      -2.820235176      
                  -4.828489336      -2.820235176      -0.1547237533     -0.04152410776    
2125006750        0.03642668237     -0.09368571797    -0.1960151583     5.641008117       
                  -0.1960151583     5.641008117       0.1313272512      0.1367953802      
2210006660        -0.09307257496    -0.0006560261882  4.982655731       -2.533346063      
                  4.982655731       -2.533346063      0.04785900026     -0.2175686694     
2295006570        0.02958123124     0.03733764163     -4.598031443      -3.150904178      
                  -4.598031443      -3.150904178      -0.1858161787     0.01551031428     
2380006480        0.02927763668     -0.05308971418    -0.5615557102     5.579831655       
                  -0.5615557102     5.579831655       0.1673661224      0.1139251339      
2465006390        -0.08869041624    -0.0167485126     5.059048331       -2.213266326      
                  5.059048331       -2.213266326      -0.01957718025    -0.2592469307     
2550006300        0.01171045194     0.002141954314    -4.29056409       -3.487738282      
                  -4.29056409       -3.487738282      -0.1908324814     0.06054285748     
2635006210        0.02663251103     -0.04521666919    -0.9006755465     5.521748367       
                  -0.9006755465     5.521748367       0.2130735565      0.0639813384      
2720006120        -0.08279623846    -0.01128443618    5.133795155       -1.840101393      
                  5.133795155       -1.840101393      -0.09058206306    -0.2647032913     
2805006030        0.01713851683     0.0007119196144   -4.007479544      -3.737256269      
                  -4.007479544      -3.737256269      -0.1632489239     0.1235052448      
2890005940        0.02209507223     -0.03669869689    -1.239163429      5.398332755       
                  -1.239163429      5.398332755       0.2318997995      0.009036926994    
2975005850        -0.09533925164    -0.008521489193   5.164863111       -1.384728275      
                  5.164863111       -1.384728275      -0.1617841138     -0.2473841221     
3060005760        0.01805210052     0.01060545904     -3.706679061      -4.082116938      
                  -3.706679061      -4.082116938      -0.1186702595     0.1685392115      
3145005670        0.03658801238     -0.04439648072    -1.637982287      5.245840694       
                  -1.637982287      5.245840694       0.2318247678      -0.07178116199    
3230005580        -0.1021308245     -0.03413969638    5.276093876       -0.9850896613     
                  5.276093876       -0.9850896613     -0.2271712194     -0.2075204253     
3315005490        0.01154226687     0.03184960972     -3.435651512      -4.307175075      
                  -3.435651512      -4.307175075      -0.04657566582    0.2024004679      
3400005400        0.06123859083     -0.02832101482    -1.99523812       5.079806132       
                  -1.99523812       5.079806132       0.2017456001      -0.1451292244     
3485005310        -0.09780618023    -0.06399815698    5.377694103       -0.6147063517     
                  5.377694103       -0.6147063517     -0.2825927583     -0.1299809768     
3570005220        -0.01988210528    0.04921928776     -3.252338753      -4.499071788      
                  -3.252338753      -4.499071788      0.03319425576     0.2109712252      
3655005130        0.06945357868     0.004113816402    -2.192476134      4.949217183       
                  -2.192476134      4.949217183       0.1343789659      -0.2093921943     
3740005040        -0.07732487974    -0.09392550533    5.369190517       -0.2577144041     
                  5.369190517       -0.2577144041     -0.3117513194     -0.03960453163    
3825004950        -0.05913302727    0.03696315564     -2.981983524      -4.637330231      
                  -2.981983524      -4.637330231      0.1130519111      0.1759868039      
3910004860        0.06368565698     0.03788483524     -2.615101772      4.725399965       
                  -2.615101772      4.725399965       0.05004408375     -0.259158884      
3995004770        -0.03106998917    -0.111297869      5.404494746       0.06642115604     
                  5.404494746       0.06642115604     -0.3055713246     0.06508014958     
4080004680        -0.08462804731    0.008011414394    -2.706468878      -4.806938744      
                  -2.706468878      -4.806938744      0.1909732077      0.1280461765      
4165004590        0.03937856069     0.07057737135     -2.875178812      4.588348224       
                  -2.875178812      4.588348224       -0.04711972033    -0.2718096216     
4250004500        0.01206707195     -0.08780885351    5.492349102       0.3093184108      
                  5.492349102       0.3093184108      -0.2656874729     0.175111487       
4335004410        -0.1016320586     -0.02033485453    -2.449770503      -4.919168417      
                  -2.449770503      -4.919168417      0.2299208497      0.04473441703     
4420004320        -0.007657588095   0.08331449841     -3.08068765       4.4753293         
                  -3.08068765       4.4753293         -0.1635749297     -0.2509706831     
4505004230        0.03826578775     -0.05680396035    5.445066901       0.491325243       
                  5.445066901       0.491325243       -0.1964486713     0.2588734773      
4590004140        -0.09968227065    -0.05211520659    -2.184024474      -4.956799829      
                  -2.184024474      -4.956799829      0.229383745       -0.05773778129    
4675004050        -0.04537260021    0.0701140049      -3.179449722      4.358585073       
                  -3.179449722      4.358585073       -0.2553771119     -0.1912683226     
4760003960        0.0568846391      -0.01612899414    5.294254837       0.7307090887      
                  5.294254837       0.7307090887      -0.08591250274    0.3114606569      
4845003870        -0.07597329894    -0.06844166766    -1.937611087      -5.008795407      
                  -1.937611087      -5.008795407      0.2003609578      -0.155147601      
4930003780        -0.07668706767    0.0400713397      -3.363841964      4.175203301       
                  -3.363841964      4.175203301       -0.3195156066     -0.09924656985    
5015003690        0.05010990801     0.03764637956     5.168895218       0.9660564214      
                  5.168895218       0.9660564214      0.03598691909     0.334317543       
5100003600        -0.05145557998    -0.05632433152    -1.761520299      -5.081666884      
                  -1.761520299      -5.081666884      0.1196740756      -0.2294453949     
5185003510        -0.09065891356    0.003883378173    -3.418487529      3.955237851       
                  -3.418487529      3.955237851       -0.349201472      0.01135105248     
5270003420        0.01423210541     0.07152495292     5.031382838       1.200643067       
                  5.031382838       1.200643067       0.1495311835      0.2991453263      
5355003330        -0.04237033943    -0.02240531451    -1.651339694      -5.14202947       
                  -1.651339694      -5.14202947       -0.002182611075   -0.2788155002     
5440003240        -0.07158329036    -0.03945175932    -3.362672106      3.788632948       
                  -3.362672106      3.788632948       -0.3194863526     0.1322624512      
5525003150        -0.01829946645    0.06059722262     5.016430091       1.313617679       
                  5.016430091       1.313617679       0.2685788001      0.201359489       
5610003060        -0.03883949232    0.02834770227     -1.594531018      -4.984919903      
                  -1.594531018      -4.984919903      -0.1368727897     -0.2674732983     
5695002970        -0.01314980566    -0.04336410086    -3.359096265      3.57560173        
                  -3.359096265      3.57560173        -0.2211049114     0.2526261634      
5780002880        -0.02603225009    0.02312339504     4.969147589       1.407578926       
                  4.969147589       1.407578926       0.3292099379      0.05783686333     
5865002790        -0.07703766943    0.07589595525     -1.500211341      -4.718735238      
                  -1.500211341      -4.718735238      -0.2726239758     -0.1849741615     
5950002700        0.03650705064     0.005305896036    -3.39825182       3.362013564       
                  -3.39825182       3.362013564       -0.08320339117    0.3329254447      
6035002610        -0.01861968904    -0.03928595129    4.754865504       1.303254892       
                  4.754865504       1.303254892       0.2983969071      -0.09768410494    
6120002520        -0.1452330181     0.07393233328     -1.379049868      -4.46325209       
                  -1.379049868      -4.46325209       -0.3585905928     -0.04575565643    
6205002430        0.07159503022     0.08830921489     -3.283486977      3.15775422        
                  -3.283486977      3.15775422        0.1017500063      0.3374970924      
6290002340        0.06033050797     -0.09141485093    4.530101396       1.164792685       
                  4.530101396       1.164792685       0.1948706178      -0.2477576299     
6375002250        -0.2155000079     0.008387789121    -1.27888387       -4.168754096      
                  -1.27888387       -4.168754096      -0.3761768193     0.1299899406      
6460002160        0.02962799521     0.2061624902      -3.038133049      2.955972922       
                  -3.038133049      2.955972922       0.2706782303      0.2724046576      
6545002070        0.1764173196      -0.06013062913    4.123440353       1.066162854       
                  4.123440353       1.066162854       0.02863867421     -0.3196781504     
6630001980        -0.2073396861     -0.1109255888     -1.134624024      -3.86068057       
                  -1.134624024      -3.86068057       -0.2982122194     0.3022805345      
6715001890        -0.07145695336    0.2752797919      -2.734102051      2.63945953        
                  -2.734102051      2.63945953        0.3832290343      0.1564106434      
6800001800        0.2658491991      0.05556231329     3.635607466       1.126334077       
                  3.635607466       1.126334077       -0.1313929338     -0.3088703296     
6885001710        -0.1030729198     -0.241094313      -0.8213986301     -3.510096492      
                  -0.8213986301     -3.510096492      -0.1881105305     0.3877755874      
6970001620        -0.2098716469     0.2333609139      -2.645214877      2.22981171        
                  -2.645214877      2.22981171        0.4232219247      0.02362456659     
7055001530        0.2634028658      0.2080303454      3.228889302       1.243920944       
                  3.228889302       1.243920944       -0.2571301748     -0.2711954803     
7140001440        0.08153364606     -0.3002006184     -0.5424883156     -3.233322075      
                  -0.5424883156     -3.233322075      -0.06321640473    0.453574528       
7225001350        -0.2977267366     0.09594651305     -2.582486146      1.900940772       
                  -2.582486146      1.900940772       0.4524729134      -0.1035393197     
7310001260        0.1699297321      0.3479462352      2.869503362       1.162999354       
                  2.869503362       1.162999354       -0.3584979426     -0.1849119407     
7395001170        0.2852050271      -0.2278602365     -0.2478483401     -2.970269493      
                  -0.2478483401     -2.970269493      0.0774366252      0.481956043       
7480001080        -0.2994284996     -0.1114762458     -2.418543854      1.614412336       
                  -2.418543854      1.614412336       0.3950994951      -0.2377332022     
7565000990        -0.03083373381    0.3998290471      2.618830582       1.164690851       
                  2.618830582       1.164690851       -0.4248301995     -0.0839528495     
7650000900        0.4011328499      -0.05709067449    -0.05542807082    -2.611746397      
                  -0.05542807082    -2.611746397      0.2133152982      0.4381824496      
7735000810        -0.1611616334     -0.3066026932     -2.298507339      1.349076571       
                  -2.298507339      1.349076571       0.3165888757      -0.3466617991     
7820000720        -0.2070090055     0.3173144036      2.279681581       1.242620816       
                  2.279681581       1.242620816       -0.4057158576     0.02583597941     
7905000630        0.4147178965      0.1389507063      0.09653107532     -2.302089632      
                  0.09653107532     -2.302089632      0.3244581417      0.3618752056      
7990000540        0.06665344452     -0.3905587611     -2.216295362      0.9266418852      
                  -2.216295362      0.9266418852      0.2212528768      -0.4081622969     
8075000450        -0.350713992      0.1203149484      1.908665718       1.43295231        
                  1.908665718       1.43295231        -0.387618484      0.1189516266      
8160000360        0.2971150077      0.3133227093      0.2527468479      -2.191255864      
                  0.2527468479      -2.191255864      0.399123982       0.279963035       
8245000270        0.2570320779      -0.3375748789     -2.040619558      0.6169465579      
                  -2.040619558      0.6169465579      0.1143443168      -0.4440845979     
8330000180        -0.3664439929     -0.1322466623     1.637555673       1.500832794       
                  1.637555673       1.500832794       -0.3431676427     0.1933453428      
8415000090        0.07825243538     0.3930448953      0.3839032144      -1.999175542      
                  0.3839032144      -1.999175542      0.4355123096      0.1674896812      
8500000000        0.3829048529      -0.1862212756     -1.832130721      0.4478851637      
                  -1.832130721      0.4478851637      -0.004628834032   -0.4597534088     
