! RsaToolbox (C) 2013 Rohde & Schwarz America
! 
! Number of points: 101
! Number of ports: 2
! Balanced ports?: 0
! 
! 
# Hz S RI R 50
9000              1.004016624       -0.0161811619     7.120708186e-05   4.481594724e-06   
                  7.120708186e-05   4.481594724e-06   1.011497041       -0.02313008013    
85008910          0.0005601043909   0.1550616063      3.182751115       5.454952588       
                  3.182751115       5.454952588       -0.09239607793    -0.1160004396     
170008820         0.1394951262      -0.04135118046    3.161845063       -5.197094108      
                  3.161845063       -5.197094108      -0.0207141257     0.1717233712      
255008730         -0.1730973955     -0.07487310322    -6.030371527      -0.1592451816     
                  -6.030371527      -0.1592451816     0.07766987516     -0.02658090785    
340008640         -0.06357090276    0.166374725       2.64918551        5.323841444       
                  2.64918551        5.323841444       -0.1267805761     -0.05388849884    
425008550         0.1563081404      -0.04545283792    3.356069348       -4.858810515      
                  3.356069348       -4.858810515      0.01654929547     0.1028565777      
510008460         -0.09972180606    -0.1611351542     -5.882564459      -0.6251550357     
                  -5.882564459      -0.6251550357     0.07082332735     -0.07974775879    
595008370         -0.1060083475     0.1366129873      2.234282246       5.395078062       
                  2.234282246       5.395078062       -0.08380848201    -0.01214637576    
680008280         0.2013233538      0.03352832817     3.631791045       -4.570537461      
                  3.631791045       -4.570537461      0.09212857767     0.07548801343     
765008190         0.01032223389     -0.1603776848     -5.709288711      -1.078653635      
                  -5.709288711      -1.078653635      0.06024937058     -0.06071938399    
850008100         -0.1794280932     0.1096467034      1.88600764        5.492322594       
                  1.88600764        5.492322594       -0.0718246641     0.06502813305     
935008010         0.1428525704      0.1217091502      3.913742128       -4.228099228      
                  3.913742128       -4.228099228      0.1021348562      0.03892224152     
1020007920        0.07467073579     -0.1506073864     -5.569583405      -1.418519381      
                  -5.569583405      -1.418519381      -0.004860052129   -0.07583099479    
1105007830        -0.2221988338     -0.008654115016   1.505383316       5.583594787       
                  1.505383316       5.583594787       -0.06318029708    0.07527913474     
1190007740        0.06965269497     0.1370293355      4.158110742       -3.855554205      
                  4.158110742       -3.855554205      0.1243735744      -0.04251154633    
1275007650        0.1620202461      -0.1060979911     -5.452497155      -1.792075764      
                  -5.452497155      -1.792075764      -0.03011712885    -0.08912439076    
1360007560        -0.1602283991     -0.09928411235    1.070719289       5.608585694       
                  1.070719289       5.608585694       -0.005570153459   0.1018916471      
1445007470        0.000656055667    0.1378363141      4.370766914       -3.543284474      
                  4.370766914       -3.543284474      0.1472332883      -0.08830445503    
1530007380        0.1807390064      -0.01025142319    -5.29314935       -2.142823639      
                  -5.29314935       -2.142823639      -0.0693522963     -0.06469599639    
1615007290        -0.09136208613    -0.1198374629     0.6548403411      5.562984926       
                  0.6548403411      5.562984926       0.02311647465     0.1422426763      
1700007200        -0.08596124207    0.09329011518     4.619291087       -3.255106436      
                  4.619291087       -3.255106436      0.1109288853      -0.133550322      
1785007110        0.1230546152      0.03060664011     -5.049621698      -2.476586308      
                  -5.049621698      -2.476586308      -0.1320232541     -0.06416194853    
1870007020        -0.02128460399    -0.1304766909     0.265367703       5.567962157       
                  0.265367703       5.567962157       0.06571253447     0.1323165389      
1955006930        -0.1020570607     0.01895285557     4.820263784       -2.908422095      
                  4.820263784       -2.908422095      0.08926307922     -0.194008501      
2040006840        0.07804675075     0.03479848128     -4.814363791      -2.751377293      
                  -4.814363791      -2.751377293      -0.154987681      -0.04173718549    
2125006750        0.03381868789     -0.0872961199     -0.1390520208     5.594720143       
                  -0.1390520208     5.594720143       0.1310278279      0.1369727126      
2210006660        -0.08573434572    -0.0008991149121  4.905793765       -2.559559465      
                  4.905793765       -2.559559465      0.04788809594     -0.2182603136     
2295006570        0.02693864832     0.0296982229      -4.58206363       -3.070411949      
                  -4.58206363       -3.070411949      -0.1864163891     0.01533022418     
2380006480        0.02309498741     -0.04799236583    -0.4962229277     5.525599919       
                  -0.4962229277     5.525599919       0.1669275319      0.1140401227      
2465006390        -0.08095754401    -0.01275483785    4.973743912       -2.247827316      
                  4.973743912       -2.247827316      -0.0196220844     -0.2599188889     
2550006300        0.0124194036      -0.007104392215   -4.271079311      -3.403832926      
                  -4.271079311      -3.403832926      -0.1911986708     0.06055689438     
2635006210        0.01714797672     -0.0432432676     -0.817251521      5.461301877       
                  -0.817251521      5.461301877       0.2135458871      0.06422175446     
2720006120        -0.07734723318    -0.003495031134   5.04402431        -1.87922042       
                  5.04402431        -1.87922042       -0.09054460535    -0.2649472441     
2805006030        0.02250000455     -0.007610082207   -3.99100552       -3.637048597      
                  -3.99100552       -3.637048597      -0.1632720092     0.1235125613      
2890005940        0.01152669883     -0.03976689794    -1.13794977       5.330509418       
                  -1.13794977       5.330509418       0.2322918154      0.0090550831      
2975005850        -0.09351741275    0.001976405318    5.067750182       -1.427304596      
                  5.067750182       -1.427304596      -0.1622602801     -0.2480286489     
3060005760        0.02702728852     0.005137124038    -3.700517218      -3.967261575      
                  -3.700517218      -3.967261575      -0.1190724412     0.1687766558      
3145005670        0.02808521674     -0.0519546417     -1.527604773      5.178065274       
                  -1.527604773      5.178065274       0.2320655375      -0.07159964925    
3230005580        -0.1048464706     -0.02301981425    5.171188173       -1.032039137      
                  5.171188173       -1.032039137      -0.2269200956     -0.2081976396     
3315005490        0.02265313724     0.03175447113     -3.44121092       -4.173158425      
                  -3.44121092       -4.173158425      -0.04605874192    0.202800082       
3400005400        0.05697936237     -0.04117979452    -1.856322423      5.010768133       
                  -1.856322423      5.010768133       0.2019077125      -0.1450686437     
3485005310        -0.1068808996     -0.05541323593    5.258490987       -0.6906485168     
                  5.258490987       -0.6906485168     -0.2821129998     -0.1299561558     
3570005220        -0.008153766697   0.05596626286     -3.27571451       -4.333147209      
                  -3.27571451       -4.333147209      0.03346455635     0.2108725292      
3655005130        0.07108273305     -0.01096788411    -2.025565059      4.873592711       
                  -2.025565059      4.873592711       0.1350785995      -0.2086285662     
3740005040        -0.09100724975    -0.08981616277    5.233840017       -0.3642295124     
                  5.233840017       -0.3642295124     -0.3119823482     -0.0397844718     
3825004950        -0.04982728862    0.052037924       -3.0284198        -4.418174333      
                  -3.0284198        -4.418174333      0.1135400935      0.1764713538      
3910004860        0.07558923289     0.02265656283     -2.400304624      4.658476092       
                  -2.400304624      4.658476092       0.05084451012     -0.2590301208     
3995004770        -0.04917266764    -0.1163186412     5.232067882       -0.09229484494    
                  5.232067882       -0.09229484494    -0.3054193839     0.0653661648      
4080004680        -0.08359274778    0.02998913426     -2.761083169      -4.55393003       
                  -2.761083169      -4.55393003       0.1911612752      0.1285179403      
4165004590        0.05958288973     0.06050060323     -2.651875925      4.505440401       
                  -2.651875925      4.505440401       -0.04611188481    -0.2721273855     
4250004500        -0.0057818801     -0.1039223801     5.286744013       0.130526216       
                  5.286744013       0.130526216       -0.2658124521     0.1757925121      
4335004410        -0.1116019209     0.004501428714    -2.517628784      -4.624386127      
                  -2.517628784      -4.624386127      0.2302835999      0.04479415497     
4420004320        0.01913211228     0.08329439864     -2.793554044      4.391662543       
                  -2.793554044      4.391662543       -0.1637396983     -0.2510292626     
4505004230        0.02705738684     -0.08344332948    5.196770969       0.2606229627      
                  5.196770969       0.2606229627      -0.1969965209     0.2590973264      
4590004140        -0.1228194083     -0.03119882908    -2.270132132      -4.614531313      
                  -2.270132132      -4.614531313      0.2297832807      -0.05747264083    
4675004050        -0.0167157617     0.0841025982      -2.830999693      4.25573433        
                  -2.830999693      4.25573433        -0.2554791756     -0.1915642628     
4760003960        0.05896314511     -0.04899776639    5.023682575       0.46320539        
                  5.023682575       0.46320539        -0.08674186869    0.3112881931      
4845003870        -0.1099800704     -0.05788488058    -2.037952102      -4.6088229        
                  -2.037952102      -4.6088229        0.2004951726      -0.1548498936     
4930003780        -0.05389248483    0.06998416786     -2.950339467      4.051282665       
                  -2.950339467      4.051282665       -0.3198020969     -0.0998446882     
5015003690        0.06778519569     0.004024549793    4.872657998       0.6750816668      
                  4.872657998       0.6750816668      0.03538110808     0.3349034948      
5100003600        -0.09251588617    -0.06235848359    -1.8847426        -4.592706881      
                  -1.8847426        -4.592706881      0.1197370726      -0.2292755459     
5185003510        -0.0820039502     0.04418316077     -2.968728232      3.807425692       
                  -2.968728232      3.807425692       -0.350035994      0.01127052965     
5270003420        0.04723616504     0.04606618657     4.710480791       0.8795300159      
                  4.710480791       0.8795300159      0.1495687907      0.3001379637      
5355003330        -0.08015276518    -0.04892103591    -1.783732762      -4.558652703      
                  -1.783732762      -4.558652703      -0.00197440209    -0.2794062308     
5440003240        -0.08044148117    0.002305642323    -2.919431463      3.624461643       
                  -2.919431463      3.624461643       -0.3198000669     0.132074816       
5525003150        0.02333644555     0.05088222539     4.65072689        0.975252666       
                  4.65072689        0.975252666       0.269001101       0.201807967       
5610003060        -0.06108247439    -0.0127908386     -1.703681238      -4.399886214      
                  -1.703681238      -4.399886214      -0.1367408999     -0.2679795759     
5695002970        -0.04000776374    -0.007716574401   -2.909129964      3.398646248       
                  -2.909129964      3.398646248       -0.2215608848     0.2528887868      
5780002880        0.01861699517     0.03393850343     4.544135105       1.029098696       
                  4.544135105       1.029098696       0.3297106169      0.05824787062     
5865002790        -0.07920852351    0.03129832775     -1.566783207      -4.176925086      
                  -1.566783207      -4.176925086      -0.2721171291     -0.1857039177     
5950002700        -0.002113418696   0.02647756737     -2.928589508      3.186123505       
                  -2.928589508      3.186123505       -0.08306621645    0.3332815228      
6035002610        0.01649535014     -0.009295312782   4.304154902       0.9498112049      
                  4.304154902       0.9498112049      0.298995202       -0.09713622469    
6120002520        -0.1281519087     0.03406558464     -1.419217218      -3.962689347      
                  -1.419217218      -3.962689347      -0.3583785672     -0.04579840016    
6205002430        0.02917787299     0.09011506664     -2.843790473      2.984469914       
                  -2.843790473      2.984469914       0.1020805637      0.3379626973      
6290002340        0.0770927626      -0.05085526061    4.088406501       0.872242393       
                  4.088406501       0.872242393       0.195758805       -0.2477894076     
6375002250        -0.1866102195     -0.01828564944    -1.289759441      -3.744569339      
                  -1.289759441      -3.744569339      -0.3762024955     0.1296079986      
6460002160        -0.003800547884   0.1915375275      -2.676776905      2.79552355        
                  -2.676776905      2.79552355        0.2710088371      0.2725921546      
6545002070        0.1735945614      -0.0217793763     3.751133216       0.8410248846      
                  3.751133216       0.8410248846      0.02908842825     -0.3203439397     
6630001980        -0.1739003188     -0.121546893      -1.130807637      -3.50340717       
                  -1.130807637      -3.50340717       -0.2988932003     0.3023252723      
6715001890        -0.09224942471    0.2513686902      -2.453528829      2.497366015       
                  -2.453528829      2.497366015       0.3840702024      0.1564565086      
6800001800        0.2497159106      0.08310313509     3.351444475       0.9411818097      
                  3.351444475       0.9411818097      -0.1313214744     -0.308951931      
6885001710        -0.07344430207    -0.2359129681     -0.8241574128     -3.226312096      
                  -0.8241574128     -3.226312096      -0.1889524733     0.3881141458      
6970001620        -0.2168292373     0.2081398018      -2.4218191        2.124036775       
                  -2.4218191        2.124036775       0.4235334462      0.02385719042     
7055001530        0.2427613517      0.2213410261      3.031372364       1.100718089       
                  3.031372364       1.100718089       -0.2571397941     -0.2715519328     
7140001440        0.09808832277     -0.2870884931     -0.5477552101     -3.047110788      
                  -0.5477552101     -3.047110788      -0.06357517945    0.4541732473      
7225001350        -0.2937383871     0.07623209917     -2.420118628      1.828721836       
                  -2.420118628      1.828721836       0.4528904652      -0.1031549922     
7310001260        0.153503371       0.3493355339      2.738181965       1.075108856       
                  2.738181965       1.075108856       -0.3588134243     -0.1851673816     
7395001170        0.292164011       -0.2123777932     -0.2590863149     -2.825487191      
                  -0.2590863149     -2.825487191      0.07695844047     0.4825024207      
7480001080        -0.2882447523     -0.1262938806     -2.279535655      1.551030599       
                  -2.279535655      1.551030599       0.3951460621      -0.2371200895     
7565000990        -0.04640045831    0.395288888       2.501468548       1.090211337       
                  2.501468548       1.090211337       -0.425343225      -0.08466327464    
7650000900        0.4006437924      -0.04439746896    -0.0633735609     -2.517756263      
                  -0.0633735609     -2.517756263      0.2128162174      0.4392976325      
7735000810        -0.151311485      -0.3110964368     -2.219796564      1.306333479       
                  -2.219796564      1.306333479       0.3175963256      -0.3463632721     
7820000720        -0.2153640601     0.3101770037      2.204523437       1.196504466       
                  2.204523437       1.196504466       -0.4065274968     0.02474429487     
7905000630        0.4105741327      0.1461514924      0.09350376714     -2.241518949      
                  0.09350376714     -2.241518949      0.3243002628      0.3628972585      
7990000540        0.07516161493     -0.3904137721     -2.151868654      0.8960212565      
                  -2.151868654      0.8960212565      0.2213924777      -0.4075112103     
8075000450        -0.3538183456     0.1115518579      1.851148131       1.396488666       
                  1.851148131       1.396488666       -0.3883336638     0.1194498508      
8160000360        0.2913844793      0.3180811878      0.2482235221      -2.137264504      
                  0.2482235221      -2.137264504      0.3994903544      0.2802628836      
8245000270        0.2630496937      -0.333675029      -1.998032915      0.6004867221      
                  -1.998032915      0.6004867221      0.1144719535      -0.4446145247     
8330000180        -0.3648372865     -0.1392276458     1.59948851        1.468935038       
                  1.59948851        1.468935038       -0.3434468452     0.192862465       
8415000090        0.07222808196     0.3938377877      0.3804766773      -1.958217275      
                  0.3804766773      -1.958217275      0.4361862314      0.16756439        
8500000000        0.3855744084      -0.1818517656     -1.804567548      0.4362587242      
                  -1.804567548      0.4362587242      -0.004223698285   -0.4608927281     
