! RsaToolbox (C) 2013 Rohde & Schwarz America
! 
! Number of points: 101
! Number of ports: 2
! Balanced ports?: 0
! 
! 
# Hz S RI R 50
9000              1.019923709       -0.03487914114    -4.155522947e-05  -2.200233021e-06  
                  -4.155522947e-05  -2.200233021e-06  1.014956748       -0.03109428286    
85008910          0.002619132185    0.159673189       3.194766759       5.528812478       
                  3.194766759       5.528812478       -0.09310444548    -0.1143431458     
170008820         0.1423467676      -0.04412563136    3.198154195       -5.228119315      
                  3.198154195       -5.228119315      -0.02034308804    0.1710924092      
255008730         -0.1766671318     -0.0757105285     -6.067356615      -0.1753064521     
                  -6.067356615      -0.1753064521     0.0763714626      -0.02597794187    
340008640         -0.06326644217    0.1705030231      2.647628235       5.369833174       
                  2.647628235       5.369833174       -0.1265113855     -0.05213061818    
425008550         0.1597994751      -0.04715580282    3.399776595       -4.874626276      
                  3.399776595       -4.874626276      0.01744457248     0.1027448962      
510008460         -0.1019651273     -0.1635974619     -5.914193078      -0.6562387302     
                  -5.914193078      -0.6562387302     0.07110791715     -0.07981454136    
595008370         -0.1076635084     0.1405435687      2.221253923       5.441266246       
                  2.221253923       5.441266246       -0.0835460882     -0.0118498723     
680008280         0.2049571413      0.03415844981     3.675827369       -4.573164446      
                  3.675827369       -4.573164446      0.09227917934     0.07519632772     
765008190         0.009787927486    -0.1645714594     -5.737518994      -1.119696218      
                  -5.737518994      -1.119696218      0.05918938033     -0.06104320503    
850008100         -0.1820943297     0.1120803686      1.863714988       5.535079915       
                  1.863714988       5.535079915       -0.07181345908    0.06446461114     
935008010         0.1458855805      0.1233013784      3.955798033       -4.23007613       
                  3.955798033       -4.23007613       0.1030646676      0.03891037796     
1020007920        0.07501519855     -0.1542092073     -5.591222556      -1.460321885      
                  -5.591222556      -1.460321885      -0.00439635176    -0.07542360891    
1105007830        -0.2257554352     -0.00884190711    1.470019823       5.623785675       
                  1.470019823       5.623785675       -0.06334868989    0.07422899059     
1190007740        0.07151440346     0.140902014       4.206536321       -3.855759688      
                  4.206536321       -3.855759688      0.1246691401      -0.04228435429    
1275007650        0.1643234545      -0.1095187056     -5.469972513      -1.842852213      
                  -5.469972513      -1.842852213      -0.03018502235    -0.08866949823    
1360007560        -0.1642083628     -0.1002848348     1.039025582       5.651607395       
                  1.039025582       5.651607395       -0.005275892143   0.1019432337      
1445007470        0.0007933385474   0.1423197564      4.423192834       -3.540149393      
                  4.423192834       -3.540149393      0.1463595508      -0.08857390509    
1530007380        0.1844721767      -0.01218147168    -5.309139063      -2.195239366      
                  -5.309139063      -2.195239366      -0.0692457443     -0.06479092148    
1615007290        -0.09444786781    -0.1251155313     0.607881737       5.614844318       
                  0.607881737       5.614844318       0.02296950651     0.141947082       
1700007200        -0.08943339843    0.098148328       4.682428779       -3.241307898      
                  4.682428779       -3.241307898      0.1112197468      -0.1336469798     
1785007110        0.128889893       0.03163730393     -5.06505043       -2.536754598      
                  -5.06505043       -2.536754598      -0.1312245672     -0.06357093439    
1870007020        -0.02249878417    -0.1366329209     0.2146172408      5.617393949       
                  0.2146172408      5.617393949       0.06580100637     0.1323022789      
1955006930        -0.1076461261     0.02173123352     4.88471563        -2.885578482      
                  4.88471563        -2.885578482      0.08902178149     -0.1937257203     
2040006840        0.08355435282     0.04012845395     -4.833555461      -2.823687367      
                  -4.833555461      -2.823687367      -0.1552415685     -0.0417850789     
2125006750        0.03656421937     -0.09413786853    -0.201379075      5.643490951       
                  -0.201379075      5.643490951       0.1300058433      0.1369780025      
2210006660        -0.09299044361    -0.001324129975   4.982894821       -2.529502121      
                  4.982894821       -2.529502121      0.04805031643     -0.2178584986     
2295006570        0.03018307403     0.03743681471     -4.601012163      -3.156472087      
                  -4.601012163      -3.156472087      -0.1872193911     0.01590065012     
2380006480        0.02968655288     -0.0534679489     -0.5654795113     5.581030307       
                  -0.5654795113     5.581030307       0.1657770827      0.1136268405      
2465006390        -0.08899375341    -0.01705160865    5.060826923       -2.211831205      
                  5.060826923       -2.211831205      -0.01998719995    -0.2594510038     
2550006300        0.01130719586     0.001788843542    -4.292089655      -3.491638402      
                  -4.292089655      -3.491638402      -0.1909978045     0.06031874236     
2635006210        0.0264497238      -0.04558303294    -0.9085031673     5.524485457       
                  -0.9085031673     5.524485457       0.2139223669      0.06414705725     
2720006120        -0.08361744502    -0.01169197636    5.140635547       -1.835984794      
                  5.140635547       -1.835984794      -0.09109809148    -0.2638005804     
2805006030        0.01759339428     0.0007299004972   -4.008514035      -3.739175666      
                  -4.008514035      -3.739175666      -0.16281243       0.1234663204      
2890005940        0.02192362319     -0.0369320818     -1.244000665      5.39838684        
                  -1.244000665      5.39838684        0.2325360168      0.00841253191     
2975005850        -0.09490674364    -0.009461093611   5.1730609         -1.380846974      
                  5.1730609         -1.380846974      -0.1638011539     -0.2464593727     
3060005760        0.01757766885     0.009765084789    -3.704812561      -4.086063833      
                  -3.704812561      -4.086063833      -0.118952512      0.1688251593      
3145005670        0.03727218149     -0.04506912949    -1.642705928      5.244795306       
                  -1.642705928      5.244795306       0.2318869791      -0.07194893552    
3230005580        -0.1018293668     -0.03362707488    5.282305426       -0.977959038      
                  5.282305426       -0.977959038      -0.2282884361     -0.208291135      
3315005490        0.01148588561     0.03115794027     -3.430474193      -4.316721762      
                  -3.430474193      -4.316721762      -0.04559914243    0.2017841477      
3400005400        0.06181839408     -0.02850989092    -2.00046445       5.079722791       
                  -2.00046445       5.079722791       0.2010322749      -0.1454335467     
3485005310        -0.0978538067     -0.06445205913    5.382561846       -0.6126736379     
                  5.382561846       -0.6126736379     -0.2819446368     -0.1301433256     
3570005220        -0.01987068242    0.0492734939      -3.255159953      -4.500816251      
                  -3.255159953      -4.500816251      0.03264158885     0.2116857289      
3655005130        0.07003013455     0.004742979931    -2.195197927      4.950921313       
                  -2.195197927      4.950921313       0.1350913829      -0.2083774657     
3740005040        -0.07676014133    -0.09371229325    5.371115813       -0.25509331       
                  5.371115813       -0.25509331       -0.3130574734     -0.03980593499    
3825004950        -0.05790860019    0.03622685155     -2.979922219      -4.642201458      
                  -2.979922219      -4.642201458      0.1135885718      0.1761450557      
3910004860        0.06463029003     0.03759293241     -2.617374424      4.728512877       
                  -2.617374424      4.728512877       0.05051476661     -0.2578804722     
3995004770        -0.03041685226    -0.111410942      5.405911666       0.06654230946     
                  5.405911666       0.06654230946     -0.3052260406     0.06573138804     
4080004680        -0.08433210699    0.007123295058    -2.707340859      -4.811739965      
                  -2.707340859      -4.811739965      0.1907759162      0.1278948867      
4165004590        0.03941020082     0.07083294062     -2.877746355      4.589330206       
                  -2.877746355      4.589330206       -0.04671768206    -0.2716216572     
4250004500        0.01122246831     -0.08819658384    5.492416286       0.3093610776      
                  5.492416286       0.3093610776      -0.2654782098     0.1749790046      
4335004410        -0.1011317755     -0.02052942332    -2.45197204       -4.922120737      
                  -2.45197204       -4.922120737      0.2292618241      0.0447822568      
4420004320        -0.007689987581   0.08374879128     -3.076480248      4.483317386       
                  -3.076480248      4.483317386       -0.1643888897     -0.2498059536     
4505004230        0.03817192062     -0.05632196298    5.448966383       0.4931279061      
                  5.448966383       0.4931279061      -0.1957937822     0.2589603401      
4590004140        -0.09966754047    -0.05261993353    -2.188650621      -4.961555929      
                  -2.188650621      -4.961555929      0.2282672458      -0.05766936489    
4675004050        -0.04493669995    0.06960502049     -3.178773017      4.365968703       
                  -3.178773017      4.365968703       -0.2554524192     -0.1907666442     
4760003960        0.05675378552     -0.01585799446    5.297818723       0.7328178319      
                  5.297818723       0.7328178319      -0.08672554026    0.311189487       
4845003870        -0.07627183493    -0.06789586867    -1.938925047      -5.014356079      
                  -1.938925047      -5.014356079      0.200241436       -0.1536962189     
4930003780        -0.07620130177    0.03990869766     -3.36680436       4.180246966       
                  -3.36680436       4.180246966       -0.3199140245     -0.0995156172     
5015003690        0.04968285723     0.03740038689     5.174882452       0.9690412508      
                  5.174882452       0.9690412508      0.03606028117     0.3345722499      
5100003600        -0.05111477027    -0.05523711944    -1.768533255      -5.090583888      
                  -1.768533255      -5.090583888      0.1202393675      -0.2289056485     
5185003510        -0.09121135855    0.004028287807    -3.424292875      3.960760947       
                  -3.424292875      3.960760947       -0.3496812285     0.01127370504     
5270003420        0.01417286347     0.07124526664     5.037873531       1.203122829       
                  5.037873531       1.203122829       0.1492589431      0.2989918995      
5355003330        -0.04209299886    -0.02206970171    -1.652146502      -5.150760578      
                  -1.652146502      -5.150760578      -0.001860219989   -0.2791052176     
5440003240        -0.07093893242    -0.03961284293    -3.367609058      3.794539344       
                  -3.367609058      3.794539344       -0.31928764       0.1321238439      
5525003150        -0.01878221874    0.05968511289     5.02551414        1.315628261       
                  5.02551414        1.315628261       0.2686577037      0.2013499689      
5610003060        -0.0395707978     0.02851396685     -1.59769422       -4.991352487      
                  -1.59769422       -4.991352487      -0.1368103129     -0.2672300703     
5695002970        -0.01353645941    -0.04317664785    -3.371210142      3.575197498       
                  -3.371210142      3.575197498       -0.2215020981     0.2527350381      
5780002880        -0.02674895372    0.02189865493     4.976806285       1.413069689       
                  4.976806285       1.413069689       0.3289879054      0.05860697301     
5865002790        -0.07722535267    0.07681092746     -1.495298715      -4.726469995      
                  -1.495298715      -4.726469995      -0.2722042652     -0.1859033216     
5950002700        0.03715923036     0.005264244939    -3.403055674      3.36762562        
                  -3.403055674      3.36762562        -0.08335815412    0.3335103192      
6035002610        -0.01858290813    -0.03987766183    4.762184908       1.302180843       
                  4.762184908       1.302180843       0.2988016779      -0.09760555038    
6120002520        -0.1459592325     0.07387430664     -1.387362576      -4.474283111      
                  -1.387362576      -4.474283111      -0.3587077391     -0.04554872041    
6205002430        0.07179145547     0.08711383696     -3.287511878      3.175151154       
                  -3.287511878      3.175151154       0.1024737717      0.3367936111      
6290002340        0.06043898911     -0.09214283145    4.540677344       1.160016361       
                  4.540677344       1.160016361       0.1948259902      -0.2487004309     
6375002250        -0.2171712807     0.008107284836    -1.286393847      -4.168127468      
                  -1.286393847      -4.168127468      -0.375822757      0.1302302951      
6460002160        0.02869955906     0.2070253917      -3.022710044      2.954965986       
                  -3.022710044      2.954965986       0.2685198761      0.2714234191      
6545002070        0.1750077955      -0.05796552954    4.10110071        1.063993388       
                  4.10110071        1.063993388       0.02860088077     -0.3176526103     
6630001980        -0.2059008687     -0.110414127      -1.12485839       -3.838212237      
                  -1.12485839       -3.838212237      -0.2975897349     0.2988626602      
6715001890        -0.07181315945    0.2722174407      -2.7081654        2.627069909       
                  -2.7081654        2.627069909       0.3793733599      0.1526394736      
6800001800        0.265221042       0.0508349957      3.61959808        1.08814553        
                  3.61959808        1.08814553        -0.1310050163     -0.3085171067     
6885001710        -0.1037838214     -0.2410278249     -0.8560143114     -3.485054343      
                  -0.8560143114     -3.485054343      -0.1843762786     0.3817350803      
6970001620        -0.2055486224     0.2329307166      -2.619871788      2.245099785       
                  -2.619871788      2.245099785       0.4209985952      0.02168203039     
7055001530        0.2632816861      0.2064202692      3.221937729       1.238800484       
                  3.221937729       1.238800484       -0.2562965496     -0.2712018293     
7140001440        0.08175346953     -0.300477922      -0.5244722014     -3.216743075      
                  -0.5244722014     -3.216743075      -0.06610078852    0.4479260181      
7225001350        -0.2927486239     0.09221311571     -2.558492626      1.879872836       
                  -2.558492626      1.879872836       0.4483027132      -0.1044775672     
7310001260        0.1729066744      0.3388997637      2.841440954       1.136356695       
                  2.841440954       1.136356695       -0.3515197293     -0.1848917174     
7395001170        0.2856530777      -0.2296462777     -0.2683809758     -2.946275748      
                  -0.2683809758     -2.946275748      0.08378304016     0.4781377236      
7480001080        -0.2973867874     -0.1086542367     -2.407079693      1.633012317       
                  -2.407079693      1.633012317       0.3947407103      -0.2388248515     
7565000990        -0.02976125732    0.4032902439      2.631900734       1.165570437       
                  2.631900734       1.165570437       -0.4270889134     -0.08189336099    
7650000900        0.3997501139      -0.05638814031    -0.05121765742    -2.620208031      
                  -0.05121765742    -2.620208031      0.2112692744      0.4408700382      
7735000810        -0.1604932614     -0.3078689519     -2.298355734      1.346127172       
                  -2.298355734      1.346127172       0.3162468496      -0.3469849227     
7820000720        -0.2064213186     0.3164459013      2.276591438       1.236308771       
                  2.276591438       1.236308771       -0.4045445876     0.02539284196     
7905000630        0.4138627989      0.1376403373      0.09249120924     -2.301469283      
                  0.09249120924     -2.301469283      0.3253825867      0.3610098834      
7990000540        0.06531252413     -0.3913346454     -2.218712238      0.9308295375      
                  -2.218712238      0.9308295375      0.2206674665      -0.4072225092     
8075000450        -0.3504275361     0.119571362       1.907286246       1.433880381       
                  1.907286246       1.433880381       -0.3876895827     0.1169223685      
8160000360        0.2968260804      0.3131052163      0.2487281986      -2.182859419      
                  0.2487281986      -2.182859419      0.3988032262      0.2797422923      
8245000270        0.2557790961      -0.3331568186     -2.024562001      0.616539579       
                  -2.024562001      0.616539579       0.1145743366      -0.439493194      
8330000180        -0.3613292637     -0.1299526325     1.620189556       1.484942874       
                  1.620189556       1.484942874       -0.3379944614     0.19054765        
8415000090        0.0782532272      0.3925029964      0.3974085734      -1.985351546      
                  0.3974085734      -1.985351546      0.4378820229      0.1705004149      
8500000000        0.3846411138      -0.1823056261     -1.828724866      0.4356247786      
                  -1.828724866      0.4356247786      -0.001563817678   -0.4602836247     
