! RsaToolbox (C) 2013 Rohde & Schwarz America
! 
! Number of points: 101
! Number of ports: 2
! Balanced ports?: 0
! 
! 
# Hz S RI R 50
9000              0.9865730675      -0.008958499242   6.836905355e-05   -2.115060867e-05  
                  6.836905355e-05   -2.115060867e-05  0.9987152457      -0.01800388358    
85008910          -0.04155350306    0.0510946899      2.563979995       4.208938831       
                  2.563979995       4.208938831       -0.09227142949    -0.1166209889     
170008820         0.07181575114     0.02685605802     2.543701711       -4.390185647      
                  2.543701711       -4.390185647      -0.02112937038    0.1718184592      
255008730         -0.1005408473     -0.05353275985    -5.090697476      0.05668733963     
                  -5.090697476      0.05668733963     0.07782677761     -0.02666894918    
340008640         -0.06923491628    0.0886570787      2.419002281       4.41991676        
                  2.419002281       4.41991676        -0.1270945065     -0.0543988116     
425008550         0.08771602238     -0.0147749584     2.704324536       -4.272162826      
                  2.704324536       -4.272162826      0.01624943601     0.1029961739      
510008460         -0.04641708103    -0.1123894516     -5.033262944      -0.2852643846     
                  -5.033262944      -0.2852643846     0.07098952738     -0.0799417726     
595008370         -0.07278076894    0.06349397555     2.104344373       4.593616763       
                  2.104344373       4.593616763       -0.08424890086    -0.01240629624    
680008280         0.136717421       0.04043748632     2.900424851       -4.10594565       
                  2.900424851       -4.10594565       0.09206111548     0.07580148794     
765008190         0.03510722307     -0.08465309948    -4.998468274      -0.7594787741     
                  -4.998468274      -0.7594787741     0.06045916167     -0.0608656216     
850008100         -0.1377704678     0.06178934281     1.915097814       4.624658636       
                  1.915097814       4.624658636       -0.07217943909    0.06492068452     
935008010         0.07925766543     0.09079678742     3.200755055       -3.845063894      
                  3.200755055       -3.845063894      0.1022297645      0.03898010961     
1020007920        0.06251649893     -0.07915722755    -4.946803023      -1.043415012      
                  -4.946803023      -1.043415012      -0.004954515402   -0.07622781294    
1105007830        -0.1670787419     -0.03157214569    1.66741677        4.619162565       
                  1.66741677        4.619162565       -0.06364496936    0.07526206289     
1190007740        0.0319391076      0.06601363983     3.524941522       -3.526108411      
                  3.524941522       -3.526108411      0.1243799758      -0.04225248887    
1275007650        0.1195002103      -0.04700131673    -4.800783416      -1.213728682      
                  -4.800783416      -1.213728682      -0.03029990102    -0.08940853985    
1360007560        -0.08703546056    -0.07387015835    1.289578275       4.731381878       
                  1.289578275       4.731381878       -0.006032998314   0.1021724131      
1445007470        0.00680955449     0.04619528818     3.661979205       -3.284040891      
                  3.661979205       -3.284040891      0.1474557429      -0.08823953528    
1530007380        0.08504489493     0.01864825676     -4.590724106      -1.334853943      
                  -4.590724106      -1.334853943      -0.06970944012    -0.06496477129    
1615007290        -0.02657551961    -0.0222467609     0.9884434579      4.643004494       
                  0.9884434579      4.643004494       0.02263250797     0.1426368974      
1700007200        -0.01175569491    -0.003061116658   3.573104693       -3.130021357      
                  3.573104693       -3.130021357      0.111150523       -0.1336151967     
1785007110        0.001509551853    -0.008324186507   -4.435529777      -1.616975233      
                  -4.435529777      -1.616975233      -0.1326195916     -0.06454908363    
1870007020        -0.01809195354    0.004021297152    0.7759830079      4.616521908       
                  0.7759830079      4.616521908       0.06526328199     0.1326825499      
1955006930        0.01997572463     -0.02550447897    3.740018694       -2.943127332      
                  3.740018694       -2.943127332      0.08958854358     -0.194315712      
2040006840        -0.009301708776   -0.06370287162    -4.342416404      -1.87065359       
                  -4.342416404      -1.87065359       -0.1555231082     -0.04206593725    
2125006750        -0.03815951349    0.03413017976     0.5332114399      4.68640216        
                  0.5332114399      4.68640216        0.1308165451      0.1373951183      
2210006660        0.05558477206     0.02010068662     3.790864471       -2.72188665       
                  3.790864471       -2.72188665       0.04827948342     -0.2187884172     
2295006570        -0.0044896005     -0.1132251849     -4.162575977      -2.021981739      
                  -4.162575977      -2.021981739      -0.186878043      0.01479786986     
2380006480        -0.09923976061    0.02575701469     0.2623248741      4.673871067       
                  0.2623248741      4.673871067       0.1669376307      0.1142415708      
2465006390        0.04435358412     0.07896506019     3.788581141       -2.529605975      
                  3.788581141       -2.529605975      -0.01938714314    -0.2606053587     
2550006300        0.04650343204     -0.14607831       -3.946659533      -2.3366407        
                  -3.946659533      -2.3366407        -0.1915873882     0.0603799664      
2635006210        -0.1451969278     -0.03318938344    0.1569928167      4.516064543       
                  0.1569928167      4.516064543       0.2138594003      0.06412984087     
2720006120        -0.001456188454   0.146937803       3.792045576       -2.276564755      
                  3.792045576       -2.276564755      -0.09044643639    -0.2656916049     
2805006030        0.1298024389      -0.1255375682     -3.746109712      -2.351214183      
                  -3.746109712      -2.351214183      -0.1636328633     0.1229315651      
2890005940        -0.1502491464     -0.1127830596     -0.01677915772    4.333947241       
                  -0.01677915772    4.333947241       0.2328751437      0.008853030755    
2975005850        -0.09077306366    0.1731869598      3.821866006       -1.861514346      
                  3.821866006       -1.861514346      -0.162149885      -0.2489286573     
3060005760        0.1880354508      -0.05094669246    -3.522061546      -2.533201157      
                  -3.522061546      -2.533201157      -0.1192601199     0.1684669664      
3145005670        -0.08796145184    -0.1884642602     -0.3639163879     4.238214974       
                  -0.3639163879     4.238214974       0.2327633362      -0.07180143887    
3230005580        -0.1783006448     0.1319228697      3.909138211       -1.534445293      
                  3.909138211       -1.534445293      -0.2267902399     -0.2090152246     
3315005490        0.2087528564      0.05590223512     -3.295206593      -2.544527239      
                  -3.295206593      -2.544527239      -0.04599021867    0.2028650315      
3400005400        0.00645289237     -0.2264438533     -0.5836283198     4.044398919       
                  -0.5836283198     4.044398919       0.2027658971      -0.1452111266     
3485005310        -0.2536857708     0.05858686692     3.843680832       -1.309616504      
                  3.843680832       -1.309616504      -0.2819434231     -0.1306530004     
3570005220        0.1613533351      0.164806687       -3.100855205      -2.568898294      
                  -3.100855205      -2.568898294      0.03379405976     0.2115622771      
3655005130        0.1029488127      -0.2104704111     -0.698908692      3.842658605       
                  -0.698908692      3.842658605       0.1362388084      -0.2085188098     
3740005040        -0.2785402766     -0.04929558007    3.722711403       -1.077132093      
                  3.722711403       -1.077132093      -0.3117198126     -0.04017748976    
3825004950        0.06256026335     0.232383935       -2.809033947      -2.553896819      
                  -2.809033947      -2.553896819      0.1141947424      0.1778053649      
3910004860        0.1983345653      -0.1501364383     -0.9325014833     3.618491217       
                  -0.9325014833     3.618491217       0.05240262217     -0.2587510192     
3995004770        -0.2475985173     -0.1640748639     3.568971108       -0.8721508492     
                  3.568971108       -0.8721508492     -0.3055919344     0.06547635604     
4080004680        -0.0604238537     0.245782171       -2.529376121      -2.633967419      
                  -2.529376121      -2.633967419      0.1926295896      0.1288080134      
4165004590        0.2424415024      -0.04494096041    -1.155707534      3.478160876       
                  -1.155707534      3.478160876       -0.04579439831    -0.273661663      
4250004500        -0.1671391149     -0.2331942703     3.551741509       -0.6417588754     
                  3.551741509       -0.6417588754     -0.2654270608     0.1762366578      
4335004410        -0.1802896123     0.2069880998      -2.290362014      -2.707116815      
                  -2.290362014      -2.707116815      0.2315141298      0.04491577288     
4420004320        0.2287093225      0.06638773225     -1.293082159      3.319322303       
                  -1.293082159      3.319322303       -0.1635562643     -0.2517983517     
4505004230        -0.0647911607     -0.267783358      3.437624024       -0.4869291359     
                  3.437624024       -0.4869291359     -0.19720908       0.2596258218      
4590004140        -0.2653038002     0.121404694       -2.043192039      -2.701819996      
                  -2.043192039      -2.701819996      0.2304502511      -0.05734525641    
4675004050        0.1742803711      0.1578671063      -1.361314727      3.126781261       
                  -1.361314727      3.126781261       -0.2558716762     -0.1920947934     
4760003960        0.05500109686     -0.2532947819     3.300858578       -0.2896896345     
                  3.300858578       -0.2896896345     -0.08739958166    0.3118454853      
4845003870        -0.2943981644     0.01639786383     -1.799726526      -2.708494539      
                  -1.799726526      -2.708494539      0.200983648       -0.1547514204     
4930003780        0.07794808895     0.2178697968      -1.505272384      2.909792637       
                  -1.505272384      2.909792637       -0.3206401467     -0.1003850181     
5015003690        0.1491389785      -0.1817506855     3.183341125       -0.07058376579    
                  3.183341125       -0.07058376579    0.03502822039     0.3358922084      
5100003600        -0.2795292162     -0.07945376814    -1.618779947      -2.700509413      
                  -1.618779947      -2.700509413      0.1200175047      -0.2296655455     
5185003510        -0.02997160322    0.2297109595      -1.591868308      2.679252196       
                  -1.591868308      2.679252196       -0.3510249051     0.01069687104     
5270003420        0.1937991877      -0.08035802031    3.0919787         0.169078289       
                  3.0919787         0.169078289       0.1490337757      0.3011120219      
5355003330        -0.2320152735     -0.1466772262     -1.476691575      -2.674903794      
                  -1.476691575      -2.674903794      -0.001808843026   -0.2801172034     
5440003240        -0.1103422245     0.1887623204      -1.638765784      2.535912721       
                  -1.638765784      2.535912721       -0.3209353401     0.1316079677      
5525003150        0.1992430583      0.007064083074    3.024938998       0.2885918301      
                  3.024938998       0.2885918301      0.269011479       0.2027019107      
5610003060        -0.1518242906     -0.1658919461     -1.368565911      -2.624838608      
                  -1.368565911      -2.624838608      -0.1361193727     -0.2689385498     
5695002970        -0.1432170032     0.141878956       -1.681957021      2.355433449       
                  -1.681957021      2.355433449       -0.2225576305     0.2527927493      
5780002880        0.1825206245      0.07679061516     2.929693049       0.3939041908      
                  2.929693049       0.3939041908      0.3302867134      0.05936855709     
5865002790        -0.09282762598    -0.1472901113     -1.204826394      -2.557303129      
                  -1.204826394      -2.557303129      -0.2716135468     -0.1866922753     
5950002700        -0.1521751422     0.1115950838      -1.72584674       2.189473379       
                  -1.72584674       2.189473379       -0.08372048666    0.3338788092      
6035002610        0.1384683697      0.1016245416      2.764004429       0.428405517       
                  2.764004429       0.428405517       0.3002987943      -0.09609499231    
6120002520        -0.06034128424    -0.1305207859     -1.050272815      -2.475150896      
                  -1.050272815      -2.475150896      -0.3580698572     -0.04673110704    
6205002430        -0.1388377114     0.09760644951     -1.709342903      2.055375768       
                  -1.709342903      2.055375768       0.1024362633      0.339121338       
6290002340        0.1342890873      0.1028583803      2.632652872       0.4449149157      
                  2.632652872       0.4449149157      0.1975267491      -0.2476943313     
6375002250        -0.05807632089    -0.138194609      -0.9331675226     -2.398435323      
                  -0.9331675226     -2.398435323      -0.376393559      0.1285041379      
6460002160        -0.1534064349     0.1277551612      -1.659761942      1.938551475       
                  -1.659761942      1.938551475       0.2715333338      0.2735167603      
6545002070        0.1589385511      0.1380967325      2.453315705       0.462555746       
                  2.453315705       0.462555746       0.03028447855     -0.3209296014     
6630001980        -0.01377268701    -0.1735003955     -0.812809108      -2.289503451      
                  -0.812809108      -2.289503451      -0.2997622846     0.3024191465      
6715001890        -0.1969679919     0.1354364168      -1.574571754      1.745134206       
                  -1.574571754      1.745134206       0.3845408367      0.1575028183      
6800001800        0.1741713565      0.213075942       2.2445189         0.5449655015      
                  2.2445189         0.5449655015      -0.1309158925     -0.3093924861     
6885001710        0.08298739471     -0.2143669498     -0.6046307425     -2.152452042      
                  -0.6046307425     -2.152452042      -0.1891758474     0.3889243339      
6970001620        -0.260641202      0.06636135402     -1.612904825      1.512448082       
                  -1.612904825      1.512448082       0.4241355052      0.02486959086     
7055001530        0.1312342225      0.301720751       2.101416069       0.6680781952      
                  2.101416069       0.6680781952      -0.2573868141     -0.2719581593     
7140001440        0.2118154303      -0.2109466094     -0.4469295108     -2.12441871       
                  -0.4469295108     -2.12441871       -0.06448969551    0.4550810896      
7225001350        -0.2775470408     -0.05862047844    -1.663098652      1.344058942       
                  -1.663098652      1.344058942       0.4534179122      -0.1024173294     
7310001260        0.03836006137     0.3713447294      1.984559872       0.6914025536      
                  1.984559872       0.6914025536      -0.3595755785     -0.1856156397     
7395001170        0.3516934399      -0.1062338438     -0.2476168274     -2.014234998      
                  -0.2476168274     -2.014234998      0.07622715646     0.4832180613      
7480001080        -0.2171147577     -0.2319894591     -1.59974286       1.141441363       
                  -1.59974286       1.141441363       0.3954518048      -0.2367890904     
7565000990        -0.1568238902     0.3666689466      1.812789866       0.7376696453      
                  1.812789866       0.7376696453      -0.4263177642     -0.08525147467    
7650000900        0.4100021735      0.05750264477     -0.1048760703     -1.876304874      
                  -0.1048760703     -1.876304874      0.2120368436      0.4401447471      
7735000810        -0.06424172876    -0.3600231779     -1.656795764      1.013221568       
                  -1.656795764      1.013221568       0.3180148168      -0.3467160779     
7820000720        -0.2916035031     0.252099045       1.682133924       0.8760765867      
                  1.682133924       0.8760765867      -0.4078207163     0.0241513319      
7905000630        0.3841780417      0.2240239934      0.03271480751     -1.747986204      
                  0.03271480751     -1.747986204      0.3240646888      0.3637965517      
7990000540        0.1603601794      -0.3958780312     -1.648061964      0.7040785887      
                  -1.648061964      0.7040785887      0.2221408675      -0.4085439933     
8075000450        -0.3928992737     0.03344199501     1.440531304       1.076570769       
                  1.440531304       1.076570769       -0.3896950872     0.118325356       
8160000360        0.2392606669      0.3759294735      0.1724668096      -1.684956569      
                  0.1724668096      -1.684956569      0.3998318855      0.2807048001      
8245000270        0.3264555227      -0.3085718538     -1.59688967       0.5103362812      
                  -1.59688967       0.5103362812      0.1146950525      -0.4454525974     
8330000180        -0.3632815542     -0.2111094541     1.292821679       1.160677723       
                  1.292821679       1.160677723       -0.3441162086     0.1930649877      
8415000090        0.01077853005     0.4187260569      0.2867304536      -1.590680087      
                  0.2867304536      -1.590680087      0.4369099915      0.1675595176      
8500000000        0.4239842881      -0.1423495581     -1.496391082      0.3928047124      
                  -1.496391082      0.3928047124      -0.003676931679   -0.4622854625     
