! RsaToolbox (C) 2013 Rohde & Schwarz America
! 
! Number of points: 101
! Number of ports: 2
! Balanced ports?: 0
! 
! 
# Hz S RI R 50
9000              1.005634497       -0.01667201097    5.930828686e-05   -2.466550391e-05  
                  5.930828686e-05   -2.466550391e-05  1.014683951       -0.02263298155    
85008910          0.00153997527     0.1570805213      3.191861636       5.479934957       
                  3.191861636       5.479934957       -0.09232631502    -0.1158453712     
170008820         0.1409998515      -0.04285688246    3.17286927        -5.21493576       
                  3.17286927        -5.21493576       -0.0204707645     0.1716204628      
255008730         -0.1746397435     -0.07522278765    -6.044651586      -0.1581983541     
                  -6.044651586      -0.1581983541     0.07764775301     -0.02655549554    
340008640         -0.06359302219    0.168186729       2.653555335       5.338128911       
                  2.653555335       5.338128911       -0.126651683      -0.05393645941    
425008550         0.1578877362      -0.04595321277    3.373198266       -4.863660079      
                  3.373198266       -4.863660079      0.01661726485     0.1029003751      
510008460         -0.1007690556     -0.1623390703     -5.894504693      -0.638192838      
                  -5.894504693      -0.638192838      0.07087501823     -0.07970432415    
595008370         -0.1066404322     0.1383194434      2.234777974       5.409713858       
                  2.234777974       5.409713858       -0.08379886329    -0.01219136316    
680008280         0.202914779       0.03369463054     3.646092278       -4.575389038      
                  3.646092278       -4.575389038      0.09206802606     0.07528151994     
765008190         0.009835304574    -0.1621293083     -5.722365813      -1.087008463      
                  -5.722365813      -1.087008463      0.06026840737     -0.0606493249     
850008100         -0.1806361364     0.1104579057      1.879701173       5.507371476       
                  1.879701173       5.507371476       -0.07160811625    0.0651107628      
935008010         0.1442789679      0.1226731669      3.928699208       -4.232062357      
                  3.928699208       -4.232062357      0.1021056958      0.03895334975     
1020007920        0.07511984257     -0.1522909745     -5.580107172      -1.430970431      
                  -5.580107172      -1.430970431      -0.004693182438   -0.07565609125    
1105007830        -0.2238664297     -0.008512495977   1.494807774       5.599353305       
                  1.494807774       5.599353305       -0.06316346133    0.07520186963     
1190007740        0.07049950485     0.1386749583      4.174268365       -3.859361221      
                  4.174268365       -3.859361221      0.1243229016      -0.04251419011    
1275007650        0.1632327767      -0.107364377      -5.458942268      -1.812170251      
                  -5.458942268      -1.812170251      -0.03008357542    -0.08913184151    
1360007560        -0.1618550572     -0.09996916818    1.058627954       5.625490053       
                  1.058627954       5.625490053       -0.005554102152   0.1018411254      
1445007470        0.0006065515059   0.1399221541      4.388803662       -3.544825694      
                  4.388803662       -3.544825694      0.1471167037      -0.088367623      
1530007380        0.1826977509      -0.01076915721    -5.299804922      -2.163176787      
                  -5.299804922      -2.163176787      -0.06932305504    -0.06463115291    
1615007290        -0.0927992401     -0.1221228087     0.6387318368      5.581851369       
                  0.6387318368      5.581851369       0.0231172436      0.1421630695      
1700007200        -0.08735582118    0.09518747533     4.642541244       -3.250176532      
                  4.642541244       -3.250176532      0.1109563453      -0.1334583123     
1785007110        0.125576433       0.03130338442     -5.057560977      -2.501276334      
                  -5.057560977      -2.501276334      -0.1319919341     -0.06413058896    
1870007020        -0.02144093192    -0.13329912       0.2464184026      5.588206695       
                  0.2464184026      5.588206695       0.06564579563     0.1321443809      
1955006930        -0.1046674349     0.02018079896     4.847489359       -2.90003068       
                  4.847489359       -2.90003068       0.08933215316     -0.1939020673     
2040006840        0.08052113929     0.03703677963     -4.822037125      -2.781806545      
                  -4.822037125      -2.781806545      -0.1549020258     -0.0417220537     
2125006750        0.03515038934     -0.0902144267     -0.1648130202     5.616098495       
                  -0.1648130202     5.616098495       0.1308429895      0.1369218689      
2210006660        -0.08923389593    -0.0009774815248  4.939207797       -2.547916885      
                  4.939207797       -2.547916885      0.0480132551      -0.2181865905     
2295006570        0.02810952821     0.03328494652     -4.589566021      -3.106489404      
                  -4.589566021      -3.106489404      -0.1862307809     0.01530852087     
2380006480        0.02630633353     -0.05032946723    -0.5253876928     5.54987982        
                  -0.5253876928     5.54987982        0.1669157387      0.1140555694      
2465006390        -0.08461285725    -0.01490290574    5.012011225       -2.231489477      
                  5.012011225       -2.231489477      -0.01958357357    -0.2597109613     
2550006300        0.01180552505     -0.002745342589   -4.280708782      -3.442604547      
                  -4.280708782      -3.442604547      -0.1910385738     0.06077511296     
2635006210        0.02176151493     -0.04403868982    -0.8558106246     5.489689313       
                  -0.8558106246     5.489689313       0.2135269113      0.06417578299     
2720006120        -0.08004312492    -0.007600495984   5.085554266       -1.862436908      
                  5.085554266       -1.862436908      -0.09058038909    -0.2646795091     
2805006030        0.01967550264     -0.003548073672   -3.997121301      -3.684305265      
                  -3.997121301      -3.684305265      -0.1631718373     0.1233006102      
2890005940        0.01686555598     -0.03792524743    -1.187846798      5.361320538       
                  -1.187846798      5.361320538       0.2321870859      0.0090066316      
2975005850        -0.09395157179    -0.003751365776   5.112946785       -1.405470523      
                  5.112946785       -1.405470523      -0.1622881801     -0.2478823932     
3060005760        0.02215447529     0.007451145253    -3.699717922      -4.021492988      
                  -3.699717922      -4.021492988      -0.1190390999     0.1687291482      
3145005670        0.03239158915     -0.04777047527    -1.5829156        5.207065192       
                  -1.5829156        5.207065192       0.2318456977      -0.07156593596    
3230005580        -0.102966094      -0.02852627298    5.218707828       -1.004585217      
                  5.218707828       -1.004585217      -0.2268222186     -0.2080568285     
3315005490        0.01629313048     0.03157131842     -3.431852636      -4.239955111      
                  -3.431852636      -4.239955111      -0.04603420582    0.2028240532      
3400005400        0.05931753142     -0.03412971244    -1.927909125      5.040328416       
                  -1.927909125      5.040328416       0.2017496026      -0.1449304335     
3485005310        -0.1016674663     -0.06001162572    5.314542984       -0.649184524      
                  5.314542984       -0.649184524      -0.2821189413     -0.1297644082     
3570005220        -0.01503908673    0.0518724852      -3.258194527      -4.4162026        
                  -3.258194527      -4.4162026        0.03355973813     0.2108463653      
3655005130        0.06955744365     -0.002461898575   -2.112360801      4.905682917       
                  -2.112360801      4.905682917       0.1349995092      -0.208578021      
3740005040        -0.08280793433    -0.09179254893    5.297872996       -0.3052727198     
                  5.297872996       -0.3052727198     -0.3120276776     -0.03979030274    
3825004950        -0.05509851583    0.0429369511      -2.99573981       -4.530069235      
                  -2.99573981       -4.530069235      0.1135167672      0.1763780272      
3910004860        0.06865753617     0.03170700302     -2.514055847      4.685822492       
                  -2.514055847      4.685822492       0.05078017975     -0.258964786      
3995004770        -0.03798936788    -0.113292331      5.316423327       -0.002594169624   
                  5.316423327       -0.002594169624   -0.3054547803     0.06528393332     
4080004680        -0.08426962368    0.01651206131     -2.721397849      -4.69102521       
                  -2.721397849      -4.69102521       0.1909482881      0.1283401603      
4165004590        0.04734724824     0.06650146596     -2.778896176      4.538214922       
                  -2.778896176      4.538214922       -0.04622771339    -0.2718985797     
4250004500        0.004991694489    -0.09430716547    5.391404583       0.2394928638      
                  5.391404583       0.2394928638      -0.2657641779     0.1756505131      
4335004410        -0.1053658669     -0.01079999878    -2.46857143       -4.786621422      
                  -2.46857143       -4.786621422      0.2302228204      0.04471412468     
4420004320        0.002656012113    0.08381672368     -2.957669307      4.425570225       
                  -2.957669307      4.425570225       -0.1637526084     -0.2509548579     
4505004230        0.03419975789     -0.06684640876    5.327905264       0.3988746381      
                  5.327905264       0.3988746381      -0.1967734757     0.2590188685      
4590004140        -0.108763617      -0.04448483742    -2.211403679      -4.805564298      
                  -2.211403679      -4.805564298      0.2297064312      -0.05748432718    
4675004050        -0.03468666379    0.07585181236     -3.030735586      4.303100953       
                  -3.030735586      4.303100953       -0.2555210998     -0.1912660119     
4760003960        0.05820473537     -0.02826724548    5.169762931       0.6201228409      
                  5.169762931       0.6201228409      -0.08659309711    0.311271398       
4845003870        -0.08889751819    -0.06491762018    -1.970014555      -4.834884335      
                  -1.970014555      -4.834884335      0.2004652181      -0.1548987359     
4930003780        -0.06841284949    0.0519552249      -3.18682148       4.113819861       
                  -3.18682148       4.113819861       -0.3196201142     -0.09967332757    
5015003690        0.05701881672     0.02544458158     5.034339235       0.8507808231      
                  5.034339235       0.8507808231      0.03548984247     0.3346719416      
5100003600        -0.06672144703    -0.05919107356    -1.808656717      -4.872635303      
                  -1.808656717      -4.872635303      0.1196687986      -0.2292634378     
5185003510        -0.08840634393    0.01903872979     -3.225973228      3.884659458       
                  -3.225973228      3.884659458       -0.3498184211     0.0113534118      
5270003420        0.02707713143     0.06263738769     4.889691552       1.068898381       
                  4.889691552       1.068898381       0.1497207132      0.2999612904      
5355003330        -0.05581637121    -0.03305820903    -1.705002453      -4.894894888      
                  -1.705002453      -4.894894888      -0.002111383536   -0.2792343322     
5440003240        -0.07585960737    -0.02368639878    -3.172343114      3.711747513       
                  -3.172343114      3.711747513       -0.319691404      0.132058995       
5525003150        -0.002568647413   0.05791967362     4.855798428       1.171665598       
                  4.855798428       1.171665598       0.2690383901      0.2015500672      
5610003060        -0.04622722272    0.01180011157     -1.640421753      -4.730201591      
                  -1.640421753      -4.730201591      -0.1366429929     -0.2678533888     
5695002970        -0.02488241639    -0.03000408513    -3.164049874      3.490085832       
                  -3.164049874      3.490085832       -0.2214549609     0.252868581       
5780002880        -0.009403726771   0.02845478628     4.783142357       1.247413755       
                  4.783142357       1.247413755       0.32967541        0.05803478559     
5865002790        -0.07630660776    0.05873932297     -1.523431321      -4.481595157      
                  -1.523431321      -4.481595157      -0.2721509554     -0.1855866823     
5950002700        0.02085606017     0.0124234234      -3.191873753      3.281057166       
                  -3.191873753      3.281057166       -0.08282860713    0.3330944353      
6035002610        -0.00579860728    -0.0266156992     4.555960863       1.15053124        
                  4.555960863       1.15053124        0.2987961221      -0.09733640215    
6120002520        -0.1370576361     0.05885770788     -1.390702665      -4.242312854      
                  -1.390702665      -4.242312854      -0.3584656004     -0.0456437538     
6205002430        0.05480879623     0.08771280896     -3.093206594      3.075744346       
                  -3.093206594      3.075744346       0.1020315923      0.3377873458      
6290002340        0.06571096613     -0.07461739963    4.331960754       1.040388646       
                  4.331960754       1.040388646       0.1953335969      -0.247912199      
6375002250        -0.2028990993     -0.001052488137   -1.27547051       -3.981683032      
                  -1.27547051       -3.981683032      -0.3761641661     0.1296952024      
6460002160        0.01698134293     0.1991354983      -2.882967581      2.87860369        
                  -2.882967581      2.87860369        0.2709657681      0.272441979       
6545002070        0.1739417261      -0.0448896131     3.955153198       0.9740080972      
                  3.955153198       0.9740080972      0.02897242911     -0.3201662284     
6630001980        -0.1933368096     -0.1138089177     -1.123720255      -3.702861515      
                  -1.123720255      -3.702861515      -0.2987754107     0.3022776638      
6715001890        -0.07899747646    0.2645734426      -2.615187588      2.568581764       
                  -2.615187588      2.568581764       0.3841307124      0.1562925881      
6800001800        0.2582402873      0.0658008223      3.50635095        1.051916683       
                  3.50635095        1.051916683       -0.1313925052     -0.3090058357     
6885001710        -0.09127935028    -0.2374633238     -0.8134093816     -3.385457715      
                  -0.8134093816     -3.385457715      -0.1883424608     0.3881022148      
6970001620        -0.2114223651     0.2228378856      -2.5508812        2.175445448       
                  -2.5508812        2.175445448       0.4233932306      0.02356049301     
7055001530        0.2539420292      0.2123410103      3.138385017       1.188266878       
                  3.138385017       1.188266878       -0.2570854127     -0.2714005176     
7140001440        0.08797530961     -0.2934399755     -0.5358284158     -3.151011654      
                  -0.5358284158     -3.151011654      -0.06354502606    0.4542164286      
7225001350        -0.2945352767     0.08801149043     -2.514552867      1.861891881       
                  -2.514552867      1.861891881       0.4527698196      -0.1033006065     
7310001260        0.1627090322      0.3473075162      2.807902295       1.131179227       
                  2.807902295       1.131179227       -0.3588432674     -0.1856575735     
7395001170        0.2873427286      -0.2206448261     -0.24502856       -2.905414209      
                  -0.24502856       -2.905414209      0.07710390313     0.4822876512      
7480001080        -0.2937381884     -0.1169675984     -2.360344363      1.58005694        
                  -2.360344363      1.58005694        0.3949406027      -0.2371203966     
7565000990        -0.03758181356    0.3971529394      2.563958723       1.138678351       
                  2.563958723       1.138678351       -0.4251600336     -0.08440389278    
7650000900        0.3999080765      -0.05110755123    -0.05216269464    -2.570133865      
                  -0.05216269464    -2.570133865      0.2127427065      0.4390750947      
7735000810        -0.1568359826     -0.3072849311     -2.266218596      1.323749595       
                  -2.266218596      1.323749595       0.3174342999      -0.3462691327     
7820000720        -0.2106158208     0.3135371647      2.242873836       1.226862738       
                  2.242873836       1.226862738       -0.4063134365     0.02499033612     
7905000630        0.4121237807      0.1419952431      0.1001665518      -2.274789875      
                  0.1001665518      -2.274789875      0.3238182693      0.3628813469      
7990000540        0.07026684309     -0.3899920552     -2.189759088      0.9071825816      
                  -2.189759088      0.9071825816      0.2217868184      -0.4073672925     
8075000450        -0.3515991901     0.1160887214      1.879186755       1.421904531       
                  1.879186755       1.421904531       -0.3881251141     0.1187415449      
8160000360        0.2943303555      0.3151107142      0.2552316823      -2.167144225      
                  0.2552316823      -2.167144225      0.3993906946      0.2802252617      
8245000270        0.2598558592      -0.3350382134     -2.02297276       0.6050030514      
                  -2.02297276       0.6050030514      0.1144189335      -0.4441611583     
8330000180        -0.3651656287     -0.1354331531     1.618269728       1.489758325       
                  1.618269728       1.489758325       -0.343349887      0.1933478872      
8415000090        0.07576283796     0.3929322747      0.3866672749      -1.98001501       
                  0.3866672749      -1.98001501       0.4361010206      0.1674686793      
8500000000        0.383841085       -0.1840573648     -1.82159225       0.4390778687      
                  -1.82159225       0.4390778687      -0.004357506793   -0.4608175405     
