! RsaToolbox (C) 2013 Rohde & Schwarz America
! 
! Number of points: 101
! Number of ports: 2
! Balanced ports?: 0
! 
! 
# Hz S RI R 50
9000              0.983065232       -0.008167804014   6.952884826e-05   -1.590815317e-05  
                  6.952884826e-05   -1.590815317e-05  0.996052336       -0.01725285306    
85008910          -0.06499625186    -0.01345273778    2.245884399       3.625123858       
                  2.245884399       3.625123858       -0.09231965493    -0.1169835181     
170008820         0.03259045736     0.06579836674     2.199710082       -3.90609118       
                  2.199710082       -3.90609118       -0.02124752369    0.1718755117      
255008730         -0.04761525806    -0.03348026063    -4.506109847      0.1306418872      
                  -4.506109847      0.1306418872      0.07793269661     -0.02675278499    
340008640         -0.06968293338    0.03789205566     2.233749982       3.897520136       
                  2.233749982       3.897520136       -0.1271537828     -0.05455269643    
425008550         0.04183867116     0.004721625149    2.320936403       -3.864638806      
                  2.320936403       -3.864638806      0.01620207556     0.102995224       
510008460         -0.01111680138    -0.07686018626    -4.492273691      -0.1495507955     
                  -4.492273691      -0.1495507955     0.07105569704     -0.08002902765    
595008370         -0.05325803083    0.01875129671     1.989221802       4.08492879        
                  1.989221802       4.08492879        -0.08432192424    -0.01248985334    
680008280         0.08019440606     0.04273826671     2.434968146       -3.673753801      
                  2.434968146       -3.673753801      0.09213669855     0.07587013893     
765008190         0.05242215287     -0.03366044554    -4.459527102      -0.5466255152     
                  -4.459527102      -0.5466255152     0.06047004036     -0.06094458361    
850008100         -0.09739885511    0.02358454731     1.804050993       4.030299633       
                  1.804050993       4.030299633       -0.07228783605    0.06491014082     
935008010         0.03573211546     0.06738819263     2.756516761       -3.53470028       
                  2.756516761       -3.53470028       0.1023090565      0.03902481148     
1020007920        0.04657079171     -0.0226888048     -4.437100289      -0.7431317289     
                  -4.437100289      -0.7431317289     -0.004936758427   -0.07640794476    
1105007830        -0.1109958503     -0.04196454052    1.630405707       4.02228381        
                  1.630405707       4.02228381        -0.06380550187    0.07523703222     
1190007740        0.01206206359     0.0005858155422   2.983928548       -3.328138507      
                  2.983928548       -3.328138507      0.1244352064      -0.04227023808    
1275007650        0.07918131134     -0.004288229908   -4.344308358      -0.8846016076     
                  -4.344308358      -0.8846016076     -0.03040719921    -0.0895369881     
1360007560        -0.03142004954    -0.05077616973    1.358556015       4.173168073       
                  1.358556015       4.173168073       -0.006093457227   0.1022827697      
1445007470        0.02403379851     -0.02756067895    3.083613977       -3.173084778      
                  3.083613977       -3.173084778      0.1475754779      -0.08825712434    
1530007380        0.02713775006     0.03810580682     -4.14910952       -0.9597461098     
                  -4.14910952       -0.9597461098     -0.06983058927    -0.06504352186    
1615007290        0.01361144199     0.03728266439     1.175402633       4.06297102        
                  1.175402633       4.06297102        0.02262564607     0.142735239       
1700007200        0.02799954972     -0.0572598923     2.985301725       -3.021347603      
                  2.985301725       -3.021347603      0.1112142162      -0.1337069598     
1785007110        -0.06212108824    -0.02596095375    -4.072549346      -1.184782016      
                  -4.072549346      -1.184782016      -0.1327372042     -0.06458378016    
1870007020        -0.01201435635    0.07085702868     0.9917071876      4.09717661        
                  0.9917071876      4.09717661        0.06530794142     0.1327694896      
1955006930        0.08202958709     -0.05382787481    3.13892178        -2.901688077      
                  3.13892178        -2.901688077      0.08959369716     -0.1944569749     
2040006840        -0.0658065387     -0.1233360323     -3.99704642       -1.314461003      
                  -3.99704642       -1.314461003      -0.1557120133     -0.04195466028    
2125006750        -0.06925797252    0.09837273029     0.8414475869      4.157764921       
                  0.8414475869      4.157764921       0.1308865098      0.1374907102      
2210006660        0.1358686768      0.02513732739     3.120870395       -2.739925604      
                  3.120870395       -2.739925604      0.04827207396     -0.2189702245     
2295006570        -0.02454552599    -0.1901637456     -3.87787328       -1.432457402      
                  -3.87787328       -1.432457402      -0.1870480024     0.01485126799     
2380006480        -0.157116734      0.06614008456     0.6197542734      4.182762883       
                  0.6197542734      4.182762883       0.16705299        0.1142221193      
2465006390        0.119821233       0.1236408672      3.078802058       -2.579078249      
                  3.078802058       -2.579078249      -0.0195000143     -0.260777317      
2550006300        0.06611284109     -0.2182652552     -3.749059256      -1.743310934      
                  -3.749059256      -1.743310934      -0.1916684525     0.06042041882     
2635006210        -0.212979423      -0.01977921595    0.501313523       4.016062713       
                  0.501313523       4.016062713       0.2140292848      0.06412681528     
2720006120        0.04080626382     0.2129535622      3.166500473       -2.352606872      
                  3.166500473       -2.352606872      -0.09047627301    -0.2658802167     
2805006030        0.1758874454      -0.1814778599     -3.546719544      -1.760445317      
                  -3.546719544      -1.760445317      -0.1636246601     0.1229240539      
2890005940        -0.2132378863     -0.1305099281     0.3162745214      3.864708369       
                  0.3162745214      3.864708369       0.2330675757      0.008736955175    
2975005850        -0.08569165275    0.2455278251      3.259380556       -1.959624021      
                  3.259380556       -1.959624021      -0.1621284864     -0.2492293932     
3060005760        0.248839866       -0.07872826008    -3.335007589      -1.97213978       
                  -3.335007589      -1.97213978       -0.1193034477     0.1684738428      
3145005670        -0.1364946597     -0.2326873975     -0.02149222008    3.796411411       
                  -0.02149222008    3.796411411       0.232990249       -0.07189042296    
3230005580        -0.2029940096     0.1923957946      3.39069033        -1.633948637      
                  3.39069033        -1.633948637      -0.226766911      -0.209134667      
3315005490        0.2690334412      0.05368598337     -3.099347106      -2.036177366      
                  -3.099347106      -2.036177366      -0.04591248306    0.2029255597      
3400005400        -0.01804366918    -0.280913447      -0.2833181253     3.642726985       
                  -0.2833181253     3.642726985       0.2030691005      -0.1452277547     
3485005310        -0.2952765758     0.09892485885     3.357971141       -1.388379472      
                  3.357971141       -1.388379472      -0.2818758215     -0.130722177      
3570005220        0.2114403391      0.1839272683      -2.905745509      -2.12355012       
                  -2.905745509      -2.12355012       0.033889216       0.2117473325      
3655005130        0.1024514657      -0.2642085843     -0.4391003466     3.473625962       
                  -0.4391003466     3.473625962       0.1364781049      -0.2085114714     
3740005040        -0.3259845047     -0.03202666971    3.278533553       -1.146982113      
                  3.278533553       -1.146982113      -0.3116965094     -0.04021708722    
3825004950        0.09694306341     0.2661178123      -2.616239817      -2.160229295      
                  -2.616239817      -2.160229295      0.1142951412      0.1785512525      
3910004860        0.2188428332      -0.1947071811     -0.6829234423     3.278556524       
                  -0.6829234423     3.278556524       0.05312460253     -0.2583845058     
3995004770        -0.2928862063     -0.1670742924     3.157548611       -0.9225548173     
                  3.157548611       -0.9225548173     -0.3056683035     0.06562935556     
4080004680        -0.04336825656    0.2939019461      -2.32628167       -2.214743676      
                  -2.32628167       -2.214743676      0.1930721415      0.1289268136      
4165004590        0.277345663       -0.07413545593    -0.9122916649     3.166484205       
                  -0.9122916649     3.166484205       -0.04593139056    -0.2744577404     
4250004500        -0.2037140648     -0.2540190378     3.161372559       -0.6892492696     
                  3.161372559       -0.6892492696     -0.265265568      0.1764595759      
4335004410        -0.1863793908     0.2477734813      -2.134073247      -2.360237286      
                  -2.134073247      -2.360237286      0.2319415274      0.04484862346     
4420004320        0.2697854213      0.05687805725     -1.068083248      3.020342543       
                  -1.068083248      3.020342543       -0.1635993071     -0.2519626476     
4505004230        -0.0871455236     -0.3001388847     3.070256143       -0.5254044055     
                  3.070256143       -0.5254044055     -0.1972620046     0.2597458993      
4590004140        -0.2865496705     0.1533897996      -1.89435817       -2.371444378      
                  -1.89435817       -2.371444378      0.2306066947      -0.05738502894    
4675004050        0.2118527732      0.1665223584      -1.156596651      2.839725585       
                  -1.156596651      2.839725585       -0.2559596732     -0.1921747444     
4760003960        0.04923850658     -0.2904723898     2.953841017       -0.3292308325     
                  2.953841017       -0.3292308325     -0.0875318287     0.3119749454      
4845003870        -0.3247719287     0.03357477381     -1.662214684      -2.395944012      
                  -1.662214684      -2.395944012      0.201077387       -0.1547922626     
4930003780        0.1036088771      0.2408369806      -1.31615137       2.649431198       
                  -1.31615137       2.649431198       -0.3208572791     -0.1005133323     
5015003690        0.1596559689      -0.2158818005     2.858259248       -0.109790414      
                  2.858259248       -0.109790414      0.03504483895     0.3361468155      
5100003600        -0.3101209475     -0.07849452135    -1.4948012        -2.411477865      
                  -1.4948012        -2.411477865      0.1199951524      -0.2297472883     
5185003510        -0.01849762461    0.2608584314      -1.413962449      2.432255367       
                  -1.413962449      2.432255367       -0.3512789398     0.01061731757     
5270003420        0.2170128046      -0.1034313018     2.79587513        0.125695831       
                  2.79587513        0.125695831       0.1489702116      0.3013677172      
5355003330        -0.2578153692     -0.1599095916     -1.350293141      -2.400282976      
                  -1.350293141      -2.400282976      -0.001576539549   -0.2804442441     
5440003240        -0.1135946942     0.2213212223      -1.47309574       2.302666854       
                  -1.47309574       2.302666854       -0.3211779062     0.1315027752      
5525003150        0.2280569222      -0.001525364323   2.739095931       0.246532896       
                  2.739095931       0.246532896       0.2690697795      0.2028936159      
5610003060        -0.1684000494     -0.1897989976     -1.244913323      -2.3675569        
                  -1.244913323      -2.3675569        -0.1360026805     -0.2691984145     
5695002970        -0.1599010557     0.1682275668      -1.521323315      2.138551658       
                  -1.521323315      2.138551658       -0.2227444597     0.2527496723      
5780002880        0.2092571944      0.08297286179     2.658722301       0.3535181312      
                  2.658722301       0.3535181312      0.3304236016      0.05969779555     
5865002790        -0.09618929816    -0.1766672648     -1.09277568       -2.320877412      
                  -1.09277568       -2.320877412      -0.2714512812     -0.1870480334     
5950002700        -0.1772480731     0.1264126082      -1.569612262      1.990068777       
                  -1.569612262      1.990068777       -0.08396071464    0.3340806735      
6035002610        0.1589705511      0.120000077       2.50770906        0.3962639557      
                  2.50770906        0.3962639557      0.3006487804      -0.09564553778    
6120002520        -0.04915661726    -0.159217093      -0.9437250374     -2.251213843      
                  -0.9437250374     -2.251213843      -0.3579576493     -0.04696791574    
6205002430        -0.1681000354     0.09944013711     -1.55879369       1.865866674       
                  -1.55879369       1.865866674       0.1024087529      0.3393760603      
6290002340        0.1440868188      0.1298227386      2.388037072       0.4198929032      
                  2.388037072       0.4198929032      0.1981152979      -0.2476796584     
6375002250        -0.03474079511    -0.1600274087     -0.8321783333     -2.187492755      
                  -0.8321783333     -2.187492755      -0.3765308797     0.1282501633      
6460002160        -0.1812305993     0.1158483188      -1.52019015       1.758376823       
                  -1.52019015       1.758376823       0.2715680628      0.2737321057      
6545002070        0.1559523893      0.1670258533      2.231700184       0.4394597993      
                  2.231700184       0.4394597993      0.03051688668     -0.3210309414     
6630001980        0.01650827806     -0.1828460615     -0.7216238165     -2.095105696      
                  -0.7216238165     -2.095105696      -0.2999522787     0.3023663897      
6715001890        -0.2168699126     0.1128686046      -1.450216033      1.585693608       
                  -1.450216033      1.585693608       0.3846242567      0.1577594081      
6800001800        0.159459507       0.2373091625      2.04700388        0.5139467445      
                  2.04700388        0.5139467445      -0.1308219647     -0.3094970456     
6885001710        0.1133933904      -0.2094445623     -0.533268204      -1.975260388      
                  -0.533268204      -1.975260388      -0.1893813804     0.3890245243      
6970001620        -0.2688216741     0.03686533095     -1.488714564      1.373368977       
                  -1.488714564      1.373368977       0.4241930036      0.025118166       
7055001530        0.1048771114      0.3198431019      1.896223537       0.6190753412      
                  1.896223537       0.6190753412      -0.2574411381     -0.2722647544     
7140001440        0.2400420285      -0.1904764774     -0.3862311113     -1.928279469      
                  -0.3862311113     -1.928279469      -0.06464398901    0.4552237731      
7225001350        -0.2725359567     -0.08808150547    -1.536822322      1.223392          
                  -1.536822322      1.223392          0.4535449591      -0.1021860474     
7310001260        0.0112359622      0.3753294106      1.819991027       0.6451054658      
                  1.819991027       0.6451054658      -0.3596501605     -0.1857139883     
7395001170        0.364896999       -0.08017895151    -0.2147094069     -1.848360657      
                  -0.2147094069     -1.848360657      0.07603611575     0.4832755051      
7480001080        -0.1996311294     -0.2549864444     -1.479885525      1.03746763        
                  -1.479885525      1.03746763        0.3955493123      -0.2367664541     
7565000990        -0.1859047276     0.3574043129      1.643721993       0.6860808504      
                  1.643721993       0.6860808504      -0.4265596267     -0.08539678822    
7650000900        0.4111360923      0.08466456199     -0.0896034184     -1.730049092      
                  -0.0896034184     -1.730049092      0.2118684672      0.4403348155      
7735000810        -0.03916114302    -0.3714463051     -1.534632473      0.9251984458      
                  -1.534632473      0.9251984458      0.3181303623      -0.3468452179     
7820000720        -0.3112508535     0.2341072641      1.548616969       0.8187162326      
                  1.548616969       0.8187162326      -0.408005263      0.02398829412     
7905000630        0.3743112184      0.2480451291      0.03550736671     -1.614295435      
                  0.03550736671     -1.614295435      0.3240091378      0.3639165665      
7990000540        0.1861869845      -0.3952168595     -1.525562685      0.6392353608      
                  -1.525562685      0.6392353608      0.2221983513      -0.408724281      
8075000450        -0.4026241001     0.008403921888    1.324276494       1.006759835       
                  1.324276494       1.006759835       -0.3899091641     0.118293411       
8160000360        0.2211935987      0.3936078675      0.1688781213      -1.559363174      
                  0.1688781213      -1.559363174      0.3999073306      0.2807649684      
8245000270        0.347561633       -0.29883215       -1.482394656      0.4681709644      
                  -1.482394656      0.4681709644      0.1146152898      -0.4455282527     
8330000180        -0.3606399297     -0.2387663144     1.177060603       1.071795698       
                  1.177060603       1.071795698       -0.3441191014     0.193070508       
8415000090        -0.01446461538    0.4270616621      0.2716779389      -1.46126889       
                  0.2716779389      -1.46126889       0.437114916       0.1676005572      
8500000000        0.4404147666      -0.1239186741     -1.378629181      0.36018116        
                  -1.378629181      0.36018116        -0.003542769916   -0.4626227582     
