! RsaToolbox (C) 2013 Rohde & Schwarz America
! 
! Number of points: 101
! Number of ports: 2
! Balanced ports?: 0
! 
! 
# Hz S RI R 50
9000              1.013153249       -0.01863654462    0.0002384227468   -0.0001104769383  
                  0.0002384227468   -0.0001104769383  1.02720061        -0.04196493539    
85008910          0.002710608965    0.1593613762      3.196000618       5.530017852       
                  3.196000618       5.530017852       -0.09110427847    -0.1154229715     
170008820         0.1423077842      -0.04411485337    3.199564686       -5.222672413      
                  3.199564686       -5.222672413      -0.02041251992    0.1708685536      
255008730         -0.1766203058     -0.07641470586    -6.066661404      -0.1777026625     
                  -6.066661404      -0.1777026625     0.07724916141     -0.02569847223    
340008640         -0.06349331709    0.1703439565      2.646544292       5.36393235        
                  2.646544292       5.36393235        -0.1267052795     -0.05370598326    
425008550         0.1596387144      -0.04673322319    3.39868517        -4.873143279      
                  3.39868517        -4.873143279      0.01670885034     0.1037278873      
510008460         -0.101690994      -0.164061383      -5.916159475      -0.6507603845     
                  -5.916159475      -0.6507603845     0.07066237273     -0.07923600243    
595008370         -0.1072935211     0.1401645808      2.223333883       5.436658335       
                  2.223333883       5.436658335       -0.08335220714    -0.01232905052    
680008280         0.204829894       0.03340815269     3.675910183       -4.575017602      
                  3.675910183       -4.575017602      0.09208427885     0.07568243519     
765008190         0.008796712655    -0.1643800334     -5.737468787      -1.107377233      
                  -5.737468787      -1.107377233      0.059251328       -0.06004788158    
850008100         -0.1818720494     0.1119982971      1.86409587        5.535960534       
                  1.86409587        5.535960534       -0.07067217772    0.06550916308     
935008010         0.1459397463      0.1245162168      3.956885232       -4.23323192       
                  3.956885232       -4.23323192       0.1014350736      0.03782929711     
1020007920        0.07586299791     -0.1545467508     -5.596981601      -1.45683197       
                  -5.596981601      -1.45683197       -0.005133338439   -0.07565005844    
1105007830        -0.2255636145     -0.008022358592   1.469684659       5.626708187       
                  1.469684659       5.626708187       -0.06224582946    0.07551025849     
1190007740        0.07244201931     0.1412621589      4.201487234       -3.866196527      
                  4.201487234       -3.866196527      0.1238221607      -0.04277220167    
1275007650        0.1647675723      -0.1086966424     -5.476411298      -1.839596839      
                  -5.476411298      -1.839596839      -0.02978850684    -0.08959233726    
1360007560        -0.1637144585     -0.100584907      1.038003895       5.651558553       
                  1.038003895       5.651558553       -0.005386936086   0.1022594213      
1445007470        0.0006121668125   0.1424860159      4.421282928       -3.538174872      
                  4.421282928       -3.538174872      0.1471944932      -0.08798061318    
1530007380        0.1853998468      -0.011724856      -5.3093295        -2.19580829       
                  -5.3093295        -2.19580829       -0.06919415505    -0.0642528163     
1615007290        -0.09431828688    -0.124463068      0.616482003       5.611989395       
                  0.616482003       5.611989395       0.02406794129     0.1419070841      
1700007200        -0.08971004325    0.09713740603     4.682492227       -3.240083139      
                  4.682492227       -3.240083139      0.1113687567      -0.1333958021     
1785007110        0.1285613405      0.03246492358     -5.066408819      -2.538844107      
                  -5.066408819      -2.538844107      -0.1318651501     -0.06417167139    
1870007020        -0.02114315932    -0.1366372916     0.220321061       5.613678503       
                  0.220321061       5.613678503       0.06666027918     0.1320628307      
1955006930        -0.1079210482     0.02173374799     4.886297838       -2.884127246      
                  4.886297838       -2.884127246      0.08893703328     -0.1935449742     
2040006840        0.08396993077     0.04023951345     -4.827372638      -2.821860287      
                  -4.827372638      -2.821860287      -0.1537088514     -0.04096502718    
2125006750        0.03651009673     -0.09404587407    -0.1971463417     5.643656381       
                  -0.1971463417     5.643656381       0.131679437       0.1364439005      
2210006660        -0.09343433369    -0.0007621244283  4.980207324       -2.530745109      
                  4.980207324       -2.530745109      0.04755682924     -0.2189217045     
2295006570        0.02978954213     0.03760307578     -4.598417537      -3.155924796      
                  -4.598417537      -3.155924796      -0.1856842486     0.01550081121     
2380006480        0.02949205033     -0.05262494752    -0.5644567984     5.579294502       
                  -0.5644567984     5.579294502       0.1671435654      0.1135520685      
2465006390        -0.08868112343    -0.01719710779    5.061325282       -2.21220729       
                  5.061325282       -2.21220729       -0.02069544583    -0.2591019685     
2550006300        0.01187014663     0.001767939884    -4.29051393       -3.491713547      
                  -4.29051393       -3.491713547      -0.1899539042     0.06100089603     
2635006210        0.0259615915      -0.04517534227    -0.9045385156     5.523329782       
                  -0.9045385156     5.523329782       0.2133640677      0.06471335931     
2720006120        -0.08309230939    -0.01194025012    5.138842225       -1.836611352      
                  5.138842225       -1.836611352      -0.09049723016    -0.2642826535     
2805006030        0.01753110955     0.001178708674    -4.002282818      -3.738610007      
                  -4.002282818      -3.738610007      -0.1628348201     0.1232998034      
2890005940        0.02279839956     -0.0367837895     -1.243289828      5.400047617       
                  -1.243289828      5.400047617       0.2317548041      0.009575228473    
2975005850        -0.09536689639    -0.008496691397   5.168621984       -1.385322176      
                  5.168621984       -1.385322176      -0.1621022688     -0.2479922767     
3060005760        0.01904560321     0.01082697641     -3.707256827      -4.085002368      
                  -3.707256827      -4.085002368      -0.1186970347     0.1678101519      
3145005670        0.03742886397     -0.04537588931    -1.638248327      5.247135699       
                  -1.638248327      5.247135699       0.2320499279      -0.0712206518     
3230005580        -0.1017363709     -0.03423426875    5.276704291       -0.9804147359     
                  5.276704291       -0.9804147359     -0.2279040171     -0.2080649102     
3315005490        0.01055273839     0.0314535508      -3.432843941      -4.310177598      
                  -3.432843941      -4.310177598      -0.04731405013    0.2012994095      
3400005400        0.06100335678     -0.02651212996    -1.99684599       5.081241552       
                  -1.99684599       5.081241552       0.2011873534      -0.1452268245     
3485005310        -0.09730752544    -0.06374450879    5.380989665       -0.6173693214     
                  5.380989665       -0.6173693214     -0.2809280322     -0.128456838      
3570005220        -0.02097713534    0.04976635936     -3.252444505      -4.497882148      
                  -3.252444505      -4.497882148      0.03432419988     0.2097934319      
3655005130        0.07011085766     0.004472739606    -2.19656537       4.949139618       
                  -2.19656537       4.949139618       0.1346529275      -0.2083923015     
3740005040        -0.07664399761    -0.09260979783    5.374420599       -0.2541915728     
                  5.374420599       -0.2541915728     -0.3117471914     -0.04009447833    
3825004950        -0.05909019067    0.03801529018     -2.978229539      -4.641487094      
                  -2.978229539      -4.641487094      0.1133153807      0.1753883835      
3910004860        0.06389560625     0.03856840848     -2.619319142      4.72798235        
                  -2.619319142      4.72798235        0.04925304863     -0.2583990384     
3995004770        -0.03147243678    -0.1116963758     5.406082538       0.06497342005     
                  5.406082538       0.06497342005     -0.3046411777     0.06430073756     
4080004680        -0.08503506808    0.007230852603    -2.707394729      -4.811294562      
                  -2.707394729      -4.811294562      0.1900626855      0.128407506       
4165004590        0.04028160916     0.07127740975     -2.877110382      4.589658663       
                  -2.877110382      4.589658663       -0.04551858425    -0.2699831092     
4250004500        0.01174862876     -0.08876815125    5.495114067       0.3119603622      
                  5.495114067       0.3119603622      -0.2646871381     0.1752056528      
4335004410        -0.1013944283     -0.02009243054    -2.455777602      -4.919888367      
                  -2.455777602      -4.919888367      0.2293534526      0.04404017952     
4420004320        -0.007783203493   0.0834374991      -3.079904055      4.47836192        
                  -3.079904055      4.47836192        -0.1636112745     -0.250433137      
4505004230        0.03787926236     -0.05608313277    5.447264393       0.4893099273      
                  5.447264393       0.4893099273      -0.1971085652     0.2589368162      
4590004140        -0.09974856423    -0.05253582397    -2.18580188       -4.963078158      
                  -2.18580188       -4.963078158      0.2296048079      -0.05748391237    
4675004050        -0.04550753454    0.06958779629     -3.180368526      4.362830155       
                  -3.180368526      4.362830155       -0.2554896397     -0.1903914274     
4760003960        0.05602415338     -0.01623307515    5.300323318       0.7273632017      
                  5.300323318       0.7273632017      -0.0875683778     0.3102822904      
4845003870        -0.07609345351    -0.06823679599    -1.937513379      -5.014424135      
                  -1.937513379      -5.014424135      0.1995592596      -0.1550086753     
4930003780        -0.07753990005    0.04012079681     -3.36691747       4.182544474       
                  -3.36691747       4.182544474       -0.3197614126     -0.09910607693    
5015003690        0.04921637249     0.03750772697     5.176995909       0.9644555604      
                  5.176995909       0.9644555604      0.03540325017     0.3341975516      
5100003600        -0.05181546652    -0.05490439352    -1.769199784      -5.088428786      
                  -1.769199784      -5.088428786      0.1185908042      -0.2283235141     
5185003510        -0.09024149272    0.00351480635     -3.421828662      3.957721705       
                  -3.421828662      3.957721705       -0.3491044426     0.01234273777     
5270003420        0.01458539545     0.07162219808     5.0380565         1.203580836       
                  5.0380565         1.203580836       0.1492166754      0.3003165002      
5355003330        -0.04137737834    -0.02200109004    -1.652901058      -5.150173778      
                  -1.652901058      -5.150173778      -0.002137528612   -0.2781752969     
5440003240        -0.07092105165    -0.04059364327    -3.368473073      3.793255552       
                  -3.368473073      3.793255552       -0.3187651079     0.1329122208      
5525003150        -0.01908195865    0.0606150632      5.023298439       1.313752162       
                  5.023298439       1.313752162       0.2692461402      0.2004280242      
5610003060        -0.03840236266    0.02863617926     -1.598563502      -4.990635991      
                  -1.598563502      -4.990635991      -0.1366926131     -0.2673535569     
5695002970        -0.01289778255    -0.0433970854     -3.370527989      3.576994036       
                  -3.370527989      3.576994036       -0.2212529285     0.2532599875      
5780002880        -0.02649387924    0.02282468388     4.976893251       1.408866852       
                  4.976893251       1.408866852       0.3291015429      0.05712653435     
5865002790        -0.07737036379    0.07679029644     -1.49722068       -4.726499223      
                  -1.49722068       -4.726499223      -0.2719021074     -0.1859685007     
5950002700        0.03718269887     0.005937051858    -3.402804069      3.367694238       
                  -3.402804069      3.367694238       -0.08275319428    0.3328825323      
6035002610        -0.01912309143    -0.04039625458    4.763169908       1.30154414        
                  4.763169908       1.30154414        0.2985390262      -0.09768442444    
6120002520        -0.1459955231     0.0743014234      -1.387291283      -4.469853398      
                  -1.387291283      -4.469853398      -0.3580726342     -0.04610580902    
6205002430        0.07200438476     0.08823659765     -3.290044407      3.168426138       
                  -3.290044407      3.168426138       0.1029411917      0.3370053642      
6290002340        0.06042765717     -0.09215354423    4.542995981       1.159553425       
                  4.542995981       1.159553425       0.1953792026      -0.2490082421     
6375002250        -0.2164050695     0.008269975589    -1.287706266      -4.170033793      
                  -1.287706266      -4.170033793      -0.3768525689     0.1300718293      
6460002160        0.02822307145     0.207493855       -3.024586856      2.955471207       
                  -3.024586856      2.955471207       0.2695651036      0.2723745165      
6545002070        0.1751803248      -0.05807356174    4.100714742       1.063761817       
                  4.100714742       1.063761817       0.02826190048     -0.3180199039     
6630001980        -0.2069659595     -0.1102145285     -1.124651207      -3.834781733      
                  -1.124651207      -3.834781733      -0.2983828384     0.2993986027      
6715001890        -0.07111044937    0.2721964184      -2.706695525      2.626483486       
                  -2.706695525      2.626483486       0.3795078328      0.1523999947      
6800001800        0.2655333877      0.04974638993     3.62299503        1.09078393        
                  3.62299503        1.09078393        -0.1325196333     -0.3075824207     
6885001710        -0.1039351391     -0.2413330137     -0.8543288942     -3.486955842      
                  -0.8543288942     -3.486955842      -0.1833525364     0.3822037484      
6970001620        -0.20654404       0.2323521597      -2.619418651      2.240750445       
                  -2.619418651      2.240750445       0.4221650387      0.02099511511     
7055001530        0.2629255169      0.2069939252      3.220121682       1.242486562       
                  3.220121682       1.242486562       -0.2554256353     -0.2716723785     
7140001440        0.08110542014     -0.2990955833     -0.5261847745     -3.218608214      
                  -0.5261847745     -3.218608214      -0.06590780347    0.4478411443      
7225001350        -0.2932623697     0.09216515901     -2.55868849       1.879987002       
                  -2.55868849       1.879987002       0.4479011674      -0.1044484496     
7310001260        0.1732318089      0.3393694092      2.842735756       1.134691869       
                  2.842735756       1.134691869       -0.3523228717     -0.1842915133     
7395001170        0.2848107359      -0.2296716862     -0.2705728799     -2.947377138      
                  -0.2705728799     -2.947377138      0.08375185734     0.4770455053      
7480001080        -0.2979629784     -0.1076848033     -2.407073131      1.630539303       
                  -2.407073131      1.630539303       0.395140863       -0.2386153483     
7565000990        -0.03130379121    0.402271816       2.63006838        1.163662088       
                  2.63006838        1.163662088       -0.4265568448     -0.08300309502    
7650000900        0.4008144924      -0.05594147226    -0.05127697758    -2.617080417      
                  -0.05127697758    -2.617080417      0.2104070193      0.4383747397      
7735000810        -0.1594564496     -0.3075731435     -2.296602758      1.346951969       
                  -2.296602758      1.346951969       0.3173647542      -0.3463054781     
7820000720        -0.2059704913     0.3175886924      2.278039692       1.237204737       
                  2.278039692       1.237204737       -0.4036102655     0.02651414727     
7905000630        0.4139186831      0.1382947622      0.09085291114     -2.302533865      
                  0.09085291114     -2.302533865      0.3266996799      0.3616723171      
7990000540        0.06533596149     -0.3910552723     -2.219010088      0.932381317       
                  -2.219010088      0.932381317       0.222240737       -0.407444207      
8075000450        -0.3505579226     0.120421635       1.906277352       1.432643048       
                  1.906277352       1.432643048       -0.3873205772     0.1176790858      
8160000360        0.2974575752      0.3112020468      0.247723344       -2.181378298      
                  0.247723344       -2.181378298      0.3976187442      0.2793942467      
8245000270        0.2536915481      -0.3340387952     -2.022576552      0.615904001       
                  -2.022576552      0.615904001       0.115703342       -0.4394791813     
8330000180        -0.3617641176     -0.1284454027     1.619159909       1.480506516       
                  1.619159909       1.480506516       -0.3383306143     0.1927885294      
8415000090        0.07792767575     0.3924241986      0.395312078       -1.986104501      
                  0.395312078       -1.986104501      0.4351993757      0.1704635971      
8500000000        0.3859845635      -0.1815123528     -1.828773133      0.4339693862      
                  -1.828773133      0.4339693862      -0.001000936431   -0.4610418739     
