! RsaToolbox (C) 2013 Rohde & Schwarz America
! 
! Number of points: 101
! Number of ports: 2
! Balanced ports?: 0
! 
! 
# Hz S RI R 50
9000              1.029340246       -0.02520775606    0.0001655142619   7.217686436e-05   
                  0.0001655142619   7.217686436e-05   1.023795986       -0.04053798919    
85008910          0.002934352968    0.1595045222      3.194021142       5.529313624       
                  3.194021142       5.529313624       -0.09207919263    -0.114845064      
170008820         0.1424642112      -0.04452127554    3.200566532       -5.228033904      
                  3.200566532       -5.228033904      -0.02058548156    0.1718440095      
255008730         -0.1762091393     -0.07593385179    -6.062558794      -0.1782101667     
                  -6.062558794      -0.1782101667     0.07676100579     -0.02640200814    
340008640         -0.06426031963    0.1699909639      2.648803094       5.367468384       
                  2.648803094       5.367468384       -0.1267825273     -0.0540422005     
425008550         0.1598925019      -0.04648117603    3.401457693       -4.867561071      
                  3.401457693       -4.867561071      0.0167803786      0.1038439627      
510008460         -0.1020397874     -0.1635306677     -5.912930275      -0.6539470028     
                  -5.912930275      -0.6539470028     0.06975136348     -0.07907349743    
595008370         -0.1080600637     0.1403211076      2.22139387        5.437321499       
                  2.22139387        5.437321499       -0.08394732931    -0.01214212904    
680008280         0.205043496       0.03409979016     3.676290839       -4.574177881      
                  3.676290839       -4.574177881      0.09242295404     0.07510844814     
765008190         0.009415424338    -0.1641999864     -5.739359674      -1.121387642      
                  -5.739359674      -1.121387642      0.0596837207      -0.06153517707    
850008100         -0.1829025069     0.1121381057      1.862197674       5.533114185       
                  1.862197674       5.533114185       -0.07238360001    0.06511922417     
935008010         0.1458603841      0.1243752227      3.959536002       -4.230182779      
                  3.959536002       -4.230182779      0.1024848765      0.03844901361     
1020007920        0.07569329274     -0.1546769453     -5.59397613       -1.457017852      
                  -5.59397613       -1.457017852      -0.005484797894   -0.07512674916    
1105007830        -0.2251704444     -0.008332378277   1.473962685       5.61986012        
                  1.473962685       5.61986012        -0.06135255372    0.07466860083     
1190007740        0.07175537426     0.1406843099      4.198440745       -3.867085776      
                  4.198440745       -3.867085776      0.1238200772      -0.04227160047    
1275007650        0.1644157528      -0.1092757996     -5.47217455       -1.83800679       
                  -5.47217455       -1.83800679       -0.03033591105    -0.08942691871    
1360007560        -0.1642316278     -0.1007056767     1.037486512       5.651860211       
                  1.037486512       5.651860211       -0.00484936868    0.1016371234      
1445007470        0.0009103930007   0.1418983773      4.423300393       -3.540822401      
                  4.423300393       -3.540822401      0.1469698636      -0.0886664124     
1530007380        0.1848164259      -0.01177432977    -5.308633415      -2.200092814      
                  -5.308633415      -2.200092814      -0.06905589644    -0.06395877014    
1615007290        -0.09502827762    -0.1240205093     0.6157163693      5.611312547       
                  0.6157163693      5.611312547       0.02286621437     0.1412525799      
1700007200        -0.08917433388    0.0970666139      4.679853019       -3.241872977      
                  4.679853019       -3.241872977      0.1109329166      -0.1332944164     
1785007110        0.1288475693      0.03156217231     -5.067595978      -2.534312049      
                  -5.067595978      -2.534312049      -0.131432382      -0.06433342556    
1870007020        -0.02189601039    -0.1366590712     0.2204364903      5.61854126        
                  0.2204364903      5.61854126        0.06606153727     0.1323735186      
1955006930        -0.1070376647     0.02097367882     4.886088437       -2.887210144      
                  4.886088437       -2.887210144      0.08978817888     -0.1933261999     
2040006840        0.0835871014      0.03942681814     -4.825964244      -2.82875349       
                  -4.825964244      -2.82875349       -0.1546601802     -0.04155091773    
2125006750        0.03642636352     -0.09303069024    -0.1951844027     5.645007703       
                  -0.1951844027     5.645007703       0.1316261797      0.1371270821      
2210006660        -0.09331015758    -0.0008435067651  4.985275121       -2.52787063       
                  4.985275121       -2.52787063       0.04874667806     -0.2177795557     
2295006570        0.03030486461     0.03751614862     -4.599827416      -3.155016906      
                  -4.599827416      -3.155016906      -0.1859854105     0.01570307967     
2380006480        0.02932898639     -0.05337240331    -0.563025516      5.582621432       
                  -0.563025516      5.582621432       0.1670113126      0.1138817462      
2465006390        -0.0887736861     -0.01530474621    5.061708809       -2.2175552        
                  5.061708809       -2.2175552        -0.02017752786    -0.2588184041     
2550006300        0.01139709287     0.001769179861    -4.29296307       -3.491187335      
                  -4.29296307       -3.491187335      -0.1902395547     0.06079055076     
2635006210        0.02614438432     -0.04457179958    -0.903645569      5.524629926       
                  -0.903645569      5.524629926       0.2134305772      0.0638937598      
2720006120        -0.08277038685    -0.01064215468    5.137322422       -1.839008011      
                  5.137322422       -1.839008011      -0.09085466678    -0.2643853418     
2805006030        0.0176079529      3.770874163e-05   -4.006796442      -3.738522569      
                  -4.006796442      -3.738522569      -0.1635302427     0.1235290848      
2890005940        0.02166022408     -0.03619356733    -1.238141533      5.398865779       
                  -1.238141533      5.398865779       0.2322622234      0.009198226853    
2975005850        -0.09498463836    -0.009452067421   5.168214998       -1.384655444      
                  5.168214998       -1.384655444      -0.1623397179     -0.2470435602     
3060005760        0.01709709205     0.01019665748     -3.70970395       -4.085219543      
                  -3.70970395       -4.085219543      -0.1187642149     0.1695483545      
3145005670        0.03671285781     -0.04408300872    -1.637882226      5.244348898       
                  -1.637882226      5.244348898       0.231284581       -0.07039621983    
3230005580        -0.1017570864     -0.03312541082    5.278951549       -0.9806349571     
                  5.278951549       -0.9806349571     -0.2276192968     -0.207624798      
3315005490        0.01190451557     0.03188292804     -3.434989042      -4.313879182      
                  -3.434989042      -4.313879182      -0.04609457508    0.2033972998      
3400005400        0.06176519537     -0.02790401639    -1.997785105      5.078919092       
                  -1.997785105      5.078919092       0.2010607851      -0.1445232607     
3485005310        -0.09797522484    -0.06420790174    5.383672194       -0.6155786231     
                  5.383672194       -0.6155786231     -0.282192917      -0.1302076283     
3570005220        -0.02113537559    0.05026236123     -3.252157574      -4.505650729      
                  -3.252157574      -4.505650729      0.03360699319     0.2104474495      
3655005130        0.06929523261     0.005056675506    -2.196577665      4.95117282        
                  -2.196577665      4.95117282        0.1338929111      -0.2091119284     
3740005040        -0.07631648929    -0.09285049279    5.372518763       -0.2555046187     
                  5.372518763       -0.2555046187     -0.3112179841     -0.03959302388    
3825004950        -0.05896569331    0.03743189274     -2.978710617      -4.642041255      
                  -2.978710617      -4.642041255      0.1122157066      0.1755530878      
3910004860        0.06364965437     0.03849194076     -2.617422961      4.728752013       
                  -2.617422961      4.728752013       0.05011019507     -0.258074371      
3995004770        -0.03044443058    -0.1111893312     5.406598672       0.06881668655     
                  5.406598672       0.06881668655     -0.3056896194     0.06462007364     
4080004680        -0.08474917286    0.007360117582    -2.706006304      -4.810330442      
                  -2.706006304      -4.810330442      0.189617985       0.1275628733      
4165004590        0.03918494925     0.06968901976     -2.875131654      4.588881492       
                  -2.875131654      4.588881492       -0.04619263576    -0.2718560445     
4250004500        0.01087476607     -0.08761033102    5.493427372       0.3087603894      
                  5.493427372       0.3087603894      -0.2667022446     0.1754620977      
4335004410        -0.1002905746     -0.01950022868    -2.453461335      -4.919786909      
                  -2.453461335      -4.919786909      0.229385456       0.04515043826     
4420004320        -0.007508446002   0.08335577829     -3.080557019      4.479295241       
                  -3.080557019      4.479295241       -0.1643186513     -0.2501053646     
4505004230        0.03898925497     -0.05608620406    5.44801264        0.4895224112      
                  5.44801264        0.4895224112      -0.1959156989     0.2590605452      
4590004140        -0.09894905156    -0.05280410244    -2.186653146      -4.964169078      
                  -2.186653146      -4.964169078      0.229748596       -0.05794152993    
4675004050        -0.04564937036    0.07060192858     -3.181459662      4.361603454       
                  -3.181459662      4.361603454       -0.2554025966     -0.1908812301     
4760003960        0.0565192827      -0.0159581601     5.298947536       0.7256601537      
                  5.298947536       0.7256601537      -0.08715109591    0.3108563183      
4845003870        -0.07606795744    -0.06796568799    -1.941980933      -5.011088364      
                  -1.941980933      -5.011088364      0.1997031353      -0.1551529233     
4930003780        -0.07614679523    0.0394183183      -3.367283407      4.183666599       
                  -3.367283407      4.183666599       -0.3196699824     -0.09959253063    
5015003690        0.04872198174     0.0373437936      5.173243062       0.9682124194      
                  5.173243062       0.9682124194      0.0363901358      0.3340952456      
5100003600        -0.05174755295    -0.05508567475    -1.767977629      -5.089821604      
                  -1.767977629      -5.089821604      0.1200668861      -0.2283720349     
5185003510        -0.09160104897    0.004799161046    -3.420956985      3.958644693       
                  -3.420956985      3.958644693       -0.3495725233     0.01222442762     
5270003420        0.01390529813     0.07032700457     5.037924971       1.20019001        
                  5.037924971       1.20019001        0.1497204204      0.299661109       
5355003330        -0.04318863973    -0.02183388302    -1.653011164      -5.150255353      
                  -1.653011164      -5.150255353      -0.002283976466   -0.2783400219     
5440003240        -0.07116909069    -0.04002751328    -3.36736391       3.794548122       
                  -3.36736391       3.794548122       -0.3195632023     0.1329154599      
5525003150        -0.01888355155    0.06123443597     5.025054211       1.313859819       
                  5.025054211       1.313859819       0.2686819227      0.2020293222      
5610003060        -0.03857918369    0.02851069772     -1.602091618      -4.986821447      
                  -1.602091618      -4.986821447      -0.1368522739     -0.2678543683     
5695002970        -0.01243313714    -0.04332591621    -3.368194302      3.576819471       
                  -3.368194302      3.576819471       -0.2205557571     0.2522404421      
5780002880        -0.02629644284    0.02230330935     4.975592575       1.410288653       
                  4.975592575       1.410288653       0.3293884382      0.05768265647     
5865002790        -0.07766957653    0.0767893732      -1.497417926      -4.726775026      
                  -1.497417926      -4.726775026      -0.2719318097     -0.1852604977     
5950002700        0.03721889962     0.005396811621    -3.398845324      3.367993951       
                  -3.398845324      3.367993951       -0.08275983196    0.3323946451      
6035002610        -0.01929773723    -0.04063485992    4.762819125       1.302099172       
                  4.762819125       1.302099172       0.2984775471      -0.09786814911    
6120002520        -0.1457821286     0.07407617232     -1.387538959      -4.469702238      
                  -1.387538959      -4.469702238      -0.358837132      -0.0451035041     
6205002430        0.07203264741     0.08826251105     -3.288887924      3.170445645       
                  -3.288887924      3.170445645       0.1035335619      0.3364991865      
6290002340        0.06000293195     -0.0935205244     4.542550938       1.159965733       
                  4.542550938       1.159965733       0.1941055373      -0.2496914707     
6375002250        -0.2162773491     0.007902131942    -1.288411282      -4.167663065      
                  -1.288411282      -4.167663065      -0.3759808859     0.1299307329      
6460002160        0.02772631581     0.2068839609      -3.020529579      2.957272024       
                  -3.020529579      2.957272024       0.2695281004      0.271588317       
6545002070        0.1745989219      -0.05830753484    4.098934417       1.061775905       
                  4.098934417       1.061775905       0.02715464749     -0.3181373341     
6630001980        -0.2059047185     -0.1111190279     -1.12508131       -3.832357276      
                  -1.12508131       -3.832357276      -0.298014017      0.2994281773      
6715001890        -0.07117354785    0.2724110003      -2.7052297        2.626122695       
                  -2.7052297        2.626122695       0.379173119       0.1531932758      
6800001800        0.2650719939      0.05030134399     3.618357898       1.090874066       
                  3.618357898       1.090874066       -0.131352495      -0.3076476287     
6885001710        -0.103584211      -0.2416336702     -0.8542845374     -3.486150649      
                  -0.8542845374     -3.486150649      -0.1830245473     0.3825186457      
6970001620        -0.2070514018     0.2323670244      -2.617597447      2.241487082       
                  -2.617597447      2.241487082       0.4204912717      0.02182508748     
7055001530        0.2615662291      0.2070160248      3.219071027       1.238736026       
                  3.219071027       1.238736026       -0.2556581135     -0.2718226507     
7140001440        0.08165184426     -0.3001581812     -0.527849916      -3.219371651      
                  -0.527849916      -3.219371651      -0.06761443687    0.4477804024      
7225001350        -0.2934373767     0.09137651512     -2.558091505      1.880328303       
                  -2.558091505      1.880328303       0.4483217552      -0.104325457      
7310001260        0.1720848633      0.3394065553      2.841576065       1.136202294       
                  2.841576065       1.136202294       -0.3515370625     -0.1860874407     
7395001170        0.2848765901      -0.229336262      -0.2715525831     -2.947404283      
                  -0.2715525831     -2.947404283      0.083816006       0.4786891296      
7480001080        -0.2976881665     -0.1077788566     -2.406304511      1.62984917        
                  -2.406304511      1.62984917        0.3952614817      -0.2386520414     
7565000990        -0.03010658409    0.4035323692      2.631617937       1.164392866       
                  2.631617937       1.164392866       -0.4278944059     -0.08279809015    
7650000900        0.4011944653      -0.05615331453    -0.05010706896    -2.618257869      
                  -0.05010706896    -2.618257869      0.2102824355      0.4397658465      
7735000810        -0.1608705306     -0.3080213649     -2.297465736      1.346312977       
                  -2.297465736      1.346312977       0.317114689       -0.3459759137     
7820000720        -0.2055858664     0.3165601455      2.277686707       1.236179478       
                  2.277686707       1.236179478       -0.4035493527     0.02611324759     
7905000630        0.4152895996      0.1380285993      0.09103533131     -2.301921037      
                  0.09103533131     -2.301921037      0.325851651       0.3615444176      
7990000540        0.06568459079     -0.3910133392     -2.21839009       0.9320498296      
                  -2.21839009       0.9320498296      0.2196128648      -0.4062633837     
8075000450        -0.3504332138     0.1201660464      1.907231451       1.433200522       
                  1.907231451       1.433200522       -0.3872350213     0.118229918       
8160000360        0.2978658654      0.3130771749      0.2491399343      -2.181449426      
                  0.2491399343      -2.181449426      0.3977037117      0.2799136159      
8245000270        0.2553599383      -0.3345475854     -2.023867694      0.6150130948      
                  -2.023867694      0.6150130948      0.11654621        -0.4397790889     
8330000180        -0.3617346914     -0.1281538209     1.619256987       1.479140349       
                  1.619256987       1.479140349       -0.3378087071     0.192024316       
8415000090        0.07799755999     0.3928576274      0.3968640147      -1.983467984      
                  0.3968640147      -1.983467984      0.4369109171      0.1709315984      
8500000000        0.3838407822      -0.1828200512     -1.828962829      0.434825043       
                  -1.828962829      0.434825043       -0.0003757820674  -0.4614266458     
