! RsaToolbox (C) 2013 Rohde & Schwarz America
! 
! Number of points: 101
! Number of ports: 2
! Balanced ports?: 0
! 
! 
# Hz S RI R 50
9000              1.021144469       -0.012673325      0.0001578660568   0.0002540901491   
                  0.0001578660568   0.0002540901491   1.024662242       -0.03395650244    
85008910          0.003001563229    0.1596703041      3.193508501       5.52908601        
                  3.193508501       5.52908601        -0.09214899721    -0.1153826289     
170008820         0.1431781505      -0.04443459351    3.202158913       -5.227530622      
                  3.202158913       -5.227530622      -0.02063387384    0.1707820591      
255008730         -0.1768371528     -0.07590149322    -6.066147697      -0.1765031148     
                  -6.066147697      -0.1765031148     0.07643969199     -0.02676023622    
340008640         -0.06405008818    0.1701859439      2.65056597        5.365488795       
                  2.65056597        5.365488795       -0.1262906764     -0.05327825279    
425008550         0.1596723996      -0.04716633577    3.399380254       -4.86911336       
                  3.399380254       -4.86911336       0.01730838757     0.1035332258      
510008460         -0.1015722524     -0.1637812764     -5.908560901      -0.658925165      
                  -5.908560901      -0.658925165      0.07093418339     -0.07999972892    
595008370         -0.1072950091     0.1401554481      2.226773658       5.435946742       
                  2.226773658       5.435946742       -0.08394669677    -0.01164685412    
680008280         0.2044216636      0.03364866811     3.676957648       -4.572866079      
                  3.676957648       -4.572866079      0.09202177665     0.07484224733     
765008190         0.009000473245    -0.1640890153     -5.738889328      -1.112563455      
                  -5.738889328      -1.112563455      0.0596526343      -0.05980574338    
850008100         -0.1819387018     0.1117582273      1.86464514        5.532508915       
                  1.86464514        5.532508915       -0.071470587      0.06599957233     
935008010         0.1464403639      0.123652379       3.957617667       -4.232556975      
                  3.957617667       -4.232556975      0.1025976104      0.03902147058     
1020007920        0.0751829432      -0.1545047488     -5.594465481      -1.457124151      
                  -5.594465481      -1.457124151      -0.004825549221   -0.07576803994    
1105007830        -0.2263545386     -0.00761566755    1.478037594       5.624827809       
                  1.478037594       5.624827809       -0.06291291491    0.07491539706     
1190007740        0.07242473278     0.1411710394      4.208931586       -3.863215797      
                  4.208931586       -3.863215797      0.1235618735      -0.04326295593    
1275007650        0.1644194012      -0.1082170003     -5.475626006      -1.841042101      
                  -5.475626006      -1.841042101      -0.03051447427    -0.08917310561    
1360007560        -0.1637085138     -0.1014125009     1.033661858       5.651016831       
                  1.033661858       5.651016831       -0.005457758631   0.1023578553      
1445007470        0.0002614832132   0.1418349835      4.422408648       -3.540198649      
                  4.422408648       -3.540198649      0.147154119       -0.08859750699    
1530007380        0.1859290195      -0.01108108308    -5.309450121      -2.19971046       
                  -5.309450121      -2.19971046       -0.0699293289     -0.06450028655    
1615007290        -0.09441205445    -0.1245508182     0.6089608599      5.607709478       
                  0.6089608599      5.607709478       0.02369788467     0.1421929208      
1700007200        -0.08843125342    0.09737761103     4.676931355       -3.240630776      
                  4.676931355       -3.240630776      0.110959752       -0.1336310475     
1785007110        0.1290608015      0.03182736568     -5.068106423      -2.535579366      
                  -5.068106423      -2.535579366      -0.1319238096     -0.06404886435    
1870007020        -0.02104786063    -0.1368561411     0.2154038752      5.615864542       
                  0.2154038752      5.615864542       0.06603944744     0.1323382619      
1955006930        -0.1073019759     0.02101663022     4.885899322       -2.884865642      
                  4.885899322       -2.884865642      0.08932491403     -0.1934379117     
2040006840        0.08345857242     0.03947312898     -4.829855164      -2.824465475      
                  -4.829855164      -2.824465475      -0.1546633353     -0.04206263437    
2125006750        0.03695657462     -0.09393971489    -0.2019687042     5.641305519       
                  -0.2019687042     5.641305519       0.131183682       0.1374139539      
2210006660        -0.09317038603    -0.001111550936   4.982299669       -2.529084343      
                  4.982299669       -2.529084343      0.04801665147     -0.2183898807     
2295006570        0.03073681771     0.03720105085     -4.595559366      -3.154135594      
                  -4.595559366      -3.154135594      -0.1854997745     0.01549984225     
2380006480        0.02981375403     -0.05281796122    -0.5650390622     5.578764822       
                  -0.5650390622     5.578764822       0.1664395117      0.1138024049      
2465006390        -0.08903764543    -0.01705388305    5.062567586       -2.211332253      
                  5.062567586       -2.211332253      -0.01937051793    -0.2589904324     
2550006300        0.01211760295     0.002079402018    -4.289067659      -3.492821022      
                  -4.289067659      -3.492821022      -0.1908193143     0.06066671618     
2635006210        0.02651684892     -0.04511681973    -0.9043068744     5.524810482       
                  -0.9043068744     5.524810482       0.2139781705      0.063777285       
2720006120        -0.08307072458    -0.01065287884    5.137312503       -1.842978834      
                  5.137312503       -1.842978834      -0.09028058718    -0.2642975023     
2805006030        0.01671075315     0.0007267862751   -4.006040774      -3.739823034      
                  -4.006040774      -3.739823034      -0.1628457627     0.1228487522      
2890005940        0.0222883728      -0.03646627807    -1.24126657       5.400956818       
                  -1.24126657       5.400956818       0.2311151136      0.008270014143    
2975005850        -0.09492040627    -0.009020277159   5.170062153       -1.381608477      
                  5.170062153       -1.381608477      -0.1629784157     -0.2486616472     
3060005760        0.01797222503     0.01043835268     -3.706375235      -4.085358194      
                  -3.706375235      -4.085358194      -0.1192102145     0.1687822998      
3145005670        0.03755163034     -0.04466074334    -1.644341011      5.249326807       
                  -1.644341011      5.249326807       0.23054282        -0.0714873571     
3230005580        -0.1017894191     -0.0336752198     5.278831223       -0.9805184594     
                  5.278831223       -0.9805184594     -0.2266955958     -0.207935665      
3315005490        0.0103495159      0.03185863867     -3.437666652      -4.314365229      
                  -3.437666652      -4.314365229      -0.04695269472    0.202688836       
3400005400        0.06327018711     -0.02814152663    -1.997249505      5.081309959       
                  -1.997249505      5.081309959       0.2007571158      -0.1452602274     
3485005310        -0.09817841679    -0.06486404274    5.380824298       -0.6159157293     
                  5.380824298       -0.6159157293     -0.2816583599     -0.1298360633     
3570005220        -0.019397315      0.05019445989     -3.255300134      -4.506478791      
                  -3.255300134      -4.506478791      0.03434827599     0.2109139304      
3655005130        0.06935849295     0.00549990265     -2.19585339       4.948248231       
                  -2.19585339       4.948248231       0.1333658211      -0.2093561824     
3740005040        -0.07661774275    -0.09321499634    5.375101424       -0.254546625      
                  5.375101424       -0.254546625      -0.3122791696     -0.03927171013    
3825004950        -0.05846124689    0.03679131444     -2.979456807      -4.640768769      
                  -2.979456807      -4.640768769      0.1134257109      0.1762072713      
3910004860        0.06396329402     0.03730768763     -2.619223979      4.728507617       
                  -2.619223979      4.728507617       0.04941738324     -0.2586754261     
3995004770        -0.03157507961    -0.1111886865     5.405303146       0.06690821414     
                  5.405303146       0.06690821414     -0.3059977968     0.0651777786      
4080004680        -0.08471547301    0.007637550875    -2.708441898      -4.810744068      
                  -2.708441898      -4.810744068      0.1903043729      0.1277476609      
4165004590        0.03902522349     0.0709374144      -2.876902152      4.589718571       
                  -2.876902152      4.589718571       -0.04707569665    -0.2719674418     
4250004500        0.01175854852     -0.08842788519    5.493629707       0.3075477694      
                  5.493629707       0.3075477694      -0.2656698278     0.175710922       
4335004410        -0.1016572254     -0.02047208229    -2.458149953      -4.918057118      
                  -2.458149953      -4.918057118      0.2290876466      0.0432005428      
4420004320        -0.008206170639   0.08358879269     -3.078777077      4.480110182       
                  -3.078777077      4.480110182       -0.1637267611     -0.24923912       
4505004230        0.03782403711     -0.05705542069    5.449876337       0.4900610348      
                  5.449876337       0.4900610348      -0.1973915492     0.2586234344      
4590004140        -0.09927468612    -0.05263787269    -2.185073315      -4.96194994       
                  -2.185073315      -4.96194994       0.2297175286      -0.05685868189    
4675004050        -0.04462653726    0.06957786802     -3.180680925      4.361147607       
                  -3.180680925      4.361147607       -0.2552923409     -0.1907431538     
4760003960        0.05702209647     -0.01561276056    5.29689971        0.7278820016      
                  5.29689971        0.7278820016      -0.08565400126    0.3112738864      
4845003870        -0.07633828447    -0.06881137247    -1.938380355      -5.015739179      
                  -1.938380355      -5.015739179      0.2005648564      -0.1548482743     
4930003780        -0.07552410686    0.03960106931     -3.366283487      4.181021154       
                  -3.366283487      4.181021154       -0.319598876      -0.09832294825    
5015003690        0.04919446779     0.03851556217     5.175080965       0.9675989044      
                  5.175080965       0.9675989044      0.0352920687      0.334602002       
5100003600        -0.05132435324    -0.055399331      -1.768696162      -5.08791281       
                  -1.768696162      -5.08791281       0.1188840377      -0.2293732531     
5185003510        -0.09105972877    0.003809728508    -3.419680144      3.960858535       
                  -3.419680144      3.960858535       -0.3495634121     0.0112772613      
5270003420        0.01427048882     0.07173781096     5.038075679       1.202660803       
                  5.038075679       1.202660803       0.149513209       0.2995322779      
5355003330        -0.0424846644     -0.02200265327    -1.653345689      -5.147907245      
                  -1.653345689      -5.147907245      -0.002099910302   -0.2792156533     
5440003240        -0.07132047861    -0.0396976465     -3.367927542      3.794148271       
                  -3.367927542      3.794148271       -0.3193332555     0.1317648503      
5525003150        -0.01862107083    0.06006072885     5.022899798       1.313184847       
                  5.022899798       1.313184847       0.2690793354      0.2013782782      
5610003060        -0.03891150728    0.02839129677     -1.596471061      -4.988915783      
                  -1.596471061      -4.988915783      -0.1371135465     -0.2674463782     
5695002970        -0.01292279289    -0.04283928917    -3.368724797      3.576609066       
                  -3.368724797      3.576609066       -0.2212456595     0.2528938482      
5780002880        -0.02615433887    0.02257096312     4.975761218       1.410104947       
                  4.975761218       1.410104947       0.3287149022      0.05693835879     
5865002790        -0.07720103764    0.07686225121     -1.503608126      -4.722608513      
                  -1.503608126      -4.722608513      -0.2728579232     -0.1850528863     
5950002700        0.03682304724     0.005670795484    -3.400109688      3.368478068       
                  -3.400109688      3.368478068       -0.08334230448    0.3326674085      
6035002610        -0.01893405546    -0.0404443249     4.763940618       1.292961345       
                  4.763940618       1.292961345       0.2979337804      -0.09772712763    
6120002520        -0.1456189312     0.07381935537     -1.386120409      -4.469414649      
                  -1.386120409      -4.469414649      -0.3582994543     -0.04520364364    
6205002430        0.07173999867     0.08815965731     -3.289376657      3.168970071       
                  -3.289376657      3.168970071       0.1026048438      0.3369127598      
6290002340        0.0603209215      -0.09234838065    4.540907426       1.159845322       
                  4.540907426       1.159845322       0.1951273235      -0.2486444647     
6375002250        -0.2175005535     0.008585586641    -1.28650075       -4.167666744      
                  -1.28650075       -4.167666744      -0.3765233245     0.1299802669      
6460002160        0.02921247356     0.2063165825      -3.022078984      2.952694462       
                  -3.022078984      2.952694462       0.2689644427      0.271627367       
6545002070        0.1749592258      -0.05887497341    4.09887005        1.06250965        
                  4.09887005        1.06250965        0.02803001722     -0.3172266554     
6630001980        -0.2067135107     -0.1097571771     -1.126146603      -3.830562018      
                  -1.126146603      -3.830562018      -0.2977118198     0.2998695373      
6715001890        -0.07061878763    0.2724034706      -2.70239482       2.625500869       
                  -2.70239482       2.625500869       0.3797048678      0.152888649       
6800001800        0.2652231857      0.05113066017     3.617709523       1.090204299       
                  3.617709523       1.090204299       -0.1317784114     -0.3075519782     
6885001710        -0.1038123096     -0.2412571213     -0.8579948392     -3.48492644       
                  -0.8579948392     -3.48492644       -0.1829736018     0.3821470895      
6970001620        -0.205795915      0.2329649814      -2.619890984      2.242605655       
                  -2.619890984      2.242605655       0.420990755       0.0205736562      
7055001530        0.262045376       0.2059172554      3.219440136       1.240171144       
                  3.219440136       1.240171144       -0.2555462929     -0.2724204297     
7140001440        0.08081625536     -0.3007148894     -0.5262854559     -3.218496313      
                  -0.5262854559     -3.218496313      -0.06685174038    0.4481192636      
7225001350        -0.2936507551     0.09129047755     -2.559906817      1.879029299       
                  -2.559906817      1.879029299       0.4484288121      -0.1053814621     
7310001260        0.1728158787      0.3391494391      2.838650492       1.134691806       
                  2.838650492       1.134691806       -0.3520492629     -0.1855632974     
7395001170        0.2846405253      -0.2298487279     -0.2724090727     -2.948789693      
                  -0.2724090727     -2.948789693      0.08359110193     0.47769294        
7480001080        -0.2984152786     -0.1080146007     -2.406133636      1.632342295       
                  -2.406133636      1.632342295       0.3952691256      -0.2384061591     
7565000990        -0.03015148524    0.4017012163      2.630659294       1.16262567        
                  2.630659294       1.16262567        -0.4268838812     -0.0833512418     
7650000900        0.4010860309      -0.05614070055    -0.05093989837    -2.617918157      
                  -0.05093989837    -2.617918157      0.211852113       0.439380547       
7735000810        -0.161469614      -0.3074728068     -2.298398445      1.344165348       
                  -2.298398445      1.344165348       0.3169446598      -0.3462179103     
7820000720        -0.2060309862     0.3173290426      2.278300994       1.236765064       
                  2.278300994       1.236765064       -0.4036644905     0.02597953588     
7905000630        0.4156940741      0.1385545843      0.09061992361     -2.303069496      
                  0.09061992361     -2.303069496      0.3253964684      0.362059568       
7990000540        0.06569666811     -0.390913566      -2.217618873      0.9296044451      
                  -2.217618873      0.9296044451      0.2220659983      -0.4072312451     
8075000450        -0.3511206543     0.1202129479      1.907367438       1.43355153        
                  1.907367438       1.43355153        -0.3859805759     0.1175679848      
8160000360        0.2973602255      0.3118006115      0.2474442764      -2.181276937      
                  0.2474442764      -2.181276937      0.3987421622      0.2792394423      
8245000270        0.2560287153      -0.3330159848     -2.022426799      0.6156128451      
                  -2.022426799      0.6156128451      0.1155739954      -0.4393576556     
8330000180        -0.3615958592     -0.128367613      1.619491029       1.481328405       
                  1.619491029       1.481328405       -0.3386325218     0.1910598422      
8415000090        0.07802635419     0.3917049063      0.3952890682      -1.983237745      
                  0.3952890682      -1.983237745      0.4358395628      0.1700546853      
8500000000        0.3836020487      -0.182386173      -1.828718774      0.435484693       
                  -1.828718774      0.435484693       -0.0001851953846  -0.4609067456     
