! RsaToolbox (C) 2013 Rohde & Schwarz America
! 
! Number of points: 101
! Number of ports: 2
! Balanced ports?: 0
! 
! 
# Hz S RI R 50
9000              1.014552237       -0.02975858969    2.774037151e-05   -4.920955697e-06  
                  2.774037151e-05   -4.920955697e-06  1.022379209       -0.02648972399    
85008910          0.002439776356    0.1589305943      3.190557653       5.526482526       
                  3.190557653       5.526482526       -0.09220457445    -0.1152979657     
170008820         0.1430265135      -0.04461880835    3.199775248       -5.222200872      
                  3.199775248       -5.222200872      -0.02076647392    0.1716084724      
255008730         -0.1758798044     -0.0759256744     -6.06479248       -0.1762575296     
                  -6.06479248       -0.1762575296     0.07788259223     -0.02573064871    
340008640         -0.0633437371     0.1700344684      2.649126572       5.363039424       
                  2.649126572       5.363039424       -0.1262491129     -0.05310353113    
425008550         0.1597051142      -0.04679202488    3.397641959       -4.875213731      
                  3.397641959       -4.875213731      0.0180551282      0.1033037225      
510008460         -0.1019366748     -0.1635020008     -5.910975053      -0.6568706246     
                  -5.910975053      -0.6568706246     0.07021271268     -0.08028221728    
595008370         -0.1077106438     0.1404195493      2.222563608       5.437936602       
                  2.222563608       5.437936602       -0.08349939638    -0.01159878879    
680008280         0.2047250985      0.03403079839     3.674651095       -4.578213527      
                  3.674651095       -4.578213527      0.09225904657     0.07505753803     
765008190         0.009161821563    -0.1644177515     -5.740534358      -1.112935689      
                  -5.740534358      -1.112935689      0.05986792398     -0.06017193996    
850008100         -0.1821940022     0.1121273492      1.864251627       5.532562003       
                  1.864251627       5.532562003       -0.07120136999    0.06560246307     
935008010         0.1458883239      0.1236596978      3.957668369       -4.232892865      
                  3.957668369       -4.232892865      0.1020792074      0.03904344974     
1020007920        0.07625270561     -0.154802572      -5.595623887      -1.456302717      
                  -5.595623887      -1.456302717      -0.004653208051   -0.07538006634    
1105007830        -0.2254093776     -0.007994121754   1.477646922       5.623897755       
                  1.477646922       5.623897755       -0.06242983406    0.07490664593     
1190007740        0.07176635763     0.1409898285      4.20319981        -3.858740637      
                  4.20319981        -3.858740637      0.1241335495      -0.04220131093    
1275007650        0.1647454174      -0.109164912      -5.472151063      -1.838865262      
                  -5.472151063      -1.838865262      -0.02965913324    -0.08854820606    
1360007560        -0.1636646408     -0.1010305034     1.040414854       5.650888944       
                  1.040414854       5.650888944       -0.005233907299   0.1010504656      
1445007470        0.0007875817437   0.1427697597      4.419540328       -3.544566717      
                  4.419540328       -3.544566717      0.1473211139      -0.0887639612     
1530007380        0.1851226798      -0.01162515259    -5.30942362       -2.198022786      
                  -5.30942362       -2.198022786      -0.06847262933    -0.06432230146    
1615007290        -0.09475439231    -0.1247464379     0.6115194003      5.608282112       
                  0.6115194003      5.608282112       0.02397784726     0.1421783361      
1700007200        -0.0888944135     0.09759462517     4.678419811       -3.240347954      
                  4.678419811       -3.240347954      0.1105207015      -0.1336150616     
1785007110        0.1290783129      0.03182524261     -5.06900617       -2.534655183      
                  -5.06900617       -2.534655183      -0.1325860165     -0.06345958892    
1870007020        -0.02168634466    -0.1364980866     0.2175342927      5.614402316       
                  0.2175342927      5.614402316       0.0662901992      0.1322313601      
1955006930        -0.1072739387     0.0217700885      4.885898049       -2.883736804      
                  4.885898049       -2.883736804      0.08909952108     -0.1940882566     
2040006840        0.0835042036      0.0396278714      -4.831206915      -2.824916936      
                  -4.831206915      -2.824916936      -0.1549708343     -0.040780575      
2125006750        0.03670157703     -0.09361708641    -0.2001275359     5.6421734         
                  -0.2001275359     5.6421734         0.1311137772      0.1372289722      
2210006660        -0.09317123441    -0.001298357642   4.986360731       -2.528225536      
                  4.986360731       -2.528225536      0.04726297277     -0.2176369493     
2295006570        0.02973474936     0.0374609874      -4.596904702      -3.154705373      
                  -4.596904702      -3.154705373      -0.1862428666     0.0154248686      
2380006480        0.02915872873     -0.05300956888    -0.565477494      5.583209068       
                  -0.565477494      5.583209068       0.1670113467      0.1142853519      
2465006390        -0.08890573285    -0.01721352348    5.062830514       -2.212929266      
                  5.062830514       -2.212929266      -0.02006154549    -0.2593437141     
2550006300        0.01190964161     0.00176573166     -4.292466812      -3.492314519      
                  -4.292466812      -3.492314519      -0.191607642      0.05996859134     
2635006210        0.02587420835     -0.04502995017    -0.9043468117     5.52610096        
                  -0.9043468117     5.52610096        0.2134885478      0.06483695153     
2720006120        -0.08272991324    -0.01197738831    5.139037339       -1.836806374      
                  5.139037339       -1.836806374      -0.09055279016    -0.2648991789     
2805006030        0.01749749915     0.0006019737323   -4.006236152      -3.743243316      
                  -4.006236152      -3.743243316      -0.1628925514     0.1233292099      
2890005940        0.02224046356     -0.03591429189    -1.246567265      5.397909372       
                  -1.246567265      5.397909372       0.231888739       0.008897587942    
2975005850        -0.09538803602    -0.009249159882   5.171612253       -1.383851977      
                  5.171612253       -1.383851977      -0.1617987521     -0.2476930961     
3060005760        0.01798242462     0.01053473684     -3.707570823      -4.088006799      
                  -3.707570823      -4.088006799      -0.1186208456     0.1688933315      
3145005670        0.03621231804     -0.04330575539    -1.641129686      5.248462109       
                  -1.641129686      5.248462109       0.2303933065      -0.07127228528    
3230005580        -0.101631305      -0.03348685887    5.279565628       -0.9820733617     
                  5.279565628       -0.9820733617     -0.226636133      -0.2076949239     
3315005490        0.01125256914     0.03178219999     -3.434662434      -4.309547963      
                  -3.434662434      -4.309547963      -0.04587967797    0.2028050763      
3400005400        0.06209456906     -0.02842493607    -1.998781339      5.080118172       
                  -1.998781339      5.080118172       0.2017231348      -0.144746082      
3485005310        -0.09839640246    -0.06451125012    5.382830162       -0.6130058417     
                  5.382830162       -0.6130058417     -0.2818747592     -0.1290603575     
3570005220        -0.02055957391    0.04974263279     -3.253094219      -4.502881345      
                  -3.253094219      -4.502881345      0.03336303407     0.2103919901      
3655005130        0.06936473076     0.00407985832     -2.19481855       4.94962177        
                  -2.19481855       4.94962177        0.133973342       -0.2084473146     
3740005040        -0.07710531041    -0.09344620053    5.372500505       -0.257814478      
                  5.372500505       -0.257814478      -0.312474939      -0.03943310141    
3825004950        -0.05856153703    0.03785158568     -2.980434079      -4.639862174      
                  -2.980434079      -4.639862174      0.1133799437      0.1752241443      
3910004860        0.06317776368     0.03891255673     -2.619284646      4.728961381       
                  -2.619284646      4.728961381       0.04994647109     -0.2593593947     
3995004770        -0.03059790247    -0.1113172626     5.406561502       0.06797036421     
                  5.406561502       0.06797036421     -0.3058893416     0.06568989493     
4080004680        -0.08446989303    0.006869733096    -2.706357348      -4.811464641      
                  -2.706357348      -4.811464641      0.190377404       0.1285088902      
4165004590        0.03934263351     0.07149273851     -2.87808814       4.589554033       
                  -2.87808814       4.589554033       -0.04754726433    -0.2717584153     
4250004500        0.01161645112     -0.08794854643    5.493867974       0.3097619225      
                  5.493867974       0.3097619225      -0.2663161646     0.1753468606      
4335004410        -0.1015042972     -0.02027361095    -2.452640357      -4.919836102      
                  -2.452640357      -4.919836102      0.2297232189      0.04426113905     
4420004320        -0.006920940533   0.08305529659     -3.079793645      4.479905575       
                  -3.079793645      4.479905575       -0.1642375769     -0.2501943429     
4505004230        0.03773962888     -0.05628267073    5.447181302       0.4889097656      
                  5.447181302       0.4889097656      -0.196291356      0.2585309349      
4590004140        -0.09957956763    -0.05188469007    -2.18681846       -4.960493143      
                  -2.18681846       -4.960493143      0.2292608916      -0.05771572432    
4675004050        -0.04496544257    0.07000111961     -3.180171375      4.359838008       
                  -3.180171375      4.359838008       -0.2556487402     -0.1908468303     
4760003960        0.05708024249     -0.01648578992    5.298602818       0.7262774851      
                  5.298602818       0.7262774851      -0.08628746153    0.3111484984      
4845003870        -0.07619292833    -0.06858105283    -1.939760427      -5.010500982      
                  -1.939760427      -5.010500982      0.1994367424      -0.1556943093     
4930003780        -0.07610340903    0.03986420215     -3.363999834      4.18264248        
                  -3.363999834      4.18264248        -0.319139349      -0.09931840474    
5015003690        0.04813664422     0.03736870701     5.169834798       0.9740304538      
                  5.169834798       0.9740304538      0.03544655167     0.3346534144      
5100003600        -0.05114354204    -0.05563719824    -1.765428558      -5.086290532      
                  -1.765428558      -5.086290532      0.1197372937      -0.2291020133     
5185003510        -0.09094034531    0.004283525406    -3.422948904      3.958099488       
                  -3.422948904      3.958099488       -0.3483768279     0.01229954753     
5270003420        0.01354573888     0.07136581523     5.03822109        1.194399343       
                  5.03822109        1.194399343       0.1502209804      0.2999105899      
5355003330        -0.04233194771    -0.02137861189    -1.65334412       -5.147879402      
                  -1.65334412       -5.147879402      -0.002239160448   -0.2789181019     
5440003240        -0.07061756299    -0.04017190347    -3.364505425      3.793452364       
                  -3.364505425      3.793452364       -0.3188845227     0.1317467657      
5525003150        -0.01868246632    0.06059955867     5.022360013       1.313372082       
                  5.022360013       1.313372082       0.268844266       0.2012786516      
5610003060        -0.0385846052     0.02874115154     -1.597637459      -4.98863842       
                  -1.597637459      -4.98863842       -0.1370331955     -0.2676564792     
5695002970        -0.01255062854    -0.04282651471    -3.366736767      3.574316166       
                  -3.366736767      3.574316166       -0.2211913458     0.2533740852      
5780002880        -0.02615424236    0.02283381237     4.975069734       1.409382206       
                  4.975069734       1.409382206       0.3294747278      0.05724611973     
5865002790        -0.07729418835    0.07675201405     -1.497813225      -4.725147823      
                  -1.497813225      -4.725147823      -0.2715711441     -0.1853352223     
5950002700        0.03647416273     0.005256764068    -3.394082815      3.371424439       
                  -3.394082815      3.371424439       -0.08253011037    0.3327788909      
6035002610        -0.0182381684     -0.03982215744    4.760563049       1.300378816       
                  4.760563049       1.300378816       0.2983581983      -0.09780721722    
6120002520        -0.1453382838     0.07360093164     -1.38633692       -4.468787503      
                  -1.38633692       -4.468787503      -0.3581516048     -0.04527383186    
6205002430        0.07161551        0.08830951471     -3.288996593      3.169510611       
                  -3.288996593      3.169510611       0.1029191684      0.3368346218      
6290002340        0.06003163051     -0.09281962796    4.540306427       1.158447643       
                  4.540306427       1.158447643       0.1943715513      -0.2484385661     
6375002250        -0.2164643744     0.008272091031    -1.286665892      -4.168031857      
                  -1.286665892      -4.168031857      -0.3767009293     0.1298997695      
6460002160        0.02859928753     0.206143849       -3.022425867      2.953356637       
                  -3.022425867      2.953356637       0.2691883142      0.2718165368      
6545002070        0.1745765734      -0.0581990711     4.095251717       1.063215717       
                  4.095251717       1.063215717       0.02813047384     -0.3174539997     
6630001980        -0.2069340894     -0.1101628434     -1.124548508      -3.830074507      
                  -1.124548508      -3.830074507      -0.2979554946     0.299406449       
6715001890        -0.07135266085    0.2718529035      -2.707328016      2.624226046       
                  -2.707328016      2.624226046       0.3803430946      0.1520133246      
6800001800        0.2656327475      0.05040449191     3.618487541       1.089517058       
                  3.618487541       1.089517058       -0.1323710695     -0.3083190791     
6885001710        -0.1034020481     -0.2416691602     -0.8560165219     -3.484721973      
                  -0.8560165219     -3.484721973      -0.1845888401     0.3818789462      
6970001620        -0.2060278412     0.2330052903      -2.617505771      2.243027139       
                  -2.617505771      2.243027139       0.4203147031      0.02143357651     
7055001530        0.2627267337      0.2059918995      3.221536841       1.240064873       
                  3.221536841       1.240064873       -0.256051857      -0.2722394596     
7140001440        0.08155980741     -0.2999403417     -0.5249277018     -3.219718548      
                  -0.5249277018     -3.219718548      -0.06760355242    0.4476026661      
7225001350        -0.2936022248     0.09113977296     -2.557894254      1.87817799        
                  -2.557894254      1.87817799        0.4477058993      -0.104354333      
7310001260        0.1733386616      0.3394037567      2.838789633       1.135331347       
                  2.838789633       1.135331347       -0.3529660904     -0.1858925828     
7395001170        0.2861268985      -0.2297687226     -0.2717042275     -2.946411857      
                  -0.2717042275     -2.946411857      0.08282580731     0.4777111882      
7480001080        -0.2980066685     -0.1074420627     -2.405804508      1.631258129       
                  -2.405804508      1.631258129       0.3950382824      -0.2387136625     
7565000990        -0.0308709337     0.40297693        2.630575027       1.163496225       
                  2.630575027       1.163496225       -0.4274101293     -0.0831508687     
7650000900        0.4016741643      -0.05714826491    -0.05104833011    -2.616993182      
                  -0.05104833011    -2.616993182      0.2123578864      0.4392807756      
7735000810        -0.1601406348     -0.3070807115     -2.297713355      1.344930388       
                  -2.297713355      1.344930388       0.3172015528      -0.3456439949     
7820000720        -0.2065045612     0.3177037283      2.278477253       1.236398658       
                  2.278477253       1.236398658       -0.4032068834     0.02548792716     
7905000630        0.4151966481      0.1388308606      0.09059595906     -2.304459114      
                  0.09059595906     -2.304459114      0.3251914365      0.3614560519      
7990000540        0.06549550984     -0.391259178      -2.21648465       0.9297085317      
                  -2.21648465       0.9297085317      0.2222530001      -0.4073637574     
8075000450        -0.3500549141     0.1194882959      1.905047196       1.433349133       
                  1.905047196       1.433349133       -0.3861619727     0.117336112       
8160000360        0.2976883456      0.3120213417      0.2490083022      -2.181048496      
                  0.2490083022      -2.181048496      0.3989067132      0.2794614386      
8245000270        0.2570569149      -0.3327201211     -2.023212254      0.6154360467      
                  -2.023212254      0.6154360467      0.1158641094      -0.4382396812     
8330000180        -0.3605064501     -0.1290877737     1.619262706       1.480963542       
                  1.619262706       1.480963542       -0.3389860095     0.1909856334      
8415000090        0.07779511346     0.3927202226      0.3956204147      -1.983834429      
                  0.3956204147      -1.983834429      0.4358715946      0.1696702924      
8500000000        0.3846371438      -0.1819503653     -1.827924549      0.4351524275      
                  -1.827924549      0.4351524275      -0.0007189488516  -0.4605062006     
