! RsaToolbox (C) 2013 Rohde & Schwarz America
! 
! Number of points: 101
! Number of ports: 2
! Balanced ports?: 0
! 
! 
# Hz S RI R 50
9000              1.012758496       -0.02550905787    4.585491744e-06   3.901120809e-05   
                  4.585491744e-06   3.901120809e-05   1.018851583       -0.02744452704    
85008910          0.00262478637     0.1590951884      3.196226682       5.515554988       
                  3.196226682       5.515554988       -0.09203836144    -0.1155724975     
170008820         0.1424273659      -0.04437179891    3.19085881        -5.228149348      
                  3.19085881        -5.228149348      -0.02058288671    0.1716106976      
255008730         -0.1762642258     -0.07597571659    -6.061474099      -0.1675452613     
                  -6.061474099      -0.1675452613     0.07753754976     -0.02636221228    
340008640         -0.06349639918    0.1698773996      2.654078691       5.357936275       
                  2.654078691       5.357936275       -0.126644177      -0.05352508595    
425008550         0.1593668759      -0.04642840824    3.391932634       -4.869949291      
                  3.391932634       -4.869949291      0.01701390606     0.1027644179      
510008460         -0.1017078785     -0.1635089251     -5.908054769      -0.6471069993     
                  -5.908054769      -0.6471069993     0.07061877141     -0.07950248779    
595008370         -0.1073914467     0.1401180994      2.228724889       5.430386461       
                  2.228724889       5.430386461       -0.08362441005    -0.01174607171    
680008280         0.2045595881      0.03365228185     3.662655748       -4.580868511      
                  3.662655748       -4.580868511      0.09192471108     0.07506634137     
765008190         0.009305910825    -0.1639914701     -5.735773871      -1.105491207      
                  -5.735773871      -1.105491207      0.05974813212     -0.06037785452    
850008100         -0.1817449174     0.1115684246      1.868876311       5.526202836       
                  1.868876311       5.526202836       -0.0715068417     0.06534718623     
935008010         0.1456841994      0.123606541       3.949248345       -4.232147703      
                  3.949248345       -4.232147703      0.1021823087      0.03898907889     
1020007920        0.07569605929     -0.1544230815     -5.592164398      -1.449472889      
                  -5.592164398      -1.449472889      -0.004789047312   -0.07557324227    
1105007830        -0.2255415591     -0.008323225663   1.475425933       5.621184198       
                  1.475425933       5.621184198       -0.06291498742    0.07493376093     
1190007740        0.07176673564     0.1407627032      4.197159433       -3.862392627      
                  4.197159433       -3.862392627      0.1242798846      -0.04235349177    
1275007650        0.1644557885      -0.1088161453     -5.47007191       -1.834457944      
                  -5.47007191       -1.834457944      -0.03012271155    -0.08911268589    
1360007560        -0.1637219994     -0.1008350271     1.047648446       5.6447462         
                  1.047648446       5.6447462         -0.005210674428   0.1017904908      
1445007470        0.0007896524896   0.1421008275      4.413276984       -3.543382837      
                  4.413276984       -3.543382837      0.1470248488      -0.0883381545     
1530007380        0.1847837421      -0.01137020451    -5.309405588      -2.189864441      
                  -5.309405588      -2.189864441      -0.06935262694    -0.06447525709    
1615007290        -0.09439879276    -0.1243907858     0.617028015       5.606564659       
                  0.617028015       5.606564659       0.02317831319     0.1422139387      
1700007200        -0.08879012522    0.097671169       4.67307824        -3.244078919      
                  4.67307824        -3.244078919      0.1108900333      -0.1334695937     
1785007110        0.1284996135      0.03171473793     -5.066396514      -2.530502749      
                  -5.066396514      -2.530502749      -0.1319248928     -0.06383336099    
1870007020        -0.02160112417    -0.1363161365     0.2235725639      5.609985313       
                  0.2235725639      5.609985313       0.06581792819     0.1321025506      
1955006930        -0.107201964      0.02164604301     4.879386798       -2.889077255      
                  4.879386798       -2.889077255      0.08925173753     -0.1938007122     
2040006840        0.08318754807     0.03926990209     -4.829605701      -2.816255117      
                  -4.829605701      -2.816255117      -0.1546295738     -0.04160636943    
2125006750        0.03629909659     -0.09334593381    -0.1943385793     5.64126897        
                  -0.1943385793     5.64126897        0.1311169832      0.1368499466      
2210006660        -0.09252928189    -0.0006213986037  4.975690654       -2.535616873      
                  4.975690654       -2.535616873      0.04780165671     -0.2177133097     
2295006570        0.02968713908     0.03693844408     -4.597730183      -3.147794175      
                  -4.597730183      -3.147794175      -0.1860330549     0.0152354798      
2380006480        0.02908710492     -0.05291959645    -0.5583377473     5.577709074       
                  -0.5583377473     5.577709074       0.1669011064      0.114098387       
2465006390        -0.08854666369    -0.01645514538    5.055383214       -2.215643797      
                  5.055383214       -2.215643797      -0.01949484775    -0.2595101039     
2550006300        0.01161276134     0.001551332865    -4.29007802       -3.485234646      
                  -4.29007802       -3.485234646      -0.1909109496     0.06069873418     
2635006210        0.02579199276     -0.04503802776    -0.8965600159     5.519309665       
                  -0.8965600159     5.519309665       0.2135307563      0.06400086406     
2720006120        -0.08283286126    -0.01107498974    5.129864756       -1.844766491      
                  5.129864756       -1.844766491      -0.09034982507    -0.2644871094     
2805006030        0.01745594844     0.0002561143589   -4.00552081       -3.732932993      
                  -4.00552081       -3.732932993      -0.1630582062     0.1234181825      
2890005940        0.02173760337     -0.03663693269    -1.237339621      5.394627629       
                  -1.237339621      5.394627629       0.2321330183      0.009064933756    
2975005850        -0.09530904877    -0.008471513843   5.162474014       -1.387727098      
                  5.162474014       -1.387727098      -0.1624396156     -0.2473624809     
3060005760        0.01828676351     0.01024149619     -3.705647126      -4.075433244      
                  -3.705647126      -4.075433244      -0.1189237943     0.1687306728      
3145005670        0.03653731306     -0.04460243771    -1.634694638      5.242693052       
                  -1.634694638      5.242693052       0.2319144747      -0.07151026365    
3230005580        -0.1018005881     -0.03336682       5.271426541       -0.9830285249     
                  5.271426541       -0.9830285249     -0.2269210963     -0.2078087982     
3315005490        0.01156117896     0.03203148672     -3.432021451      -4.303250119      
                  -3.432021451      -4.303250119      -0.0458947514     0.2025302281      
3400005400        0.06150313696     -0.02920032773    -1.988537695      5.075003976       
                  -1.988537695      5.075003976       0.2013503066      -0.1449267964     
3485005310        -0.0979826493     -0.06385825336    5.371248744       -0.616343864      
                  5.371248744       -0.616343864      -0.2820158261     -0.1295014733     
3570005220        -0.02028069212    0.04922225569     -3.250594299      -4.492920369      
                  -3.250594299      -4.492920369      0.03304298528     0.2110296906      
3655005130        0.06919064943     0.003781931667    -2.186803658      4.942220854       
                  -2.186803658      4.942220854       0.1345441576      -0.2086964917     
3740005040        -0.07688279625    -0.09302511925    5.360272632       -0.2602660022     
                  5.360272632       -0.2602660022     -0.3119569555     -0.03959718136    
3825004950        -0.05884430878    0.03727168566     -2.97807419       -4.627707505      
                  -2.97807419       -4.627707505      0.1129127513      0.1762918905      
3910004860        0.06384967822     0.03744964763     -2.606911995      4.719325824       
                  -2.606911995      4.719325824       0.05017166305     -0.258871265      
3995004770        -0.0308488223     -0.1112781551     5.394065127       0.0619038513      
                  5.394065127       0.0619038513      -0.3050563739     0.06518586432     
4080004680        -0.08508207736    0.007878844827    -2.704231793      -4.799270126      
                  -2.704231793      -4.799270126      0.190568897       0.1280694325      
4165004590        0.03963109639     0.07053954578     -2.871041067      4.581248649       
                  -2.871041067      4.581248649       -0.04650683655    -0.2718496196     
4250004500        0.01156036615     -0.08833741825    5.482261084       0.3100597646      
                  5.482261084       0.3100597646      -0.2656190491     0.1756131003      
4335004410        -0.1018404862     -0.01972255285    -2.446963089      -4.909580792      
                  -2.446963089      -4.909580792      0.229528707       0.04456725717     
4420004320        -0.007399446516   0.08403301756     -3.073657589      4.466862301       
                  -3.073657589      4.466862301       -0.1640030959     -0.2506683351     
4505004230        0.0384050233      -0.05700639992    5.431499685       0.4915566307      
                  5.431499685       0.4915566307      -0.1964842819     0.25895613        
4590004140        -0.1002361076     -0.05204503833    -2.181230502      -4.944790612      
                  -2.181230502      -4.944790612      0.2293713603      -0.05752130915    
4675004050        -0.0447547101     0.07060305109     -3.171481386      4.349415997       
                  -3.171481386      4.349415997       -0.2554272907     -0.1913656625     
4760003960        0.0576394315      -0.01632615973    5.281946344       0.7246230432      
                  5.281946344       0.7246230432      -0.08635511874    0.3110333475      
4845003870        -0.07662787254    -0.06845788481    -1.932812958      -4.995192938      
                  -1.932812958      -4.995192938      0.2001612154      -0.1548536043     
4930003780        -0.07664521525    0.04088714266     -3.353322287      4.165836582       
                  -3.353322287      4.165836582       -0.3194705993     -0.09967448534    
5015003690        0.05013975562     0.03752383885     5.154223233       0.9646297217      
                  5.154223233       0.9646297217      0.03544983191     0.334393086       
5100003600        -0.05190306781    -0.05673026183    -1.759198714      -5.066906929      
                  -1.759198714      -5.066906929      0.1195414666      -0.2290941023     
5185003510        -0.09109358022    0.004079097409    -3.408286832      3.943384511       
                  -3.408286832      3.943384511       -0.3493259903     0.01154933947     
5270003420        0.01499426954     0.07165425773     5.018407995       1.198210733       
                  5.018407995       1.198210733       0.1496971094      0.2996523869      
5355003330        -0.04225581672    -0.02278837288    -1.645606281      -5.127194833      
                  -1.645606281      -5.127194833      -0.002502809743   -0.2789969772     
5440003240        -0.07199133928    -0.03909355834    -3.354231536      3.777398384       
                  -3.354231536      3.777398384       -0.3193210964     0.13206417        
5525003150        -0.01807782198    0.06109256496     5.001860708       1.311939126       
                  5.001860708       1.311939126       0.2689277873      0.2013817274      
5610003060        -0.03851085315    0.02708519398     -1.587935411      -4.967787509      
                  -1.587935411      -4.967787509      -0.1367969714     -0.2676409416     
5695002970        -0.01408902906    -0.04315242965    -3.354762548      3.559390704       
                  -3.354762548      3.559390704       -0.2208768679     0.2528086001      
5780002880        -0.02588589973    0.02428021522     4.953340639       1.406011569       
                  4.953340639       1.406011569       0.3293396893      0.05775124381     
5865002790        -0.07635543635    0.07553952172     -1.480326754      -4.710109229      
                  -1.480326754      -4.710109229      -0.2727897639     -0.1852748446     
5950002700        0.03587822485     0.00499805811     -3.388554371      3.351926455       
                  -3.388554371      3.351926455       -0.08272535934    0.3330795732      
6035002610        -0.01873445032    -0.03819634547    4.738804057       1.302758416       
                  4.738804057       1.302758416       0.2984816915      -0.09744873325    
6120002520        -0.1440061904     0.07324039746     -1.370947173      -4.451340596      
                  -1.370947173      -4.451340596      -0.3585420196     -0.04540742598    
6205002430        0.07063159581     0.0878948877      -3.277177832      3.14573636        
                  -3.277177832      3.14573636        0.1018382367      0.3375156531      
6290002340        0.05998064892     -0.09022489363    4.51415837        1.165280684       
                  4.51415837        1.165280684       0.1949622634      -0.2478235384     
6375002250        -0.2145708648     0.00859742176     -1.272170153      -4.156872998      
                  -1.272170153      -4.156872998      -0.376131479      0.130000647       
6460002160        0.0292565534      0.2055648181      -3.032359728      2.947177434       
                  -3.032359728      2.947177434       0.2708599736      0.2722430292      
6545002070        0.1756312127      -0.05950657967    4.111238511       1.06859156        
                  4.111238511       1.06859156        0.02863503577     -0.3198977017     
6630001980        -0.2064144588     -0.1104804666     -1.127764596      -3.8506687        
                  -1.127764596      -3.8506687        -0.2984467227     0.3022421292      
6715001890        -0.07155322938    0.2739112616      -2.730481811      2.629909          
                  -2.730481811      2.629909          0.3839075816      0.1560477777      
6800001800        0.2652379142      0.05531098279     3.625725225       1.125548967       
                  3.625725225       1.125548967       -0.1313770746     -0.3088824782     
6885001710        -0.1027851709     -0.2401443396     -0.8158648915     -3.502957961      
                  -0.8158648915     -3.502957961      -0.1877960168     0.3879880833      
6970001620        -0.2091905639     0.2329637928      -2.64121405       2.222723483       
                  -2.64121405       2.222723483       0.4233315573      0.02342626845     
7055001530        0.2625589814      0.2077412554      3.22159792        1.244390806       
                  3.22159792        1.244390806       -0.2569169668     -0.2712930812     
7140001440        0.08183435998     -0.2991311786     -0.5388642603     -3.228968962      
                  -0.5388642603     -3.228968962      -0.06366794122    0.4538641813      
7225001350        -0.296402316      0.09580125667     -2.579875301      1.896105642       
                  -2.579875301      1.896105642       0.4524489004      -0.1034420341     
7310001260        0.1695990511      0.3469395156      2.864623299       1.163440677       
                  2.864623299       1.163440677       -0.3585888329     -0.1851088625     
7395001170        0.285087876       -0.2271308081     -0.2440542782     -2.965776154      
                  -0.2440542782     -2.965776154      0.07748591138     0.4817896508      
7480001080        -0.2986066229     -0.1109343707     -2.4164145        1.610284975       
                  -2.4164145        1.610284975       0.3951017344      -0.2373396913     
7565000990        -0.03137073548    0.3995652231      2.615444883       1.165934706       
                  2.615444883       1.165934706       -0.4247491504     -0.08413000322    
7650000900        0.4008180327      -0.05645794464    -0.05252394461    -2.610105631      
                  -0.05252394461    -2.610105631      0.2127981076      0.4387408526      
7735000810        -0.1607579218     -0.3068536453     -2.297899388      1.345502609       
                  -2.297899388      1.345502609       0.3176313547      -0.346378609      
7820000720        -0.2071119952     0.3171878346      2.276551765       1.242454805       
                  2.276551765       1.242454805       -0.4059116645     0.02413233787     
7905000630        0.4141604273      0.139057185       0.09790205122     -2.300145854      
                  0.09790205122     -2.300145854      0.3251040462      0.3623231456      
7990000540        0.06636367        -0.3903907275     -2.215770247      0.9245883844      
                  -2.215770247      0.9245883844      0.220601474       -0.4070804003     
8075000450        -0.3507205334     0.1199152407      1.906732684       1.434235635       
                  1.906732684       1.434235635       -0.3879532409     0.1188911742      
8160000360        0.2972277832      0.3135413699      0.2528852701      -2.190416236      
                  0.2528852701      -2.190416236      0.3994685164      0.2802013718      
8245000270        0.2578301975      -0.3368976107     -2.040462997      0.6140861741      
                  -2.040462997      0.6140861741      0.1142828907      -0.4443070613     
8330000180        -0.3667221834     -0.1324003606     1.636647859       1.501496224       
                  1.636647859       1.501496224       -0.3432162386     0.1936804083      
8415000090        0.0782668948      0.3930001783      0.3852381334      -1.997056122      
                  0.3852381334      -1.997056122      0.4359209466      0.166715294       
8500000000        0.3829384606      -0.1858910719     -1.832201582      0.4457215954      
                  -1.832201582      0.4457215954      -0.004385467049   -0.4605228265     
