! RsaToolbox (C) 2013 Rohde & Schwarz America
! 
! Number of points: 101
! Number of ports: 2
! Balanced ports?: 0
! 
! 
# Hz S RI R 50
9000              0.9748017013      -0.006024815088   7.098137771e-05   -1.559109425e-05  
                  7.098137771e-05   -1.559109425e-05  0.990124772       -0.01529486884    
85008910          -0.1036173205     -0.1227926805     1.754317897       2.760072011       
                  1.754317897       2.760072011       -0.09242789907    -0.1173893029     
170008820         -0.03850403206    0.1323808869      1.640628066       -3.117785313      
                  1.640628066       -3.117785313      -0.0214391358     0.1720460005      
255008730         0.05267363899     0.006595643764    -3.507215703      0.2164502769      
                  -3.507215703      0.2164502769      0.07803756294     -0.0267882512     
340008640         -0.06705657884    -0.05448523645    1.888384996       3.040948678       
                  1.888384996       3.040948678       -0.12729319       -0.05466813574    
425008550         -0.04689825186    0.04263179083     1.674721138       -3.103536596      
                  1.674721138       -3.103536596      0.01612979863     0.1031022638      
510008460         0.05488426387     -0.009945161661   -3.55128189       0.03132007904     
                  -3.55128189       0.03132007904     0.07115677418     -0.08023682589    
595008370         -0.01394632395    -0.05915509981    1.770711981       3.196092138       
                  1.770711981       3.196092138       -0.0845090755     -0.01251773829    
680008280         -0.01034373091    0.04504892095     1.806636365       -3.018238355      
                  1.806636365       -3.018238355      0.09221373398     0.07601521971     
765008190         0.05739895252     0.06441749393     -3.640442523      -0.1383984154     
                  -3.640442523      -0.1383984154     0.06055105804     -0.06112459634    
850008100         -0.02777426427    -0.03784408319    1.622922142       3.156429464       
                  1.622922142       3.156429464       -0.0724457747     0.06499403121     
935008010         -0.04398855277    0.006281084286    1.971058594       -3.042883968      
                  1.971058594       -3.042883968      0.1024414616      0.03900389664     
1020007920        0.001317868422    0.08147317776     -3.630163733      -0.1895152225     
                  -3.630163733      -0.1895152225     -0.005100666715   -0.07663997768    
1105007830        -0.02370042347    -0.06792499586    1.511347614       3.153789719       
                  1.511347614       3.153789719       -0.06392047766    0.07539025841     
1190007740        -0.02373862596    -0.1181227366     2.049871606       -2.991274031      
                  2.049871606       -2.991274031      0.1246243084      -0.04234402502    
1275007650        0.01654337173     0.069076284       -3.572557091      -0.3867380686     
                  -3.572557091      -0.3867380686     -0.03061570678    -0.0896282585     
1360007560        0.05763895483     -0.02048939637    1.416448604       3.26918836        
                  1.416448604       3.26918836        -0.006115967217   0.1024641355      
1445007470        0.04361349729     -0.1438569541     2.136153318       -2.926478087      
                  2.136153318       -2.926478087      0.1477044667      -0.08832213321    
1530007380        -0.05539026503    0.07280937955     -3.425821615      -0.4355945301     
                  -3.425821615      -0.4355945301     -0.07012702918    -0.06516162449    
1615007290        0.07905866362     0.1179591843      1.368942006       3.173885929       
                  1.368942006       3.173885929       0.0226573406      0.1429545843      
1700007200        0.08035362896     -0.147911243      2.035914098       -2.761196905      
                  2.035914098       -2.761196905      0.111321191       -0.1339520743     
1785007110        -0.1697651505     -0.04823668392    -3.408237877      -0.4682267055     
                  -3.408237877      -0.4682267055     -0.1331528682     -0.06468100608    
1870007020        0.007066925168    0.1820218532      1.304006329       3.182782453       
                  1.304006329       3.182782453       0.0653777889      0.1329784336      
1955006930        0.1760892664      -0.1152886327     2.080289038       -2.71622573       
                  2.080289038       -2.71622573       0.0896903868      -0.1947754034     
2040006840        -0.1549156795     -0.1990134371     -3.412567415      -0.5474237794     
                  -3.412567415      -0.5474237794     -0.1560840438     -0.04201873623    
2125006750        -0.1004819032     0.2099462164      1.241046856       3.175583078       
                  1.241046856       3.175583078       0.1311600806      0.1375991272      
2210006660        0.2599536965      0.009811762079    2.065376705       -2.579409404      
                  2.065376705       -2.579409404      0.04822531108     -0.2193495194     
2295006570        -0.07891613554    -0.3011757391     -3.244136554      -0.587137862      
                  -3.244136554      -0.587137862      -0.1873478152     0.01495236251     
2380006480        -0.2407293449     0.1583175676      1.077808447       3.154908387       
                  1.077808447       3.154908387       0.1674015032      0.1141778396      
2465006390        0.2397861378      0.1618158368      2.066676409       -2.408733329      
                  2.066676409       -2.408733329      -0.01964835197    -0.2611662461     
2550006300        0.0694607673      -0.3462175566     -3.151537802      -0.7966078947     
                  -3.151537802      -0.7966078947     -0.1919295056     0.06072454691     
2635006210        -0.3130029995     0.02371720346     0.8656849892      3.112294017       
                  0.8656849892      3.112294017       0.2144090245      0.06389458871     
2720006120        0.1300754837      0.2959447435      2.182959627       -2.219752215      
                  2.182959627       -2.219752215      -0.09074886385    -0.2663817359     
2805006030        0.2230869869      -0.2892801944     -2.963174403      -0.8991701159     
                  -2.963174403      -0.8991701159     -0.1637418233     0.1230425573      
2890005940        -0.3158682646     -0.1343859587     0.6677619147      3.014104151       
                  0.6677619147      3.014104151       0.2335549261      0.00833794586     
2975005850        -0.04753873357    0.3593715542      2.292294872       -1.893916015      
                  2.292294872       -1.893916015      -0.1623793714     -0.2498631161     
3060005760        0.3253986194      -0.1414019417     -2.855441172      -1.205781167      
                  -2.855441172      -1.205781167      -0.1191999529     0.168588989       
3145005670        -0.2237591406     -0.2801414325     0.3523130179      3.006634247       
                  0.3523130179      3.006634247       0.2334185764      -0.07236339485    
3230005580        -0.2207039914     0.2935954         2.538122339       -1.625009699      
                  2.538122339       -1.625009699      -0.2269882077     -0.2094058847     
3315005490        0.3548758334      0.02843543524     -2.642968748      -1.343883894      
                  -2.642968748      -1.343883894      -0.0456272583     0.203131738       
3400005400        -0.07231679674    -0.3540272358     0.0606664274      2.936249828       
                  0.0606664274      2.936249828       0.2035479794      -0.1455574909     
3485005310        -0.345480852      0.1726024137      2.584033366       -1.375758032      
                  2.584033366       -1.375758032      -0.2819454759     -0.130859163      
3570005220        0.2976065677      0.1943694793      -2.446841051      -1.461710895      
                  -2.446841051      -1.461710895      0.03428045823     0.2121723094      
3655005130        0.08249083246     -0.3506082739     -0.1135003194     2.783711073       
                  -0.1135003194     2.783711073       0.1369282245      -0.2084828574     
3740005040        -0.3966049596     0.01297428783     2.517736929       -1.136582077      
                  2.517736929       -1.136582077      -0.3116229234     -0.04018048985    
3825004950        0.1644206122      0.3069772173      -2.19549916       -1.56644473       
                  -2.19549916       -1.56644473       0.1148799116      0.1791088224      
3910004860        0.2366549906      -0.2731203856     -0.359364762      2.651455895       
                  -0.359364762      2.651455895       0.05378409069     -0.2584121617     
3995004770        -0.3672900673     -0.157135451      2.463963339       -0.9048133563     
                  2.463963339       -0.9048133563     -0.305818228      0.06609297265     
4080004680        -0.007746821753   0.3494871283      -1.990593113      -1.708696014      
                  -1.990593113      -1.708696014      0.1942775883      0.1287468266      
4165004590        0.325488109       -0.133078515      -0.5751421828     2.597958058       
                  -0.5751421828     2.597958058       -0.04635642217    -0.2759049421     
4250004500        -0.2698647602     -0.2761539389     2.506449551       -0.69255423       
                  2.506449551       -0.69255423       -0.2646399265     0.1770417325      
4335004410        -0.1819825864     0.316056922       -1.806265038      -1.813067281      
                  -1.806265038      -1.813067281      0.2327142821      0.04481877215     
4420004320        0.3295800502      0.03125092442     -0.769188875      2.523026374       
                  -0.769188875      2.523026374       -0.1638660325     -0.2523319323     
4505004230        -0.1301029223     -0.3435325081     2.492929305       -0.5286228755     
                  2.492929305       -0.5286228755     -0.1972658826     0.2602090662      
4590004140        -0.3092013047     0.2076652096      -1.61576376       -1.88634445       
                  -1.61576376       -1.88634445       0.2310506212      -0.05720814157    
4675004050        0.2719321646      0.1695825278      -0.8766613166     2.360350918       
                  -0.8766613166     2.360350918       -0.2563277851     -0.1923853028     
4760003960        0.03085554246     -0.3464422106     2.406955343       -0.3419852009     
                  2.406955343       -0.3419852009     -0.08770189173    0.312300978       
4845003870        -0.3662608328     0.06778523808     -1.411520158      -1.930751008      
                  -1.411520158      -1.930751008      0.2013507868      -0.1549841237     
4930003780        0.1486237311      0.2700084291      -1.048818189      2.219633786       
                  -1.048818189      2.219633786       -0.3214412275     -0.1006403564     
5015003690        0.1677603878      -0.2717719864     2.344561063       -0.1418403305     
                  2.344561063       -0.1418403305     0.03536076547     0.3367453726      
5100003600        -0.3611135587     -0.06965374046    -1.247756906      -1.944210263      
                  -1.247756906      -1.944210263      0.1200302815      -0.2300906418     
5185003510        0.005090630272    0.3067369416      -1.160938634      2.032755513       
                  -1.160938634      2.032755513       -0.3518741662     0.0106328777      
5270003420        0.2496503116      -0.1438455577     2.328987294       0.08611826392     
                  2.328987294       0.08611826392     0.1489063461      0.3019557191      
5355003330        -0.3036466371     -0.1749445311     -1.111950393      -1.959908549      
                  -1.111950393      -1.959908549      -0.00163092246    -0.2808633147     
5440003240        -0.1136599004     0.2726242899      -1.236517275      1.928183175       
                  -1.236517275      1.928183175       -0.3218275619     0.1314377398      
5525003150        0.2717809922      -0.01972005937    2.293915926       0.2045745022      
                  2.293915926       0.2045745022      0.2692427229      0.2033943555      
5610003060        -0.1991274737     -0.2227156856     -1.035597357      -1.976727757      
                  -1.035597357      -1.976727757      -0.1358139327     -0.2697468547     
5695002970        -0.182245427      0.211670966       -1.28857567       1.791308666       
                  -1.28857567       1.791308666       -0.2232626405     0.2527211865      
5780002880        0.2524863985      0.08825532304     2.232992031       0.3094772101      
                  2.232992031       0.3094772101      0.3306423491      0.06034042708     
5865002790        -0.1092686744     -0.2251938835     -0.8867348984     -1.928739081      
                  -0.8867348984     -1.928739081      -0.2711550202     -0.1875101092     
5950002700        -0.2160980057     0.1545320713      -1.328560054      1.654434276       
                  -1.328560054      1.654434276       -0.08444063989    0.3344917824      
6035002610        0.1940542144      0.1454470731      2.10830135        0.3603421665      
                  2.10830135        0.3603421665      0.3012360527      -0.09480464829    
6120002520        -0.03682091924    -0.2053169553     -0.7668149324     -1.905176993      
                  -0.7668149324     -1.905176993      -0.3577539655     -0.04746611624    
6205002430        -0.2132912806     0.1065079695      -1.336796071      1.562472274       
                  -1.336796071      1.562472274       0.1023569728      0.3401611482      
6290002340        0.1633117129      0.1698870241      2.009741811       0.390541106       
                  2.009741811       0.390541106       0.1988828209      -0.2473351549     
6375002250        -0.00154122322    -0.1968306753     -0.667859844      -1.864462274      
                  -0.667859844      -1.864462274      -0.3765262131     0.1276355251      
6460002160        -0.2254729662     0.1008943966      -1.316087287      1.474697386       
                  -1.316087287      1.474697386       0.2715513018      0.2741472744      
6545002070        0.1549096035      0.2119015782      1.889652617       0.4127864381      
                  1.889652617       0.4127864381      0.03103417126     -0.3211496019     
6630001980        0.06514447735     -0.2022787676     -0.56283351       -1.777716204      
                  -0.56283351       -1.777716204      -0.3002802211     0.3022388841      
6715001890        -0.2526170501     0.078035499       -1.25393233       1.316519407       
                  -1.25393233       1.316519407       0.3845480907      0.1581953166      
6800001800        0.1383326191      0.2790420667      1.722887729       0.4729745378      
                  1.722887729       0.4729745378      -0.1305292142     -0.3096681272     
6885001710        0.1647240218      -0.2044109753     -0.4070065501     -1.684210777      
                  -0.4070065501     -1.684210777      -0.1897578012     0.3890225         
6970001620        -0.2853813379     -0.01164042167    -1.291054711      1.136794383       
                  -1.291054711      1.136794383       0.4242317168      0.02564097561     
7055001530        0.07120128937     0.3460428779      1.624948615       0.5658301237      
                  1.624948615       0.5658301237      -0.2573519319     -0.2723425462     
7140001440        0.2789739921      -0.1643695652     -0.296748402      -1.672896699      
                  -0.296748402      -1.672896699      -0.06510023208    0.4552182065      
7225001350        -0.2660605932     -0.139208229      -1.33231048       1.010703073       
                  -1.33231048       1.010703073       0.4535693911      -0.1017986592     
7310001260        -0.03560870382    0.3842066518      1.538594512       0.5804946106      
                  1.538594512       0.5804946106      -0.3596861651     -0.1860130999     
7395001170        0.387143257       -0.0392596955     -0.1522183983     -1.594784722      
                  -0.1522183983     -1.594784722      0.07573091664     0.4832741379      
7480001080        -0.1728092734     -0.2927630019     -1.299688944      0.868134601       
                  -1.299688944      0.868134601       0.3956643137      -0.2366056076     
7565000990        -0.2262301287     0.3461180966      1.415199054       0.6265355544      
                  1.415199054       0.6265355544      -0.4268381623     -0.08586995139    
7650000900        0.4136055066      0.1305474401      -0.05275695749    -1.494660945      
                  -0.05275695749    -1.494660945      0.2115424673      0.4405250877      
7735000810        0.006158703883    -0.3918769981     -1.331421811      0.765041837       
                  -1.331421811      0.765041837       0.3182966428      -0.3470382264     
7820000720        -0.3461525992     0.2021759579      1.318963803       0.7322290834      
                  1.318963803       0.7322290834      -0.408406078      0.02363531806     
7905000630        0.3568499959      0.2892439509      0.05128893984     -1.398675558      
                  0.05128893984     -1.398675558      0.3238909514      0.3642071535      
7990000540        0.2294585008      -0.3931186573     -1.335374086      0.5300507351      
                  -1.335374086      0.5300507351      0.222341053       -0.4091835111     
8075000450        -0.4179976382     -0.03411276486    1.136112519       0.9014762415      
                  1.136112519       0.9014762415      -0.3904422581     0.1181850523      
8160000360        0.1865730588      0.4258841142      0.1711010612      -1.339609044      
                  0.1711010612      -1.339609044      0.4000669159      0.2808531124      
8245000270        0.3862737325      -0.2793318012     -1.288324506      0.3855985016      
                  -1.288324506      0.3855985016      0.1150367869      -0.4458864659     
8330000180        -0.35534115       -0.2793349321     1.013357997       0.9562050521      
                  1.013357997       0.9562050521      -0.3442460021     0.193076886       
8415000090        -0.0534234855     0.4386013975      0.2593780804      -1.277189715      
                  0.2593780804      -1.277189715      0.4375121344      0.1676758934      
8500000000        0.4649088358      -0.09443893267    -1.21198857       0.3030987625      
                  -1.21198857       0.3030987625      -0.003318449293   -0.4630854276     
