! RsaToolbox (C) 2013 Rohde & Schwarz America
! 
! Number of points: 101
! Number of ports: 2
! Balanced ports?: 0
! 
! 
# Hz S RI R 50
9000              1.008733033       -0.01757125794    0.0001135179705   -4.42156188e-05   
                  0.0001135179705   -4.42156188e-05   1.017322942       -0.02493149611    
85008910          0.002063050926    0.1583627057      3.193169013       5.499372713       
                  3.193169013       5.499372713       -0.09213186504    -0.1157317073     
170008820         0.1418404203      -0.04372772945    3.182300405       -5.222497614      
                  3.182300405       -5.222497614      -0.02041334751    0.1717378181      
255008730         -0.1756459823     -0.0756198997     -6.055372162      -0.1616880215     
                  -6.055372162      -0.1616880215     0.07760311116     -0.02656531052    
340008640         -0.06347640786    0.1691839812      2.654649638       5.348724442       
                  2.654649638       5.348724442       -0.1266635911     -0.05375903658    
425008550         0.1588331407      -0.04619153208    3.382150204       -4.869461015      
                  3.382150204       -4.869461015      0.01669609555     0.1028035059      
510008460         -0.1014086297     -0.162917928      -5.903470703      -0.6360745399     
                  -5.903470703      -0.6360745399     0.07089813503     -0.07948604601    
595008370         -0.1071066171     0.1392821945      2.232964075       5.420838615       
                  2.232964075       5.420838615       -0.08372317296    -0.01220381601    
680008280         0.2037741335      0.03388254482     3.656109082       -4.577182928      
                  3.656109082       -4.577182928      0.09209491169     0.07529725682     
765008190         0.009580606817    -0.1631337637     -5.72987506       -1.095882357      
                  -5.72987506       -1.095882357      0.06028116966     -0.06058619224    
850008100         -0.1814422596     0.1111880715      1.877015002       5.518187448       
                  1.877015002       5.518187448       -0.07165442955    0.06507477896     
935008010         0.1451370503      0.1232276177      3.939258776       -4.233155076      
                  3.939258776       -4.233155076      0.1020762409      0.03899058008     
1020007920        0.07533498418     -0.1534605096     -5.586841438      -1.441440645      
                  -5.586841438      -1.441440645      -0.004858155066   -0.07556554652    
1105007830        -0.2247733422     -0.008347370602   1.486720684       5.611359695       
                  1.486720684       5.611359695       -0.06300390448    0.07516611289     
1190007740        0.07102889646     0.1397824459      4.187445037       -3.860522423      
                  4.187445037       -3.860522423      0.1242327893      -0.04260516652    
1275007650        0.1639177414      -0.108210173      -5.465989574      -1.820639096      
                  -5.465989574      -1.820639096      -0.02996725983    -0.0891608433     
1360007560        -0.1629466041     -0.1003506738     1.051788451       5.636501172       
                  1.051788451       5.636501172       -0.005434363263   0.1018587157      
1445007470        0.0005552689185   0.1413078264      4.402079861       -3.545066619      
                  4.402079861       -3.545066619      0.147122486       -0.08854257682    
1530007380        0.1839145054      -0.01112840646    -5.305052799      -2.176886232      
                  -5.305052799      -2.176886232      -0.06921852507    -0.06466985978    
1615007290        -0.09372878916    -0.123348819      0.6291653421      5.594490179       
                  0.6291653421      5.594490179       0.02324028266     0.142107575       
1700007200        -0.08806944571    0.09652455172     4.656896016       -3.24774147       
                  4.656896016       -3.24774147       0.1109675523      -0.1334975071     
1785007110        0.1272730764      0.03151627344     -5.062457031      -2.516232988      
                  -5.062457031      -2.516232988      -0.131805552      -0.06394917207    
1870007020        -0.02160659185    -0.1351688542     0.234603233       5.599307333       
                  0.234603233       5.599307333       0.0656727563      0.1319885366      
1955006930        -0.1061296192     0.02095647677     4.864235822       -2.893628465      
                  4.864235822       -2.893628465      0.08919476304     -0.193932769      
2040006840        0.08201368611     0.03829474668     -4.825521647      -2.800163811      
                  -4.825521647      -2.800163811      -0.1547950218     -0.0416915879     
2125006750        0.03590500248     -0.09192951879    -0.1810848007     5.627872856       
                  -0.1810848007     5.627872856       0.1310780599      0.1368630396      
2210006660        -0.0911954546     -0.0009453289779  4.958639106       -2.539007385      
                  4.958639106       -2.539007385      0.04808113777     -0.2181233538     
2295006570        0.02903437995     0.03551825254     -4.59244757       -3.128762277      
                  -4.59244757       -3.128762277      -0.1861119447     0.01530041786     
2380006480        0.0280474775      -0.05192121932    -0.5453884929     5.563425555       
                  -0.5453884929     5.563425555       0.1668836321      0.1139865813      
2465006390        -0.0867630265     -0.01582204947    5.036314815       -2.220486933      
                  5.036314815       -2.220486933      -0.01969185755    -0.2594863301     
2550006300        0.01171108359     -0.0002330015066  -4.285827397      -3.465679433      
                  -4.285827397      -3.465679433      -0.1909071278     0.06070003705     
2635006210        0.02419384817     -0.04456053557    -0.8790556639     5.505776418       
                  -0.8790556639     5.505776418       0.2135858424      0.06415615525     
2720006120        -0.08168727582    -0.009607118519   5.109372436       -1.850264781      
                  5.109372436       -1.850264781      -0.09053065038    -0.2646787353     
2805006030        0.01833206398     -0.001191939141   -3.999579052      -3.711784653      
                  -3.999579052      -3.711784653      -0.1631020762     0.1234221053      
2890005940        0.01980714497     -0.0371908053     -1.217116433      5.378855801       
                  -1.217116433      5.378855801       0.2320862373      0.008937259844    
2975005850        -0.09459392145    -0.006657620589   5.140652352       -1.392620136      
                  5.140652352       -1.392620136      -0.1622921552     -0.2477213605     
3060005760        0.01979021499     0.00903930448     -3.700445371      -4.053326915      
                  -3.700445371      -4.053326915      -0.1190154402     0.1687192103      
3145005670        0.03487342257     -0.04569383053    -1.612273474      5.223693472       
                  -1.612273474      5.223693472       0.2317934754      -0.07136391972    
3230005580        -0.1020732867     -0.03154224794    5.247415023       -0.9899893284     
                  5.247415023       -0.9899893284     -0.2268789345     -0.2080823589     
3315005490        0.01313063146     0.03174780791     -3.428946412      -4.275295138      
                  -3.428946412      -4.275295138      -0.04586570879    0.2028950217      
3400005400        0.06052731335     -0.03076887439    -1.964588023      5.057501252       
                  -1.964588023      5.057501252       0.2015359335      -0.1446900441     
3485005310        -0.09916259093    -0.06238390025    5.344751616       -0.6277059802     
                  5.344751616       -0.6277059802     -0.282097626      -0.1297331028     
3570005220        -0.01842082737    0.05023294862     -3.250743609      -4.461424579      
                  -3.250743609      -4.461424579      0.03348786477     0.210888044       
3655005130        0.06916764386     0.001660958318    -2.157022793      4.923821605       
                  -2.157022793      4.923821605       0.1347367272      -0.2086502784     
3740005040        -0.0793737988     -0.09291390469    5.333025554       -0.2762073897     
                  5.333025554       -0.2762073897     -0.311922005      -0.0396589711     
3825004950        -0.05759278049    0.03913308797     -2.982302694      -4.586695664      
                  -2.982302694      -4.586695664      0.1134941197      0.1760441775      
3910004860        0.06549490643     0.03558958575     -2.571560149      4.701757983       
                  -2.571560149      4.701757983       0.05056264219     -0.2588255363     
3995004770        -0.03325857785    -0.112055983      5.359033024       0.04032662574     
                  5.359033024       0.04032662574     -0.3053343824     0.06525964538     
4080004680        -0.08477918778    0.01078246361     -2.705068608      -4.757208346      
                  -2.705068608      -4.757208346      0.1906902677      0.1281973614      
4165004590        0.0422353956      0.06912747119     -2.839122015      4.559442097       
                  -2.839122015      4.559442097       -0.0463597429     -0.2717315247     
4250004500        0.009552064781    -0.09024184833    5.443675342       0.2876838188      
                  5.443675342       0.2876838188      -0.2658413792     0.1755606192      
4335004410        -0.1030472728     -0.01686680583    -2.448928338      -4.862100037      
                  -2.448928338      -4.862100037      0.229767908       0.04469593221     
4420004320        -0.0042141117     0.08389591295     -3.032525889      4.445002663       
                  -3.032525889      4.445002663       -0.1639382343     -0.2508550808     
4505004230        0.03717481867     -0.06033720286    5.387862508       0.4608141658      
                  5.387862508       0.4608141658      -0.1967561415     0.2590138058      
4590004140        -0.103023145      -0.04973311439    -2.185512933      -4.89160451       
                  -2.185512933      -4.89160451       0.2295444038      -0.05767193624    
4675004050        -0.04180401073    0.07262185633     -3.122307885      4.325026011       
                  -3.122307885      4.325026011       -0.2552894696     -0.1913785512     
4760003960        0.05785234076     -0.02001017958    5.235329652       0.691956866       
                  5.235329652       0.691956866       -0.0864796217     0.3111989255      
4845003870        -0.08065031531    -0.06794874747    -1.938752305      -4.935050125      
                  -1.938752305      -4.935050125      0.2004801796      -0.1549148279     
4930003780        -0.07447547308    0.04443356377     -3.296912861      4.139487764       
                  -3.296912861      4.139487764       -0.3195652733     -0.09973896452    
5015003690        0.05271787722     0.03399818541     5.106395261       0.9304222182      
                  5.106395261       0.9304222182      0.03552211466     0.3345740234      
5100003600        -0.05639525299    -0.05798890756    -1.768510067      -4.996513649      
                  -1.768510067      -4.996513649      0.1197363203      -0.2292893573     
5185003510        -0.09079937564    0.009058681405    -3.345936641      3.914409234       
                  -3.345936641      3.914409234       -0.3496505432     0.01132082295     
5270003420        0.01882046831     0.06917116304     4.966250159       1.157568076       
                  4.966250159       1.157568076       0.1497146944      0.2998363314      
5355003330        -0.045794838      -0.02655929804    -1.656736599      -5.045623772      
                  -1.656736599      -5.045623772      -0.002263239949   -0.2791712887     
5440003240        -0.07376264346    -0.03449816902    -3.292755715      3.746333652       
                  -3.292755715      3.746333652       -0.3196361115     0.1320712042      
5525003150        -0.01340901097    0.0608067533      4.944309587       1.27015705        
                  4.944309587       1.27015705        0.2691106612      0.2013810788      
5610003060        -0.0400807574     0.02210611018     -1.597256785      -4.886066614      
                  -1.597256785      -4.886066614      -0.1366565853     -0.2677308589     
5695002970        -0.01819457708    -0.03946106563    -3.290519226      3.527282686       
                  -3.290519226      3.527282686       -0.2213862721     0.2529052405      
5780002880        -0.02133264723    0.02619017119     4.887835392       1.358587099       
                  4.887835392       1.358587099       0.3295054724      0.05807942529     
5865002790        -0.07537516828    0.07035332574     -1.49189218       -4.627729265      
                  -1.49189218       -4.627729265      -0.2722154173     -0.1853759928     
5950002700        0.03072009386     0.006470766809    -3.322634449      3.319298539       
                  -3.322634449      3.319298539       -0.08278235497    0.3330559493      
6035002610        -0.01545211789    -0.03410201284    4.669986132       1.258242849       
                  4.669986132       1.258242849       0.2986412238      -0.09739651491    
6120002520        -0.1409690599     0.06909810424     -1.369367436      -4.377927809      
                  -1.369367436      -4.377927809      -0.3583811598     -0.04555852687    
6205002430        0.06576892208     0.08704138814     -3.21647397       3.114261689       
                  -3.21647397       3.114261689       0.1020347781      0.3377174719      
6290002340        0.06096909957     -0.08496635927    4.446144366       1.129281346       
                  4.446144366       1.129281346       0.1950791879      -0.2478743117     
6375002250        -0.210066632      0.00596415262     -1.26516867       -4.09592341       
                  -1.26516867       -4.09592341       -0.3762100987     0.1298437281      
6460002160        0.02563242745     0.2026669921      -2.984233899      2.916528151       
                  -2.984233899      2.916528151       0.2708650856      0.2723243307      
6545002070        0.1742961184      -0.05468253224    4.052750772       1.042244231       
                  4.052750772       1.042244231       0.02892237389     -0.3200052375     
6630001980        -0.2018131827     -0.110776832      -1.119109336      -3.799800096      
                  -1.119109336      -3.799800096      -0.2986087531     0.302245863       
6715001890        -0.07364879923    0.270595681       -2.694569404      2.602314233       
                  -2.694569404      2.602314233       0.3839488439      0.1561872174      
6800001800        0.2621727358      0.05848153063     3.581010201       1.107264281       
                  3.581010201       1.107264281       -0.1314067241     -0.3089457647     
6885001710        -0.09884958176    -0.238587846      -0.8085549426     -3.462192287      
                  -0.8085549426     -3.462192287      -0.1881734727     0.3882027429      
6970001620        -0.2094717158     0.2294368239      -2.612456074      2.200879186       
                  -2.612456074      2.200879186       0.4233777497      0.02347182242     
7055001530        0.2593368141      0.2086448424      3.190700166       1.229458565       
                  3.190700166       1.229458565       -0.2570095095     -0.2713973211     
7140001440        0.08367768729     -0.2968595997     -0.5328429929     -3.202511502      
                  -0.5328429929     -3.202511502      -0.0633439103     0.4539947669      
7225001350        -0.2952908595     0.09337558653     -2.559464534      1.880429539       
                  -2.559464534      1.880429539       0.4527694019      -0.1033835537     
7310001260        0.1670463231      0.3467959784      2.843165439       1.156112398       
                  2.843165439       1.156112398       -0.3586383033     -0.1852204705     
7395001170        0.2854777419      -0.2246172905     -0.2406428878     -2.945295051      
                  -0.2406428878     -2.945295051      0.07719373379     0.482051183       
7480001080        -0.2966109671     -0.1127568525     -2.398707906      1.596129313       
                  -2.398707906      1.596129313       0.3949022948      -0.2372749069     
7565000990        -0.03338694022    0.3983229072      2.595812562       1.159966015       
                  2.595812562       1.159966015       -0.4249551686     -0.08433020906    
7650000900        0.3999189634      -0.05457081123    -0.04940714871    -2.596205671      
                  -0.04940714871    -2.596205671      0.2127986114      0.4386880038      
7735000810        -0.1593682785     -0.3068363642     -2.28750972       1.335235586       
                  -2.28750972       1.335235586       0.3175531968      -0.3462234444     
7820000720        -0.2083634117     0.3155083573      2.263264218       1.239729084       
                  2.263264218       1.239729084       -0.4059534754     0.024906585       
7905000630        0.4131536699      0.1400641794      0.1011710347      -2.291456722      
                  0.1011710347      -2.291456722      0.3244904235      0.3625810219      
7990000540        0.06771534505     -0.3901627413     -2.207769665      0.9157415127      
                  -2.207769665      0.9157415127      0.2216738677      -0.4072254412     
8075000450        -0.350708952      0.1184155325      1.895083243       1.432482784       
                  1.895083243       1.432482784       -0.3880837959     0.1189393961      
8160000360        0.2959249487      0.3137437104      0.2561727918      -2.182428402      
                  0.2561727918      -2.182428402      0.3994127583      0.2801344926      
8245000270        0.2583189145      -0.3361235999     -2.035214913      0.6096225471      
                  -2.035214913      0.6096225471      0.1144327648      -0.4442486079     
8330000180        -0.3656789897     -0.133492873      1.628523537       1.498343543       
                  1.628523537       1.498343543       -0.3432606812     0.1935863427      
8415000090        0.07741898323     0.3928550851      0.387793488       -1.991345155      
                  0.387793488       -1.991345155      0.4357712269      0.1671322749      
8500000000        0.3835103502      -0.1845771225     -1.829150026      0.4418712476      
                  -1.829150026      0.4418712476      -0.004620511827   -0.460486961      
