! RsaToolbox (C) 2013 Rohde & Schwarz America
! 
! Number of points: 101
! Number of ports: 2
! Balanced ports?: 0
! 
! 
# Hz S RI R 50
9000              1.01270913        -0.0241874415     4.315402435e-05   -4.340619167e-05  
                  4.315402435e-05   -4.340619167e-05  1.02070858        -0.02497689839    
85008910          0.002728751419    0.1592091104      3.192943888       5.523242667       
                  3.192943888       5.523242667       -0.09223329858    -0.1156238767     
170008820         0.1424510124      -0.04464567922    3.197704375       -5.227603744      
                  3.197704375       -5.227603744      -0.02040236989    0.1719036974      
255008730         -0.1763345702     -0.07603920824    -6.063565764      -0.175648667      
                  -6.063565764      -0.175648667      0.07690322301     -0.02612226843    
340008640         -0.06317885538    0.1698824724      2.651541826       5.361416415       
                  2.651541826       5.361416415       -0.1264049809     -0.05350365445    
425008550         0.1596694184      -0.04653890814    3.396014335       -4.870566681      
                  3.396014335       -4.870566681      0.01698767313     0.1025915022      
510008460         -0.1016035332     -0.1638282923     -5.909673164      -0.6515766551     
                  -5.909673164      -0.6515766551     0.07062625762     -0.07902389494    
595008370         -0.1071724284     0.1402487374      2.227538172       5.431740992       
                  2.227538172       5.431740992       -0.08384715183    -0.01204298644    
680008280         0.2046210308      0.03390321873     3.669935145       -4.577447396      
                  3.669935145       -4.577447396      0.09239138607     0.07468795495     
765008190         0.009510167578    -0.1641053135     -5.738781692      -1.109423215      
                  -5.738781692      -1.109423215      0.060260343       -0.06058623474    
850008100         -0.1820106085     0.1117510936      1.867366689       5.530808136       
                  1.867366689       5.530808136       -0.07169262212    0.06506708102     
935008010         0.1458788678      0.1235455891      3.953749732       -4.231571676      
                  3.953749732       -4.231571676      0.10209783        0.03886059511     
1020007920        0.07560001073     -0.1543610926     -5.594460125      -1.453119214      
                  -5.594460125      -1.453119214      -0.00449516159    -0.075899287      
1105007830        -0.2255001463     -0.007985568044   1.479399466       5.623639734       
                  1.479399466       5.623639734       -0.06280146967    0.07497703128     
1190007740        0.0714087285      0.1405463255      4.203269213       -3.860816528      
                  4.203269213       -3.860816528      0.1241449682      -0.04267130099    
1275007650        0.1645441388      -0.1089892082     -5.472954759      -1.835909107      
                  -5.472954759      -1.835909107      -0.02978999705    -0.08903657778    
1360007560        -0.1639566961     -0.1008786015     1.042136927       5.647849269       
                  1.042136927       5.647849269       -0.005592693418   0.1014273785      
1445007470        0.0004964372317   0.1426069523      4.419729744       -3.545025264      
                  4.419729744       -3.545025264      0.1468083016      -0.08872856759    
1530007380        0.1852009715      -0.01149970728    -5.309387927      -2.194596438      
                  -5.309387927      -2.194596438      -0.06925085162    -0.06486892335    
1615007290        -0.09438243576    -0.1243867062     0.6163706873      5.607968069       
                  0.6163706873      5.607968069       0.02372314049     0.1424542054      
1700007200        -0.08867159114    0.09737380735     4.674159997       -3.241993452      
                  4.674159997       -3.241993452      0.1109849161      -0.1334779471     
1785007110        0.1286984558      0.03192069198     -5.066117606      -2.537055903      
                  -5.066117606      -2.537055903      -0.1317234723     -0.06403026202    
1870007020        -0.02165633165    -0.1364057905     0.2223212721      5.611127939       
                  0.2223212721      5.611127939       0.06610188895     0.1317340049      
1955006930        -0.1075227592     0.02133088685     4.882535828       -2.885319512      
                  4.882535828       -2.885319512      0.08918865653     -0.1938140268     
2040006840        0.08324221388     0.03932428349     -4.830147471      -2.820640679      
                  -4.830147471      -2.820640679      -0.154344692      -0.04151935242    
2125006750        0.03631551024     -0.09335774719    -0.1963385901     5.642828367       
                  -0.1963385901     5.642828367       0.1313159088      0.136755562       
2210006660        -0.09275256118    -0.0005478514455  4.978436293       -2.533312081      
                  4.978436293       -2.533312081      0.04799017237     -0.2180659762     
2295006570        0.02975731427     0.03725778138     -4.597838973      -3.151899105      
                  -4.597838973      -3.151899105      -0.1861439678     0.01521487856     
2380006480        0.02940669175     -0.05315221112    -0.5609505745     5.577746252       
                  -0.5609505745     5.577746252       0.1668905312      0.1140688852      
2465006390        -0.08837408738    -0.01647261779    5.05816036        -2.214190277      
                  5.05816036        -2.214190277      -0.01978318534    -0.2595643082     
2550006300        0.01158805052     0.001824642077    -4.287729048      -3.490523503      
                  -4.287729048      -3.490523503      -0.1912197206     0.06073738235     
2635006210        0.02626062755     -0.04508742411    -0.901365792      5.520900135       
                  -0.901365792      5.520900135       0.213636033       0.06417823648     
2720006120        -0.08283462195    -0.01116981532    5.133521083       -1.841373295      
                  5.133521083       -1.841373295      -0.09068784954    -0.2642885098     
2805006030        0.01760064043     0.000621193266    -4.001224639      -3.738422578      
                  -4.001224639      -3.738422578      -0.1626532355     0.1236010932      
2890005940        0.02243383312     -0.03684394978    -1.243621662      5.395836673       
                  -1.243621662      5.395836673       0.2318811254      0.008792131526    
2975005850        -0.09496279441    -0.008730456082   5.166890685       -1.383342359      
                  5.166890685       -1.383342359      -0.1620121422     -0.247368339      
3060005760        0.01819315537     0.01031544393     -3.706839763      -4.081673225      
                  -3.706839763      -4.081673225      -0.1186012164     0.1690526954      
3145005670        0.03697408309     -0.04434152642    -1.636795629      5.247354058       
                  -1.636795629      5.247354058       0.2312853721      -0.0715177359     
3230005580        -0.1017778202     -0.03347190514    5.275057716       -0.9835667211     
                  5.275057716       -0.9835667211     -0.2274746858     -0.2074027305     
3315005490        0.01094034355     0.03193298868     -3.434835929      -4.306292289      
                  -3.434835929      -4.306292289      -0.04637266723    0.2027574995      
3400005400        0.06171295869     -0.02906130422    -1.993511798      5.08016629        
                  -1.993511798      5.08016629        0.2018152288      -0.1449797203     
3485005310        -0.09743449162    -0.06360375146    5.376357534       -0.6136045174     
                  5.376357534       -0.6136045174     -0.2820170733     -0.1297527697     
3570005220        -0.02058330462    0.04931537899     -3.25297019       -4.497183047      
                  -3.25297019       -4.497183047      0.03343249441     0.2109104171      
3655005130        0.06914283447     0.003927380883    -2.191820051      4.948128193       
                  -2.191820051      4.948128193       0.134492407       -0.2086748612     
3740005040        -0.0769995309     -0.09312456228    5.36762661        -0.2582262971     
                  5.36762661        -0.2582262971     -0.3120018967     -0.03984343976    
3825004950        -0.05909446733    0.03682550715     -2.978849586      -4.633205983      
                  -2.978849586      -4.633205983      0.1131712438      0.1761185654      
3910004860        0.06354605075     0.03782884394     -2.613400754      4.724056088       
                  -2.613400754      4.724056088       0.05078268768     -0.2583201386     
3995004770        -0.03081166114    -0.1117142067     5.401512403       0.06333653652     
                  5.401512403       0.06333653652     -0.3051907247     0.06517208138     
4080004680        -0.08487370543    0.007647789395    -2.70741339       -4.805351635      
                  -2.70741339       -4.805351635      0.1908575815      0.1277336775      
4165004590        0.03932713181     0.07019429737     -2.87367904       4.587921658       
                  -2.87367904       4.587921658       -0.04664169428    -0.2717197231     
4250004500        0.0115660987      -0.08817199424    5.490017589       0.3095910008      
                  5.490017589       0.3095910008      -0.2655661576     0.1755042543      
4335004410        -0.1016399922     -0.01966241418    -2.449275832      -4.917197668      
                  -2.449275832      -4.917197668      0.2296499787      0.04435676321     
4420004320        -0.007406905047   0.08332089736     -3.07798083       4.473296967       
                  -3.07798083       4.473296967       -0.1638747669     -0.2509615829     
4505004230        0.03813676901     -0.05686157397    5.440600363       0.4905183333      
                  5.440600363       0.4905183333      -0.1967561769     0.258979037       
4590004140        -0.09967227433    -0.05179466835    -2.183623075      -4.952759746      
                  -2.183623075      -4.952759746      0.2294515266      -0.0576144795     
4675004050        -0.04511667421    0.07024892616     -3.177941187      4.355387342       
                  -3.177941187      4.355387342       -0.2552950479     -0.1911795813     
4760003960        0.05688182287     -0.01588373226    5.291417102       0.7263320348      
                  5.291417102       0.7263320348      -0.08644365095    0.310951013       
4845003870        -0.07616874654    -0.06852636985    -1.936047495      -5.005229648      
                  -1.936047495      -5.005229648      0.2000129186      -0.1551588105     
4930003780        -0.07667628909    0.04018623797     -3.361654305      4.174626803       
                  -3.361654305      4.174626803       -0.3193835418     -0.09924979196    
5015003690        0.04956885571     0.0375885746      5.163364677       0.9681310779      
                  5.163364677       0.9681310779      0.03559705892     0.3345324421      
5100003600        -0.05132747127    -0.05592602535    -1.763731377      -5.079209456      
                  -1.763731377      -5.079209456      0.1196734105      -0.2294113366     
5185003510        -0.09071060634    0.003966540865    -3.416954168      3.952807167       
                  -3.416954168      3.952807167       -0.3495264141     0.01100261462     
5270003420        0.01447798767     0.07171382018     5.030229807       1.200965635       
                  5.030229807       1.200965635       0.1502017698      0.2995579013      
5355003330        -0.04218070802    -0.02213310337    -1.649419513      -5.140302343      
                  -1.649419513      -5.140302343      -0.002176494198   -0.2790450514     
5440003240        -0.07086633797    -0.03934354014    -3.362241004      3.786871518       
                  -3.362241004      3.786871518       -0.3194716006     0.1321692056      
5525003150        -0.01842649474    0.06053588815     5.014213118       1.31412751        
                  5.014213118       1.31412751        0.2687804968      0.2012509839      
5610003060        -0.03854004967    0.02792774822     -1.593389983      -4.982726264      
                  -1.593389983      -4.982726264      -0.1368805267     -0.2677800936     
5695002970        -0.01356620229    -0.04323557333    -3.361095866      3.568572184       
                  -3.361095866      3.568572184       -0.2211444345     0.2528942469      
5780002880        -0.02618639667    0.02334014037     4.967172516       1.408131088       
                  4.967172516       1.408131088       0.3291745826      0.05803169388     
5865002790        -0.07696148061    0.0762839052      -1.495318768      -4.718573706      
                  -1.495318768      -4.718573706      -0.2718399626     -0.1853604206     
5950002700        0.03641927919     0.005102328492    -3.396824854      3.362104721       
                  -3.396824854      3.362104721       -0.08295982168    0.3330229603      
6035002610        -0.0184659037     -0.03919275891    4.753563383       1.303416246       
                  4.753563383       1.303416246       0.2984929549      -0.0975665264     
6120002520        -0.1450340177     0.07358216247     -1.378157493      -4.461014573      
                  -1.378157493      -4.461014573      -0.3586423555     -0.04578100498    
6205002430        0.07137692831     0.08810915182     -3.284383716      3.154307049       
                  -3.284383716      3.154307049       0.1018846054      0.3375185216      
6290002340        0.060416972       -0.09099559001    4.527207943       1.165643126       
                  4.527207943       1.165643126       0.1949079649      -0.2475881963     
6375002250        -0.215283479      0.008640100855    -1.278319764      -4.167123566      
                  -1.278319764      -4.167123566      -0.376111908      0.1300916454      
6460002160        0.02962039807     0.2063489828      -3.036800196      2.956030307       
                  -3.036800196      2.956030307       0.2703344311      0.2721164844      
6545002070        0.17611468        -0.05980598986    4.121473204       1.066286309       
                  4.121473204       1.066286309       0.02862750567     -0.3196999685     
6630001980        -0.2072475325     -0.1108942509     -1.133521346      -3.859185791      
                  -1.133521346      -3.859185791      -0.2984714634     0.3022585589      
6715001890        -0.07167032721    0.2749870771      -2.733016131      2.637237932       
                  -2.733016131      2.637237932       0.3839292257      0.1558050198      
6800001800        0.2659741632      0.055414982       3.633718249       1.127303994       
                  3.633718249       1.127303994       -0.1316963502     -0.3083842649     
6885001710        -0.1031294997     -0.2406275666     -0.8200501946     -3.508996765      
                  -0.8200501946     -3.508996765      -0.1884608198     0.3879745618      
6970001620        -0.2098338845     0.2336505672      -2.644067505      2.228119317       
                  -2.644067505      2.228119317       0.422671672       0.02350285096     
7055001530        0.2633305286      0.2072537034      3.227771761       1.243625502       
                  3.227771761       1.243625502       -0.2573013227     -0.2708986342     
7140001440        0.08156388808     -0.2999658718     -0.5419993439     -3.233563474      
                  -0.5419993439     -3.233563474      -0.06400878253    0.4533653289      
7225001350        -0.2969727271     0.09662455728     -2.58268706       1.900147888       
                  -2.58268706       1.900147888       0.4530708318      -0.1040222579     
7310001260        0.1700801663      0.3475749414      2.868914259       1.163707349       
                  2.868914259       1.163707349       -0.3587698458     -0.1845359956     
7395001170        0.2853396309      -0.227892569      -0.2464967144     -2.969992691      
                  -0.2464967144     -2.969992691      0.07732985578     0.4818721593      
7480001080        -0.2991856876     -0.1108844436     -2.418265557      1.61364798        
                  -2.418265557      1.61364798        0.3949991149      -0.2371522666     
7565000990        -0.03123408515    0.4002011089      2.618512881       1.165200119       
                  2.618512881       1.165200119       -0.424865571      -0.08445169398    
7650000900        0.4003892739      -0.05656521833    -0.0542834021     -2.612408405      
                  -0.0542834021     -2.612408405      0.2132548518      0.4383527475      
7735000810        -0.1610820253     -0.3067709458     -2.29853378       1.347280503       
                  -2.29853378       1.347280503       0.3171207739      -0.3457021837     
7820000720        -0.2071906425     0.3179740394      2.27953082        1.241474084       
                  2.27953082        1.241474084       -0.4053847972     0.02499282582     
7905000630        0.414063194       0.1384355365      0.09702587554     -2.301458738      
                  0.09702587554     -2.301458738      0.3246850642      0.3623104615      
7990000540        0.06590154756     -0.390902563      -2.216518685      0.926532564       
                  -2.216518685      0.926532564       0.2218795124      -0.4069384654     
8075000450        -0.3503140873     0.1196966323      1.908181462       1.43383339        
                  1.908181462       1.43383339        -0.3876704966     0.1186597983      
8160000360        0.2980057018      0.3131966082      0.2512585551      -2.190740132      
                  0.2512585551      -2.190740132      0.3994131492      0.2798157037      
8245000270        0.2576102208      -0.3371092619     -2.040610896      0.6167146413      
                  -2.040610896      0.6167146413      0.1143726553      -0.444526979      
8330000180        -0.3663957958     -0.1324392179     1.638676721       1.500524539       
                  1.638676721       1.500524539       -0.3427376213     0.1938846965      
8415000090        0.07883344136     0.3932110305      0.384718455       -1.998151511      
                  0.384718455       -1.998151511      0.4363832448      0.1667780644      
8500000000        0.383042783       -0.1861787778     -1.831438701      0.4497780195      
                  -1.831438701      0.4497780195      -0.004932902204   -0.460608157      
