! RsaToolbox (C) 2013 Rohde & Schwarz America
! 
! Number of points: 101
! Number of ports: 2
! Balanced ports?: 0
! 
! 
# Hz S RI R 50
9000              0.9770512593      -0.007102228752   7.031025801e-05   -1.386576182e-05  
                  7.031025801e-05   -1.386576182e-05  0.9923215123      -0.01612747597    
85008910          -0.09164837212    -0.08904430785    1.901144497       3.013483885       
                  1.901144497       3.013483885       -0.09234666221    -0.1172648267     
170008820         -0.01604392509    0.1119233647      1.819680679       -3.347996332      
                  1.819680679       -3.347996332      -0.02131811321    0.1719802087      
255008730         0.01897260725     -0.006805887408   -3.83117502       0.1994265471      
                  -3.83117502       0.1994265471      0.07800502012     -0.02676126345    
340008640         -0.06807599489    -0.02414140658    2.006006551       3.3072433         
                  2.006006551       3.3072433         -0.127208117      -0.05465839139    
425008550         -0.01687749596    0.02942646602     1.878698924       -3.360734383      
                  1.878698924       -3.360734383      0.016170365       0.1030966381      
510008460         0.03298540652     -0.03187902135    -3.849434004      -0.01700533975    
                  -3.849434004      -0.01700533975    0.07108683141     -0.08016058528    
595008370         -0.02850829995    -0.03412431893    1.837438658       3.47886121        
                  1.837438658       3.47886121        -0.0844668894     -0.01249617801    
680008280         0.01981349296     0.04430891298     2.002477498       -3.231264748      
                  2.002477498       -3.231264748      0.09217618619     0.07598876669     
765008190         0.05737572475     0.02936884792     -3.905463723      -0.2809658861     
                  -3.905463723      -0.2809658861     0.06053824363     -0.06104950008    
850008100         -0.05069320741    -0.01735371185    1.682337628       3.438880233       
                  1.682337628       3.438880233       -0.07235412836    0.06493348674     
935008010         -0.01728032509    0.027317358       2.225753609       -3.200396933      
                  2.225753609       -3.200396933      0.1023722384      0.03902553404     
1020007920        0.01413861263     0.04715353589     -3.899911178      -0.3585166726     
                  -3.899911178      -0.3585166726     -0.005033993629   -0.07653832817    
1105007830        -0.05099368298    -0.05832900371    1.55975271        3.428372324       
                  1.55975271        3.428372324       -0.06385549455    0.07528730183     
1190007740        -0.01098301833    -0.08109165398    2.348266263       -3.111326401      
                  2.348266263       -3.111326401      0.1244780204      -0.04227587412    
1275007650        0.03551757925     0.04578126991     -3.82143883       -0.5339220663     
                  -3.82143883       -0.5339220663     -0.0305443343     -0.08951903729    
1360007560        0.02964756436     -0.02925236288    1.408797835       3.552107973       
                  1.408797835       3.552107973       -0.006127678762   0.1023525822      
1445007470        0.03962166208     -0.1070884472     2.434477269       -3.021807892      
                  2.434477269       -3.021807892      0.1476300132      -0.08826019982    
1530007380        -0.02975892258    0.06111739174     -3.660275898      -0.5961147483     
                  -3.660275898      -0.5961147483     -0.07000409329    -0.06513411988    
1615007290        0.05686728489     0.09242547093     1.315198642       3.464823816       
                  1.315198642       3.464823816       0.02261731243     0.1428414978      
1700007200        0.06514596861     -0.1181036048     2.339955994       -2.854565882      
                  2.339955994       -2.854565882      0.1113012526      -0.1338316817     
1785007110        -0.1338933175     -0.04226332766    -3.63454664       -0.7016834903     
                  -3.63454664       -0.7016834903     -0.1329932576     -0.06467069676    
1870007020        -0.0002677884446  0.1465497054      1.212860209       3.477525528       
                  1.212860209       3.477525528       0.06515898143     0.1328794834      
1955006930        0.1478678883      -0.09328267614    2.418506301       -2.798157331      
                  2.418506301       -2.798157331      0.08964533948     -0.1946474619     
2040006840        -0.1215332363     -0.174259801      -3.637194623      -0.8072971335     
                  -3.637194623      -0.8072971335     -0.155902046      -0.04210722885    
2125006750        -0.0942905585     0.173668499       1.141665804       3.500462865       
                  1.141665804       3.500462865       0.1309775104      0.1375662915      
2210006660        0.2214901192      0.01856444935     2.389340327       -2.663296769      
                  2.389340327       -2.663296769      0.04830264559     -0.2192420909     
2295006570        -0.05825824486    -0.2685985353     -3.469705117      -0.8271350919     
                  -3.469705117      -0.8271350919     -0.1872703687     0.01485348147     
2380006480        -0.2206524489     0.1296181471      0.9862900032      3.457523121       
                  0.9862900032      3.457523121       0.167250148       0.1142026907      
2465006390        0.2015731798      0.154164133       2.368858508       -2.496338395      
                  2.368858508       -2.496338395      -0.0195153027     -0.2610347802     
2550006300        0.07363036549     -0.3117085001     -3.348926717      -1.028244278      
                  -3.348926717      -1.028244278      -0.1918314748     0.0605611623      
2635006210        -0.2836342132     0.007050022076    0.7834029137      3.400409418       
                  0.7834029137      3.400409418       0.214240651       0.06399303572     
2720006120        0.09979428411     0.2738238656      2.475879622       -2.294972524      
                  2.475879622       -2.294972524      -0.09061802638    -0.2662222607     
2805006030        0.2145557423      -0.2580648863     -3.153309492      -1.111520175      
                  -3.153309492      -1.111520175      -0.1636962869     0.1229420668      
2890005940        -0.2828768504     -0.1367073883     0.5828200796      3.297330338       
                  0.5828200796      3.297330338       0.2333543115      0.008549349902    
2975005850        -0.064196035      0.3252596159      2.593273359       -1.950231242      
                  2.593273359       -1.950231242      -0.162154201      -0.2496564283     
3060005760        0.3044108367      -0.1193350356     -3.027729777      -1.42403868       
                  -3.027729777      -1.42403868       -0.1192298493     0.1684977771      
3145005670        -0.1958169245     -0.2691373495     0.2622460345      3.256992997       
                  0.2622460345      3.256992997       0.2332381256      -0.07208347699    
3230005580        -0.2188063523     0.2618880973      2.800470508       -1.653282616      
                  2.800470508       -1.653282616      -0.2267585348     -0.2093137924     
3315005490        0.3295141213      0.03919662867     -2.802585587      -1.542094533      
                  -2.802585587      -1.542094533      -0.04576825862    0.2030645342      
3400005400        -0.05326312197    -0.3331516905     -0.02665508625    3.163403325       
                  -0.02665508625    3.163403325       0.2034124973      -0.1453192143     
3485005310        -0.3323964796     0.148260602       2.822457565       -1.399924218      
                  2.822457565       -1.399924218      -0.281821003      -0.1308267004     
3570005220        0.271514125       0.194215556       -2.600473224      -1.646681719      
                  -2.600473224      -1.646681719      0.03411396478     0.2120232515      
3655005130        0.09153947768     -0.324384539      -0.198250067      3.006968686       
                  -0.198250067      3.006968686       0.1368200505      -0.2083114834     
3740005040        -0.3756263933     -0.004009686729   2.761779567       -1.159274942      
                  2.761779567       -1.159274942      -0.3115783329     -0.04021080961    
3825004950        0.1416514723      0.2961214479      -2.341820012      -1.746165231      
                  -2.341820012      -1.746165231      0.1145702833      0.1787986818      
3910004860        0.23357842        -0.2476936503     -0.4480337385     2.857829052       
                  -0.4480337385     2.857829052       0.05332670755     -0.2583987832     
3995004770        -0.3435657755     -0.1629143879     2.68760168        -0.9255947131     
                  2.68760168        -0.9255947131     -0.3057705661     0.06589155114     
4080004680        -0.02053770456    0.3333647346      -2.102540302      -1.859623206      
                  -2.102540302      -1.859623206      0.1938586929      0.1288533151      
4165004590        0.3134558173      -0.1146898491     -0.6615339403     2.766328466       
                  -0.6615339403     2.766328466       -0.04612363451    -0.2752980151     
4250004500        -0.2503497937     -0.271982706      2.692360608       -0.7021423982     
                  2.692360608       -0.7021423982     -0.2648637209     0.1768706865      
4335004410        -0.1858956259     0.2940342404      -1.92156977       -1.984712897      
                  -1.92156977       -1.984712897      0.2323852948      0.04469629792     
4420004320        0.3116017066      0.04096935744     -0.8537823647     2.683718367       
                  -0.8537823647     2.683718367       -0.1637201537     -0.2522203148     
4505004230        -0.1152176026     -0.3312922411     2.673123748       -0.5351185077     
                  2.673123748       -0.5351185077     -0.1972913886     0.2600213035      
4590004140        -0.3038874617     0.1899713269      -1.70880667       -2.03429917       
                  -1.70880667       -2.03429917       0.2308296153      -0.05740564638    
4675004050        0.2530775389      0.1704901704      -0.9587946047     2.513542725       
                  -0.9587946047     2.513542725       -0.25617895       -0.192335446      
4760003960        0.03825441896     -0.3293534801     2.578980877       -0.3445967214     
                  2.578980877       -0.3445967214     -0.08763889408    0.3121649827      
4845003870        -0.3549166605     0.05617978001     -1.49042504       -2.067824863      
                  -1.49042504       -2.067824863      0.201230107       -0.1548899097     
4930003780        0.1336953156      0.2621487657      -1.128972451      2.357492682       
                  -1.128972451      2.357492682       -0.321192101      -0.1006144537     
5015003690        0.1666350528      -0.2538583444     2.506789367       -0.1377347361     
                  2.506789367       -0.1377347361     0.03525128516     0.3365133292      
5100003600        -0.3447773406     -0.07410339153    -1.331860781      -2.094165044      
                  -1.331860781      -2.094165044      0.120059808       -0.2299229194     
5185003510        -0.003470646224   0.2927684423      -1.237873423      2.160070673       
                  -1.237873423      2.160070673       -0.351737256      0.01061519685     
5270003420        0.2398536802      -0.1300609881     2.480332455       0.09576177025     
                  2.480332455       0.09576177025     0.1488728059      0.3017276211      
5355003330        -0.2881413749     -0.1713796238     -1.193011656      -2.102134304      
                  -1.193011656      -2.102134304      -0.001669594136   -0.2806447949     
5440003240        -0.1145801954     0.2564919769      -1.308800917      2.046693077       
                  -1.308800917      2.046693077       -0.321645921      0.1313656961      
5525003150        0.2582243458      -0.013113846      2.43381105        0.215533305       
                  2.43381105        0.215533305       0.2691795719      0.2032427682      
5610003060        -0.1887361492     -0.2132751817     -1.102935478      -2.098110274      
                  -1.102935478      -2.098110274      -0.1358364641     -0.2695530471     
5695002970        -0.1759281162     0.197521187       -1.360325258      1.90194164        
                  -1.360325258      1.90194164        -0.2230943405     0.252704183       
5780002880        0.238699607       0.08745344214     2.366696607       0.321499628       
                  2.366696607       0.321499628       0.3305409073      0.06010347412     
5865002790        -0.1042504122     -0.21143581       -0.9486236608     -2.043388992      
                  -0.9486236608     -2.043388992      -0.2711967302     -0.1873501855     
5950002700        -0.2040962484     0.1447717803      -1.404293524      1.762842952       
                  -1.404293524      1.762842952       -0.08431407416    0.334336499       
6035002610        0.1825075379      0.1381376198      2.233516104       0.3704617092      
                  2.233516104       0.3704617092      0.3008380579      -0.09571222693    
6120002520        -0.03961387338    -0.1909590578     -0.8220922159     -2.011837938      
                  -0.8220922159     -2.011837938      -0.3578139099     -0.04732000214    
6205002430        -0.1992402775     0.1034392954      -1.405358793      1.658244051       
                  -1.405358793      1.658244051       0.1023380059      0.3398622002      
6290002340        0.1565815712      0.157911455       2.126406564       0.3990189584      
                  2.126406564       0.3990189584      0.1987471292      -0.2474382149     
6375002250        -0.01100870361    -0.1848361656     -0.7190875309     -1.964846277      
                  -0.7190875309     -1.964846277      -0.376457231      0.1278555497      
6460002160        -0.2116181809     0.1047996535      -1.37838876       1.562778791       
                  -1.37838876       1.562778791       0.2715348164      0.2739824576      
6545002070        0.1545109802      0.1979044298      1.996324724       0.420537856       
                  1.996324724       0.420537856       0.03087914646     -0.3211027449     
6630001980        0.04991893138     -0.1952313332     -0.6144180408     -1.879689648      
                  -0.6144180408     -1.879689648      -0.300180933      0.3022547192      
6715001890        -0.2416526664     0.08767874367     -1.310784961      1.395771076       
                  -1.310784961      1.395771076       0.3845692666      0.1580411288      
6800001800        0.1435908655      0.2671243582      1.813413449       0.4837900086      
                  1.813413449       0.4837900086      -0.1306198468     -0.3096167223     
6885001710        0.1503768202      -0.2051359471     -0.4425828989     -1.765477122      
                  -0.4425828989     -1.765477122      -0.1896818556     0.3890623243      
6970001620        -0.2793354814     0.003909647018    -1.354495464      1.214309878       
                  -1.354495464      1.214309878       0.4242394162      0.02548580622     
7055001530        0.08154764085     0.3373813571      1.710773668       0.581786659       
                  1.710773668       0.581786659       -0.2573631011     -0.2722538817     
7140001440        0.2665260491      -0.172274887      -0.3256716546     -1.752716564      
                  -0.3256716546     -1.752716564      -0.06491407701    0.4552265353      
7225001350        -0.2674263502     -0.1246390362     -1.389462175      1.071628258       
                  -1.389462175      1.071628258       0.4535933318      -0.1019793601     
7310001260        -0.02055024469    0.3808890396      1.628946303       0.5997136581      
                  1.628946303       0.5997136581      -0.3596811107     -0.1859808176     
7395001170        0.3797538308      -0.05211711125    -0.1729767581     -1.674863468      
                  -0.1729767581     -1.674863468      0.07583384529     0.4833261421      
7480001080        -0.1808940487     -0.2807284895     -1.355223825      0.9213738782      
                  -1.355223825      0.9213738782      0.3956635941      -0.2366870882     
7565000990        -0.2135121298     0.3493055269      1.486592638       0.644363128       
                  1.486592638       0.644363128       -0.426777158      -0.08570783205    
7650000900        0.4125427169      0.1153821329      -0.06604744945    -1.571552041      
                  -0.06604744945    -1.571552041      0.2113175176      0.4404548874      
7735000810        -0.008204125671   -0.3852454003     -1.394457219      0.8161783998      
                  -1.394457219      0.8161783998      0.3182214225      -0.3469952464     
7820000720        -0.3344258727     0.2126262508      1.394515409       0.7594544295      
                  1.394515409       0.7594544295      -0.4083576889     0.02314778297     
7905000630        0.3625726053      0.2755111976      0.04496764077     -1.468754166      
                  0.04496764077     -1.468754166      0.3239175537      0.3640866069      
7990000540        0.2155983336      -0.3937746065     -1.395070738      0.5650154835      
                  -1.395070738      0.5650154835      0.2222711123      -0.4090156578     
8075000450        -0.41302573       -0.02038156119    1.195681773       0.934193735       
                  1.195681773       0.934193735       -0.3902695373     0.1181878557      
8160000360        0.1984122529      0.4149063868      0.1696553555      -1.412663595      
                  0.1696553555      -1.412663595      0.4000184651      0.2808216772      
8245000270        0.3752202511      -0.2850767402     -1.342422052      0.4093527563      
                  -1.342422052      0.4093527563      0.1145998255      -0.4457094008     
8330000180        -0.3571703406     -0.2660887369     1.066119121       0.9925825345      
                  1.066119121       0.9925825345      -0.344172076      0.1930546864      
8415000090        -0.04005075462    0.434711282       0.2628037674      -1.338492882      
                  0.2628037674      -1.338492882      0.4373264138      0.1675986882      
8500000000        0.4565440179      -0.104598745      -1.266985939      0.3230692402      
                  -1.266985939      0.3230692402      -0.003390978206   -0.4629176276     
