! RsaToolbox (C) 2013 Rohde & Schwarz America
! 
! Number of points: 101
! Number of ports: 2
! Balanced ports?: 0
! 
! 
# Hz S RI R 50
9000              1.027408508       -0.03731715629    3.870367784e-05   -0.0001582713754  
                  3.870367784e-05   -0.0001582713754  1.014584873       -0.040549624      
85008910          0.002965421383    0.1585759277      3.191398782       5.528153272       
                  3.191398782       5.528153272       -0.09225784281    -0.1155991221     
170008820         0.1431019549      -0.04448533248    3.202475878       -5.226202337      
                  3.202475878       -5.226202337      -0.01958983433    0.1710653098      
255008730         -0.176400858      -0.07674012684    -6.066256793      -0.1788583454     
                  -6.066256793      -0.1788583454     0.07673477176     -0.02685119272    
340008640         -0.06335701677    0.1699358837      2.640826053       5.366376202       
                  2.640826053       5.366376202       -0.1256217421     -0.05223732665    
425008550         0.1597128972      -0.04645443592    3.400992124       -4.871416254      
                  3.400992124       -4.871416254      0.01669972237     0.1036284755      
510008460         -0.1019468001     -0.1642635107     -5.910725856      -0.6575828951     
                  -5.910725856      -0.6575828951     0.07014588417     -0.07930180604    
595008370         -0.1072141895     0.1405518518      2.225246793       5.438299144       
                  2.225246793       5.438299144       -0.08370499523    -0.01158619198    
680008280         0.204441863       0.03437345632     3.676633789       -4.5754955        
                  3.676633789       -4.5754955        0.09221427606     0.07593053891     
765008190         0.00958533468     -0.1643779542     -5.736510158      -1.110958008      
                  -5.736510158      -1.110958008      0.05996385168     -0.06011845205    
850008100         -0.1824028499     0.1111953886      1.862991917       5.53396713        
                  1.862991917       5.53396713        -0.07223127598    0.06552529472     
935008010         0.1465744576      0.1237351723      3.960990806       -4.230742096      
                  3.960990806       -4.230742096      0.1025067237      0.03945255383     
1020007920        0.07598192766     -0.1546178231     -5.593893721      -1.461380093      
                  -5.593893721      -1.461380093      -0.00451153762    -0.07556195796    
1105007830        -0.226051701      -0.008554781241   1.471889491       5.627774591       
                  1.471889491       5.627774591       -0.06240569322    0.07514508332     
1190007740        0.07098449718     0.1398613997      4.204447814       -3.856304627      
                  4.204447814       -3.856304627      0.1232407102      -0.04287860537    
1275007650        0.1648069079      -0.1091256515     -5.474871593      -1.844277666      
                  -5.474871593      -1.844277666      -0.02988530475    -0.08872161983    
1360007560        -0.1639584444     -0.1008761231     1.041569868       5.656474344       
                  1.041569868       5.656474344       -0.005773114345   0.1013344252      
1445007470        0.0004952707588   0.1423365743      4.421239986       -3.543086877      
                  4.421239986       -3.543086877      0.1474543455      -0.088285989      
1530007380        0.185748979       -0.01150256085    -5.311613871      -2.197210377      
                  -5.311613871      -2.197210377      -0.06955605412    -0.06490250911    
1615007290        -0.09396403699    -0.125219834      0.6117478307      5.608788606       
                  0.6117478307      5.608788606       0.02325115606     0.1419538296      
1700007200        -0.08937433604    0.09749366616     4.679736531       -3.23690409       
                  4.679736531       -3.23690409       0.1107224824      -0.1337447863     
1785007110        0.1289100698      0.03167086126     -5.066174907      -2.54190647       
                  -5.066174907      -2.54190647       -0.1313943547     -0.06350747289    
1870007020        -0.02186044578    -0.1367531408     0.2151637731      5.612995217       
                  0.2151637731      5.612995217       0.06680226258     0.1324350764      
1955006930        -0.1076248141     0.02183720554     4.88561296        -2.884216498      
                  4.88561296        -2.884216498      0.08881232912     -0.1936897653     
2040006840        0.08336880974     0.03962627186     -4.829380181      -2.82482322       
                  -4.829380181      -2.82482322       -0.1541285522     -0.0413999657     
2125006750        0.03661165644     -0.09387899009    -0.2005403996     5.643406148       
                  -0.2005403996     5.643406148       0.1316351357      0.1369971484      
2210006660        -0.09324942303    -0.0003834063521  4.982131268       -2.529582355      
                  4.982131268       -2.529582355      0.04822395412     -0.2178653249     
2295006570        0.0297141764      0.03751061104     -4.5987702        -3.151202247      
                  -4.5987702        -3.151202247      -0.1861465191     0.01599474626     
2380006480        0.02961604064     -0.05342377991    -0.5635818131     5.582712312       
                  -0.5635818131     5.582712312       0.1665314995      0.1140223415      
2465006390        -0.08857845453    -0.01678106515    5.064106754       -2.210324707      
                  5.064106754       -2.210324707      -0.02039601799    -0.2589689254     
2550006300        0.01148997164     0.002467779189    -4.2899305        -3.491519471      
                  -4.2899305        -3.491519471      -0.1901096866     0.06113098677     
2635006210        0.02699587561     -0.04497372297    -0.9097045748     5.520232387       
                  -0.9097045748     5.520232387       0.2140635008      0.06428201313     
2720006120        -0.08315924469    -0.01184703451    5.133793856       -1.839450472      
                  5.133793856       -1.839450472      -0.09032396936    -0.2649510115     
2805006030        0.01808008839     0.0007331372942   -4.00528469       -3.740798713      
                  -4.00528469       -3.740798713      -0.1633288871     0.123290862       
2890005940        0.0228621806      -0.03726824944    -1.249010912      5.396691322       
                  -1.249010912      5.396691322       0.231696525       0.008928893562    
2975005850        -0.09532033453    -0.008687138855   5.167588968       -1.381745853      
                  5.167588968       -1.381745853      -0.1624986698     -0.2477730718     
3060005760        0.01738919292     0.01029058121     -3.7051614        -4.085892227      
                  -3.7051614        -4.085892227      -0.1193130657     0.1690768678      
3145005670        0.03752867917     -0.0446971828     -1.642128189      5.248293039       
                  -1.642128189      5.248293039       0.2317198921      -0.07138826867    
3230005580        -0.1021625585     -0.0337677065     5.275789265       -0.9806791706     
                  5.275789265       -0.9806791706     -0.2266589554     -0.2079230611     
3315005490        0.01014205794     0.03207768539     -3.434526718      -4.312398681      
                  -3.434526718      -4.312398681      -0.04636821033    0.2022260934      
3400005400        0.0623231806      -0.02827577776    -1.998685345      5.079269608       
                  -1.998685345      5.079269608       0.2018799825      -0.1441558169     
3485005310        -0.09780737159    -0.06376289777    5.381732845       -0.6127914863     
                  5.381732845       -0.6127914863     -0.2823558584     -0.1291986748     
3570005220        -0.02012427346    0.04888103596     -3.249009054      -4.499969771      
                  -3.249009054      -4.499969771      0.03352075807     0.2104050383      
3655005130        0.06977971259     0.00569515114     -2.198944434      4.949652722       
                  -2.198944434      4.949652722       0.1352202607      -0.2096682903     
3740005040        -0.07522398697    -0.09420965758    5.369203351       -0.2558465111     
                  5.369203351       -0.2558465111     -0.3114872606     -0.0391588233     
3825004950        -0.05878108921    0.03630212455     -2.977250142      -4.643723901      
                  -2.977250142      -4.643723901      0.1138725066      0.1753807021      
3910004860        0.06369342111     0.03767839588     -2.622029387      4.725167668       
                  -2.622029387      4.725167668       0.04879133045     -0.2591375568     
3995004770        -0.03046995497    -0.1112940123     5.406883552       0.07157295897     
                  5.406883552       0.07157295897     -0.3054900749     0.06505627219     
4080004680        -0.08468207533    0.007472951146    -2.70812494       -4.810755478      
                  -2.70812494       -4.810755478      0.189940039       0.1282929161      
4165004590        0.03920567341     0.07096985194     -2.87862154       4.589098098       
                  -2.87862154       4.589098098       -0.0462090114     -0.2708156729     
4250004500        0.01163655602     -0.08698761873    5.492538233       0.3090363236      
                  5.492538233       0.3090363236      -0.2658860998     0.1758297976      
4335004410        -0.1010246611     -0.02070103033    -2.452826813      -4.919030853      
                  -2.452826813      -4.919030853      0.2291446146      0.04367644913     
4420004320        -0.008277718107   0.08264265938     -3.078855515      4.479496737       
                  -3.078855515      4.479496737       -0.1641918694     -0.250745365      
4505004230        0.03779559201     -0.05682715834    5.447174083       0.4887620168      
                  5.447174083       0.4887620168      -0.1964483067     0.2589841811      
4590004140        -0.09871966459    -0.05164664218    -2.184428883      -4.961551354      
                  -2.184428883      -4.961551354      0.2290244584      -0.05826750261    
4675004050        -0.04571831002    0.07068161301     -3.181288047      4.359572512       
                  -3.181288047      4.359572512       -0.2555019129     -0.1919734667     
4760003960        0.05581755852     -0.01594542158    5.297914314       0.7283073868      
                  5.297914314       0.7283073868      -0.08541197953    0.311357174       
4845003870        -0.07630814778    -0.06799923867    -1.94074545       -5.011543514      
                  -1.94074545       -5.011543514      0.2000153881      -0.155163724      
4930003780        -0.07696764411    0.04000048214     -3.364672517      4.182024016       
                  -3.364672517      4.182024016       -0.3195205349     -0.09920405743    
5015003690        0.04872344427     0.03797879641     5.173913799       0.9656464795      
                  5.173913799       0.9656464795      0.03666437527     0.3349750955      
5100003600        -0.05147599957    -0.05484272857    -1.767895044      -5.087532442      
                  -1.767895044      -5.087532442      0.1193324276      -0.2294688701     
5185003510        -0.09103225674    0.003822340768    -3.422214492      3.959770286       
                  -3.422214492      3.959770286       -0.3499963681     0.01144207796     
5270003420        0.01446026943     0.07178942128     5.03917777        1.201434758       
                  5.03917777        1.201434758       0.1498793468      0.2990061518      
5355003330        -0.04237183095    -0.02217276286    -1.652622257      -5.149405994      
                  -1.652622257      -5.149405994      -0.002203203357   -0.2792555095     
5440003240        -0.07102075086    -0.03999378551    -3.36647458       3.794701389       
                  -3.36647458       3.794701389       -0.3198043935     0.1319778534      
5525003150        -0.01852288082    0.06037191107     5.024516172       1.314315114       
                  5.024516172       1.314315114       0.2688537939      0.2006516915      
5610003060        -0.0395640905     0.02813182489     -1.598834391      -4.991192608      
                  -1.598834391      -4.991192608      -0.1363347302     -0.2683034519     
5695002970        -0.01331819851    -0.04218956102    -3.368339458      3.576847347       
                  -3.368339458      3.576847347       -0.2208163212     0.2534691607      
5780002880        -0.02608836194    0.02272200988     4.976830245       1.40484563        
                  4.976830245       1.40484563        0.3293136788      0.05729148728     
5865002790        -0.07706074806    0.07599349269     -1.496201107      -4.725108717      
                  -1.496201107      -4.725108717      -0.2730885905     -0.1854501385     
5950002700        0.03667991974     0.005681822654    -3.397989125      3.366818431       
                  -3.397989125      3.366818431       -0.0826044091     0.3332230869      
6035002610        -0.0185390255     -0.04052026176    4.761629652       1.303248213       
                  4.761629652       1.303248213       0.2979965639      -0.09864311138    
6120002520        -0.1452385653     0.07349349472     -1.386841742      -4.469393563      
                  -1.386841742      -4.469393563      -0.358678433      -0.04558055548    
6205002430        0.072433386       0.0877985092      -3.289668779      3.169931807       
                  -3.289668779      3.169931807       0.1027095142      0.3366821923      
6290002340        0.06046408894     -0.09251263274    4.54265465        1.159720555       
                  4.54265465        1.159720555       0.1945327865      -0.2488284264     
6375002250        -0.2169227846     0.008474703373    -1.288215076      -4.165889351      
                  -1.288215076      -4.165889351      -0.3769169397     0.1298389589      
6460002160        0.02939991704     0.2061696638      -3.021392909      2.953946575       
                  -3.021392909      2.953946575       0.2688932433      0.2707600616      
6545002070        0.1748827856      -0.05830239768    4.098656201       1.064093186       
                  4.098656201       1.064093186       0.02835674436     -0.3171569747     
6630001980        -0.2063937796     -0.1097648868     -1.122798437      -3.832075026      
                  -1.122798437      -3.832075026      -0.2975074673     0.3000726445      
6715001890        -0.07136660812    0.2722861489      -2.704747549      2.626839005       
                  -2.704747549      2.626839005       0.3792108151      0.1531487017      
6800001800        0.2652522916      0.05007783255     3.620632208       1.090548209       
                  3.620632208       1.090548209       -0.1321894485     -0.3073414873     
6885001710        -0.1041013219     -0.2410384513     -0.8551826488     -3.486319102      
                  -0.8551826488     -3.486319102      -0.1830298668     0.3827684724      
6970001620        -0.205410554      0.2332709243      -2.618015221      2.244372192       
                  -2.618015221      2.244372192       0.4206198575      0.02162668023     
7055001530        0.2623133563      0.2064062956      3.221768032       1.239504858       
                  3.221768032       1.239504858       -0.2560863159     -0.2722286252     
7140001440        0.08081071089     -0.3002332426     -0.5269756327     -3.216179559      
                  -0.5269756327     -3.216179559      -0.06717290013    0.4473004158      
7225001350        -0.2944151629     0.09093638255     -2.557941125      1.879701345       
                  -2.557941125      1.879701345       0.4469073734      -0.1053109606     
7310001260        0.1724114189      0.3398631355      2.841117786       1.135631357       
                  2.841117786       1.135631357       -0.3531156474     -0.1852755063     
7395001170        0.285186977       -0.2287118527     -0.2688404346     -2.948190894      
                  -0.2688404346     -2.948190894      0.08299590994     0.4776098923      
7480001080        -0.2974505083     -0.1075940272     -2.406920349      1.630683534       
                  -2.406920349      1.630683534       0.3940634222      -0.2387697935     
7565000990        -0.03067316749    0.4035961811      2.631049016       1.16357824        
                  2.631049016       1.16357824        -0.4258767231     -0.08285458972    
7650000900        0.4010374209      -0.05625322634    -0.04961766928    -2.619189008      
                  -0.04961766928    -2.619189008      0.2120435197      0.4391556565      
7735000810        -0.1613667639     -0.3068545731     -2.297883542      1.344398715       
                  -2.297883542      1.344398715       0.316933057       -0.3460759212     
7820000720        -0.205511523      0.3172390993      2.277621913       1.235353659       
                  2.277621913       1.235353659       -0.4046912764     0.02499094799     
7905000630        0.4151714747      0.1387161033      0.09152008438     -2.302451691      
                  0.09152008438     -2.302451691      0.325398231       0.3618752831      
7990000540        0.06624991968     -0.3908210707     -2.217909592      0.9301839036      
                  -2.217909592      0.9301839036      0.2210886372      -0.4070693218     
8075000450        -0.3492427117     0.1207184433      1.906847314       1.432788705       
                  1.906847314       1.432788705       -0.3871450019     0.1159447054      
8160000360        0.2971384853      0.3116266765      0.2495938669      -2.182418812      
                  0.2495938669      -2.182418812      0.3973891946      0.2799849996      
8245000270        0.2558867082      -0.3342104235     -2.022425102      0.6175507584      
                  -2.022425102      0.6175507584      0.1149064414      -0.4390509584     
8330000180        -0.3617622319     -0.1287060043     1.618746082       1.480296337       
                  1.618746082       1.480296337       -0.3365729342     0.190031063       
8415000090        0.07914498575     0.3918535512      0.3970703883      -1.9836824        
                  0.3970703883      -1.9836824        0.4374179392      0.1694538038      
8500000000        0.3855538181      -0.1807983006     -1.827463293      0.4350226401      
                  -1.827463293      0.4350226401      -0.0008968062032  -0.4602096687     
