! RsaToolbox (C) 2013 Rohde & Schwarz America
! 
! Number of points: 101
! Number of ports: 2
! Balanced ports?: 0
! 
! 
# Hz S RI R 50
9000              1.003274817       -0.01590527041    7.35730203e-05    -2.453135561e-05  
                  7.35730203e-05    -2.453135561e-05  1.012310614       -0.02277456895    
85008910          0.0007167726928   0.1554146859      3.183279439       5.458031571       
                  3.183279439       5.458031571       -0.09227188677    -0.1159420057     
170008820         0.1397726243      -0.04162362921    3.164908563       -5.201194934      
                  3.164908563       -5.201194934      -0.02077387554    0.1717401767      
255008730         -0.1734550925     -0.07480800733    -6.032586589      -0.1553766842     
                  -6.032586589      -0.1553766842     0.07762920861     -0.02661228452    
340008640         -0.06356827544    0.1665770044      2.649873931       5.325701539       
                  2.649873931       5.325701539       -0.1268520555     -0.05397683021    
425008550         0.1565482463      -0.0455327166     3.363112518       -4.85588164       
                  3.363112518       -4.85588164       0.0165470406      0.1028577067      
510008460         -0.09992680041    -0.1613229848     -5.884401846      -0.6263072565     
                  -5.884401846      -0.6263072565     0.07081007662     -0.07979821333    
595008370         -0.1059595052     0.1369639408      2.233386947       5.396993302       
                  2.233386947       5.396993302       -0.08388555161    -0.01215702185    
680008280         0.2016138614      0.03356133598     3.633920348       -4.570842159      
                  3.633920348       -4.570842159      0.0921608733      0.07539567732     
765008190         0.0102513754      -0.160644314      -5.711626428      -1.079641177      
                  -5.711626428      -1.079641177      0.06021021357     -0.06072546018    
850008100         -0.1795766425     0.1097808972      1.885403697       5.494834339       
                  1.885403697       5.494834339       -0.07183491128    0.06498782384     
935008010         0.1430542672      0.1218615083      3.915920901       -4.229279077      
                  3.915920901       -4.229279077      0.1021402285      0.03889365212     
1020007920        0.07477596554     -0.1509073672     -5.571032408      -1.421099666      
                  -5.571032408      -1.421099666      -0.004826185876   -0.07578232083    
1105007830        -0.2225227196     -0.008703213175   1.50200885        5.585881453       
                  1.50200885        5.585881453       -0.06316561934    0.07525273184     
1190007740        0.06981805541     0.1373641642      4.156424997       -3.861184153      
                  4.156424997       -3.861184153      0.1243883231      -0.04246474163    
1275007650        0.1621493132      -0.1063273923     -5.453017464      -1.794556177      
                  -5.453017464      -1.794556177      -0.03012662922    -0.08924590238    
1360007560        -0.1605307406     -0.09936276536    1.068808713       5.611442023       
                  1.068808713       5.611442023       -0.005563600846   0.1019748301      
1445007470        0.0006411805619   0.1382141884      4.374047039       -3.544631581      
                  4.374047039       -3.544631581      0.1472032704      -0.08822612897    
1530007380        0.1809656547      -0.01030382802    -5.294742464      -2.146179968      
                  -5.294742464      -2.146179968      -0.06939226426    -0.06459702056    
1615007290        -0.09165109109    -0.1201934347     0.6523180883      5.565943827       
                  0.6523180883      5.565943827       0.0233608388      0.1423947987      
1700007200        -0.08617279662    0.0935402731      4.62248096        -3.254130351      
                  4.62248096        -3.254130351      0.110906022       -0.1335253616     
1785007110        0.1234633184      0.03067332727     -5.0509545        -2.47942102       
                  -5.0509545        -2.47942102       -0.1320558571     -0.06417837639    
1870007020        -0.02128712697    -0.1307285256     0.2627291445      5.570803272       
                  0.2627291445      5.570803272       0.06571200273     0.1322468575      
1955006930        -0.1024160809     0.01925561965     4.824143191       -2.907723767      
                  4.824143191       -2.907723767      0.08931977882     -0.1939942509     
2040006840        0.07841692376     0.035181982       -4.815345943      -2.755538706      
                  -4.815345943      -2.755538706      -0.1549691119     -0.04162977536    
2125006750        0.03401756916     -0.08781434321    -0.1438528111     5.597464377       
                  -0.1438528111     5.597464377       0.1309416821      0.1369700808      
2210006660        -0.08614627278    -0.0007309326418  4.91016692        -2.558049949      
                  4.91016692        -2.558049949      0.04800381655     -0.2182573216     
2295006570        0.02713753502     0.03021913149     -4.582915838      -3.075907747      
                  -4.582915838      -3.075907747      -0.1863905934     0.01525010663     
2380006480        0.02354281848     -0.04832619937    -0.5012230321     5.529080113       
                  -0.5012230321     5.529080113       0.1669536447      0.1140527481      
2465006390        -0.08144888578    -0.01303639103    4.979661747       -2.244921105      
                  4.979661747       -2.244921105      -0.01969122636    -0.2598312266     
2550006300        0.01224166512     -0.006418949957   -4.273062131      -3.408779111      
                  -4.273062131      -3.408779111      -0.1912555567     0.06037352107     
2635006210        0.01781729615     -0.04335141643    -0.8228544126     5.466324637       
                  -0.8228544126     5.466324637       0.2136171814      0.06420655024     
2720006120        -0.0777511767     -0.004134298244   5.049997645       -1.877367167      
                  5.049997645       -1.877367167      -0.09063561121    -0.264909269      
2805006030        0.02202084988     -0.00704158364    -3.990483164      -3.646119605      
                  -3.990483164      -3.646119605      -0.1632545854     0.1233166522      
2890005940        0.01242371167     -0.03946505257    -1.146577477      5.335508006       
                  -1.146577477      5.335508006       0.2323201244      0.008965175927    
2975005850        -0.09346267404    0.001057290233    5.07498653        -1.423707463      
                  5.07498653        -1.423707463      -0.1622995718     -0.2480616933     
3060005760        0.02628755965     0.005514087137    -3.700495374      -3.975156253      
                  -3.700495374      -3.975156253      -0.1191390499     0.1687154616      
3145005670        0.02884655825     -0.0513537024     -1.535852774      5.182229818       
                  -1.535852774      5.182229818       0.2318861111      -0.07160920946    
3230005580        -0.1045820116     -0.02384480247    5.178379341       -1.028535448      
                  5.178379341       -1.028535448      -0.2272008673     -0.2079306371     
3315005490        0.0215543049      0.03167899255     -3.439897449      -4.183061222      
                  -3.439897449      -4.183061222      -0.04608338817    0.2027679303      
3400005400        0.05726068442     -0.04008449909    -1.865813281      5.015037938       
                  -1.865813281      5.015037938       0.2018988048      -0.1449504821     
3485005310        -0.106094639      -0.05605417855    5.265882737       -0.684429396      
                  5.265882737       -0.684429396      -0.2821389965     -0.1298435288     
3570005220        -0.009439586353   0.05513730831     -3.27264067       -4.34497888       
                  -3.27264067       -4.34497888       0.03358646248     0.2109387269      
3655005130        0.07061026284     -0.009575526071   -2.038043946      4.878893841       
                  -2.038043946      4.878893841       0.1350287422      -0.2088370695     
3740005040        -0.08971545117    -0.09018640382    5.243733553       -0.3554965436     
                  5.243733553       -0.3554965436     -0.3119409505     -0.03979353516    
3825004950        -0.05074515286    0.05035571224     -3.0234634        -4.435336936      
                  -3.0234634        -4.435336936      0.1136376596      0.1764493476      
3910004860        0.07431925694     0.02409530663     -2.4178654        4.662103633       
                  -2.4178654        4.662103633       0.05090723612     -0.2591673558     
3995004770        -0.04735693247    -0.1157544795     5.244988084       -0.07822486946    
                  5.244988084       -0.07822486946    -0.3053763926     0.06525928263     
4080004680        -0.08362060342    0.02757420071     -2.754548393      -4.57697916       
                  -2.754548393      -4.57697916       0.1910971469      0.1285515354      
4165004590        0.05739042541     0.06148847336     -2.673307243      4.510750305       
                  -2.673307243      4.510750305       -0.04615769113    -0.2720632631     
4250004500        -0.003878405476   -0.1022820156     5.304902581       0.1494274891      
                  5.304902581       0.1494274891      -0.2657163245     0.1757512965      
4335004410        -0.1104759132     0.001887395504    -2.509919271      -4.652455323      
                  -2.509919271      -4.652455323      0.2302640628      0.04476150744     
4420004320        0.01616644963     0.08346930852     -2.823534732      4.396871714       
                  -2.823534732      4.396871714       -0.1637541163     -0.2510854957     
4505004230        0.0282377064      -0.08055113613    5.21944032        0.2830078724      
                  5.21944032        0.2830078724      -0.1968765139     0.259095914       
4590004140        -0.1203339448     -0.0335404639     -2.261030163      -4.64788319       
                  -2.261030163      -4.64788319       0.2298250527      -0.05747066351    
4675004050        -0.01997221744    0.08256869628     -2.864928778      4.26492399        
                  -2.864928778      4.26492399        -0.255458226      -0.1915426174     
4760003960        0.0588164852      -0.04530765961    5.049793529       0.4890057628      
                  5.049793529       0.4890057628      -0.08668507249    0.3112537988      
4845003870        -0.1063096688     -0.05911861555    -2.028016469      -4.647622858      
                  -2.028016469      -4.647622858      0.2004796666      -0.1548227154     
4930003780        -0.05632689656    0.06685329875     -2.989152643      4.063972729       
                  -2.989152643      4.063972729       -0.3197267154     -0.09985906091    
5015003690        0.06592772488     0.007755663261    4.900688971       0.7034938655      
                  4.900688971       0.7034938655      0.0353603159      0.3348693571      
5100003600        -0.08817620021    -0.06164055525    -1.874939925      -4.638018544      
                  -1.874939925      -4.638018544      0.1196983359      -0.2293149943     
5185003510        -0.08314274599    0.03981073991     -3.010005001      3.822130116       
                  -3.010005001      3.822130116       -0.3498356499     0.01121193995     
5270003420        0.0437084336      0.04896991508     4.741738914       0.910022411       
                  4.741738914       0.910022411       0.1495756811      0.3000616862      
5355003330        -0.07618103805    -0.04633773293    -1.775229923      -4.613415972      
                  -1.775229923      -4.613415972      -0.002031535758   -0.2793213032     
5440003240        -0.07967138295    -0.002057936344   -2.961016962      3.641479524       
                  -2.961016962      3.641479524       -0.3198717173     0.1319952385      
5525003150        0.01894521253     0.05204660311     4.686914116       1.000131197       
                  4.686914116       1.000131197       0.2689921484      0.2017543179      
5610003060        -0.0588076708     -0.008970102184   -1.697470753      -4.451184356      
                  -1.697470753      -4.451184356      -0.1366430999     -0.2680481629     
5695002970        -0.03758964264    -0.01133509582    -2.948109908      3.415012802       
                  -2.948109908      3.415012802       -0.2215491544     0.2528946517      
5780002880        0.01421052373     0.03298798887     4.583285284       1.060527081       
                  4.583285284       1.060527081       0.329669033       0.05827950903     
5865002790        -0.07876951051    0.03560700502     -1.562798631      -4.223042326      
                  -1.562798631      -4.223042326      -0.2721862941     -0.1856530795     
5950002700        0.001648724838    0.02416672693     -2.968775415      3.203120661       
                  -2.968775415      3.203120661       -0.0830106503     0.3332645276      
6035002610        0.01298381329     -0.01212750457    4.344534368       0.9796172472      
                  4.344534368       0.9796172472      0.2988930194      -0.09720908193    
6120002520        -0.1296066687     0.03820259186     -1.416869053      -4.007728221      
                  -1.416869053      -4.007728221      -0.358433719      -0.04573196826    
6205002430        0.03328320126     0.08975804563     -2.882621675      3.000899405       
                  -2.882621675      3.000899405       0.1021550906      0.3378441114      
6290002340        0.07539575962     -0.0545649375     4.12612395        0.895498971       
                  4.12612395        0.895498971       0.1955659005      -0.2479269668     
6375002250        -0.1893306722     -0.01541280229    -1.289300773      -3.781513996      
                  -1.289300773      -3.781513996      -0.3761949565     0.1295881826      
6460002160        -0.0004215937189  0.1928217728      -2.708373561      2.809657995       
                  -2.708373561      2.809657995       0.2709948768      0.2725608616      
6545002070        0.1737055826      -0.02545021644    3.783366853       0.8602523278      
                  3.783366853       0.8602523278      0.02904017709     -0.3202535813     
6630001980        -0.1770188756     -0.1202755321     -1.13098474       -3.534335442      
                  -1.13098474       -3.534335442      -0.2988804925     0.3023062201      
6715001890        -0.09011274022    0.2535846423      -2.479206904      2.509419034       
                  -2.479206904      2.509419034       0.3840384158      0.1564254913      
6800001800        0.2510909097      0.08023504915     3.375856524       0.9573476808      
                  3.375856524       0.9573476808      -0.131325355      -0.3089743462     
6885001710        -0.0764345617     -0.2361848414     -0.8230991541     -3.251972787      
                  -0.8230991541     -3.251972787      -0.1883693184     0.3882114461      
6970001620        -0.2159143708     0.2106123934      -2.442520959      2.133373762       
                  -2.442520959      2.133373762       0.4235231236      0.023829474       
7055001530        0.2447663138      0.2198366898      3.048981966       1.114425288       
                  3.048981966       1.114425288       -0.2571925996     -0.2714656855     
7140001440        0.09640205926     -0.2881143646     -0.5464210748     -3.063059654      
                  -0.5464210748     -3.063059654      -0.06354839704    0.4542321643      
7225001350        -0.2938308956     0.07822058847     -2.435241301      1.83398541        
                  -2.435241301      1.83398541        0.4529217267      -0.1032097875     
7310001260        0.1549846997      0.3490087187      2.749525613       1.08436354        
                  2.749525613       1.08436354        -0.3588130589     -0.1852356533     
7395001170        0.2914002092      -0.2136933161     -0.2567310345     -2.838946893      
                  -0.2567310345     -2.838946893      0.07703166161     0.4824536432      
7480001080        -0.2890552784     -0.1246223154     -2.293084767      1.555849024       
                  -2.293084767      1.555849024       0.3949957395      -0.2370801265     
7565000990        -0.04495411049    0.3956341826      2.511518329       1.098034429       
                  2.511518329       1.098034429       -0.4253000104     -0.08456804296    
7650000900        0.4004762848      -0.04557463364    -0.06156175104    -2.526350333      
                  -0.06156175104    -2.526350333      0.2122670771      0.4391987347      
7735000810        -0.1521261788     -0.310598311      -2.227192606      1.308891573       
                  -2.227192606      1.308891573       0.3175586937      -0.3464105224     
7820000720        -0.2146111272     0.3106651952      2.210692842       1.201756722       
                  2.210692842       1.201756722       -0.4065087421     0.02479276806     
7905000630        0.4108500677      0.1455371441      0.0946251295      -2.246545276      
                  0.0946251295      -2.246545276      0.3243477375      0.3628482884      
7990000540        0.07431523453     -0.3903718169     -2.157672904      0.8975859666      
                  -2.157672904      0.8975859666      0.2218141827      -0.4074593977     
8075000450        -0.3534449739     0.1122509372      1.855589459       1.40111358        
                  1.855589459       1.40111358        -0.3884683221     0.1188350823      
8160000360        0.2918445383      0.317647349       0.2494706121      -2.142250595      
                  0.2494706121      -2.142250595      0.3996265714      0.2802530991      
8245000270        0.2625018005      -0.3338685332     -2.002209885      0.6010319602      
                  -2.002209885      0.6010319602      0.1145109989      -0.4444807076     
8330000180        -0.3649269773     -0.1385183424     1.602568403       1.472577388       
                  1.602568403       1.472577388       -0.3434242145     0.1933339201      
8415000090        0.07297846259     0.3938291659      0.3815477084      -1.961600376      
                  0.3815477084      -1.961600376      0.4360290211      0.1674328073      
8500000000        0.385127915       -0.1821241269     -1.807850819      0.4342988161      
                  -1.807850819      0.4342988161      -0.004378112998   -0.4607791564     
