! RsaToolbox (C) 2013 Rohde & Schwarz America
! 
! Number of points: 101
! Number of ports: 2
! Balanced ports?: 0
! 
! 
# Hz S RI R 50
9000              1.005244653       -0.01626112057    0.0001042607783   -4.128415434e-05  
                  0.0001042607783   -4.128415434e-05  1.013503203       -0.02394878719    
85008910          0.001363714991    0.156556577       3.189137465       5.471872091       
                  3.189137465       5.471872091       -0.09241511402    -0.1158556928     
170008820         0.1405681663      -0.04252709895    3.1710103         -5.209285658      
                  3.1710103         -5.209285658      -0.02048670435    0.1716913083      
255008730         -0.1743051374     -0.07520722757    -6.04119823       -0.1576891306     
                  -6.04119823       -0.1576891306     0.07769326807     -0.0265836805     
340008640         -0.06353821929    0.1677210007      2.652671229       5.334280286       
                  2.652671229       5.334280286       -0.1266295765     -0.05393496201    
425008550         0.1574170063      -0.04579513114    3.369332191       -4.860974577      
                  3.369332191       -4.860974577      0.01662750194     0.1028960664      
510008460         -0.1005351172     -0.1619934375     -5.892074131      -0.6294906748     
                  -5.892074131      -0.6294906748     0.0708702699      -0.07970852511    
595008370         -0.1064930342     0.137952513       2.23451428        5.405403812       
                  2.23451428        5.405403812       -0.08393380555    -0.01211102253    
680008280         0.2025517308      0.03366345175     3.641878842       -4.574497979      
                  3.641878842       -4.574497979      0.092088833       0.07545186443     
765008190         0.009927688834    -0.161682584      -5.718884904      -1.084634973      
                  -5.718884904      -1.084634973      0.06027014728     -0.06062998035    
850008100         -0.1803514669     0.110297635       1.882727239       5.503167396       
                  1.882727239       5.503167396       -0.07179880686    0.06494043565     
935008010         0.1439231644      0.1224396697      3.924290985       -4.231351078      
                  3.924290985       -4.231351078      0.1021913566      0.03887960209     
1020007920        0.07500828686     -0.1519157295     -5.577279527      -1.428149774      
                  -5.577279527      -1.428149774      -0.004805546559   -0.07568469517    
1105007830        -0.2234196724     -0.008597537054   1.501382867       5.593001089       
                  1.501382867       5.593001089       -0.06308363187    0.07524939297     
1190007740        0.07026241334     0.13826699        4.170369563       -3.858416844      
                  4.170369563       -3.858416844      0.1242506818      -0.04250148989    
1275007650        0.1628643958      -0.1070665514     -5.458898948      -1.804542403      
                  -5.458898948      -1.804542403      -0.03009813433    -0.08927194702    
1360007560        -0.1614297529     -0.09977896073    1.062463315       5.621086904       
                  1.062463315       5.621086904       -0.005628047275   0.1018258132      
1445007470        0.0006266483114   0.1393885483      4.383950757       -3.545516037      
                  4.383950757       -3.545516037      0.1471774774      -0.08835077545    
1530007380        0.1822453961      -0.01064965601    -5.298824064      -2.157682487      
                  -5.298824064      -2.157682487      -0.06927907037    -0.06460009421    
1615007290        -0.09252769947    -0.1215214168     0.6435891839      5.576978822       
                  0.6435891839      5.576978822       0.02314804445     0.1421693776      
1700007200        -0.08690422349    0.09475521114     4.635057652       -3.251772518      
                  4.635057652       -3.251772518      0.1108669209      -0.1335685402     
1785007110        0.1249972352      0.0311522227      -5.054453613      -2.494130963      
                  -5.054453613      -2.494130963      -0.1319952654     -0.06414887015    
1870007020        -0.021347642      -0.1325445349     0.2516576823      5.581138817       
                  0.2516576823      5.581138817       0.06574066679     0.13228323        
1955006930        -0.1038965163     0.01988776201     4.83937098        -2.901581801      
                  4.83937098        -2.901581801      0.08935367208     -0.1940020811     
2040006840        0.07991887503     0.03653480799     -4.819245067      -2.773331014      
                  -4.819245067      -2.773331014      -0.1549331555     -0.04161727061    
2125006750        0.03485225122     -0.08953931739    -0.1582456768     5.609076449       
                  -0.1582456768     5.609076449       0.1309366973      0.1369885034      
2210006660        -0.08818470617    -0.0009256149089  4.928919725       -2.550455023      
                  4.928919725       -2.550455023      0.04810819816     -0.2181932617     
2295006570        0.0277788492      0.03244562689     -4.586972228      -3.096802069      
                  -4.586972228      -3.096802069      -0.186254019      0.01527927356     
2380006480        0.02547325942     -0.04963149763    -0.5190767887     5.542865184       
                  -0.5190767887     5.542865184       0.1669160895      0.1139613247      
2465006390        -0.08364015362    -0.01442993807    5.002444627       -2.233890497      
                  5.002444627       -2.233890497      -0.01961242309    -0.2597064701     
2550006300        0.01191232471     -0.003854226874   -4.277604873      -3.432282418      
                  -4.277604873      -3.432282418      -0.1909803918     0.06081713123     
2635006210        0.02054267151     -0.04375209045    -0.8460361536     5.481717464       
                  -0.8460361536     5.481717464       0.2135580062      0.06423199289     
2720006120        -0.07927468264    -0.006769996502   5.075476028       -1.864424521      
                  5.075476028       -1.864424521      -0.09043525414    -0.2648570846     
2805006030        0.02038556963     -0.004586947578   -3.993517488      -3.674162901      
                  -3.993517488      -3.674162901      -0.1631784514     0.1233701091      
2890005940        0.01553096411     -0.03835262224    -1.175902118      5.353995551       
                  -1.175902118      5.353995551       0.2322070509      0.009075641645    
2975005850        -0.09389114636    -0.002248141518   5.102206421       -1.410306727      
                  5.102206421       -1.410306727      -0.1622284562     -0.2477444753     
3060005760        0.02338411065     0.006820153237    -3.698995086      -4.007820423      
                  -3.698995086      -4.007820423      -0.1189749796     0.1687460399      
3145005670        0.03108652244     -0.04854964697    -1.569924774      5.19921345        
                  -1.569924774      5.19921345        0.2319186811      -0.0715794983     
3230005580        -0.1033179026     -0.02722016955    5.207259202       -1.010442819      
                  5.207259202       -1.010442819      -0.2268399435     -0.2081367926     
3315005490        0.01773830541     0.03156304407     -3.433870685      -4.224013709      
                  -3.433870685      -4.224013709      -0.04604397035    0.2026559807      
3400005400        0.05863600464     -0.03587833011    -1.909774805      5.033165475       
                  -1.909774805      5.033165475       0.2017928314      -0.1448019342     
3485005310        -0.1029303446     -0.05885760204    5.300063912       -0.6589196704     
                  5.300063912       -0.6589196704     -0.2821228014     -0.1298387593     
3570005220        -0.01348467772    0.05270012858     -3.260885861      -4.396527546      
                  -3.260885861      -4.396527546      0.03347055194     0.2107620092      
3655005130        0.06996290345     -0.004466213695   -2.091711932      4.897105177       
                  -2.091711932      4.897105177       0.1349496843      -0.2085272143     
3740005040        -0.08471197481    -0.0914036831     5.282495051       -0.3185663366     
                  5.282495051       -0.3185663366     -0.3119635874     -0.03972692096    
3825004950        -0.05385576744    0.04498848145     -3.003041927      -4.504139133      
                  -3.003041927      -4.504139133      0.1134665186      0.1764654268      
3910004860        0.07014708574     0.02943641742     -2.488423523      4.679066372       
                  -2.488423523      4.679066372       0.0507766197      -0.2587979609     
3995004770        -0.04061579168    -0.1138988756     5.298077179       -0.02309422819    
                  5.298077179       -0.02309422819    -0.3054053179     0.06522794334     
4080004680        -0.08403615052    0.01944530489     -2.730848292      -4.6581914        
                  -2.730848292      -4.6581914        0.1909420807      0.1284835637      
4165004590        0.05011763504     0.0651032659      -2.749419984      4.529820994       
                  -2.749419984      4.529820994       -0.04619836893    -0.2719248041     
4250004500        0.00254369892     -0.09635861689    5.366640705       0.2138615719      
                  5.366640705       0.2138615719      -0.2658170682     0.1757206874      
4335004410        -0.1068101941     -0.00724581983    -2.480602212      -4.749027146      
                  -2.480602212      -4.749027146      0.2301339324      0.0443777455      
4420004320        0.006281994266    0.08370478365     -2.919311904      4.417537932       
                  -2.919311904      4.417537932       -0.1637798302     -0.2509976923     
4505004230        0.03262739565     -0.07050869992    5.29758029        0.3660789441      
                  5.29758029        0.3660789441      -0.1968190177     0.2590348465      
4590004140        -0.1118846738     -0.04154595356    -2.226410375      -4.762467789      
                  -2.226410375      -4.762467789      0.2297088387      -0.05750498405    
4675004050        -0.03089561301    0.07763125903     -2.984042583      4.293612568       
                  -2.984042583      4.293612568       -0.2553462738     -0.1913709268     
4760003960        0.05834154319     -0.03288754786    5.137739692       0.5831278557      
                  5.137739692       0.5831278557      -0.08664221914    0.3112271214      
4845003870        -0.09355061243    -0.06346207517    -1.987433038      -4.784295785      
                  -1.987433038      -4.784295785      0.2005076935      -0.1549065419     
4930003780        -0.06525573359    0.05598303547     -3.130945094      4.101409319       
                  -3.130945094      4.101409319       -0.3196794927     -0.09980623735    
5015003690        0.05943217271     0.02077690712     4.998676655       0.8084078479      
                  4.998676655       0.8084078479      0.03552687148     0.3347760893      
5100003600        -0.072410403      -0.05993434804    -1.829455846      -4.808777174      
                  -1.829455846      -4.808777174      0.1196653892      -0.2293456123     
5185003510        -0.08688267364    0.0248415589      -3.1646062        3.869153815       
                  -3.1646062        3.869153815       -0.3498002783     0.01131953016     
5270003420        0.03168908885     0.05896695807     4.849573484       1.02223905        
                  4.849573484       1.02223905        0.1496583076      0.2999465608      
5355003330        -0.06139128557    -0.03660171745    -1.729159704      -4.815376257      
                  -1.729159704      -4.815376257      -0.001963638165   -0.2793239154     
5440003240        -0.0769183318     -0.01794561601    -3.112969815      3.692295085       
                  -3.112969815      3.692295085       -0.3197328213     0.1319426813      
5525003150        0.003354821599    0.05622493247     4.809206553       1.120618984       
                  4.809206553       1.120618984       0.2689393345      0.2016476792      
5610003060        -0.04970594627    0.006103225844    -1.660404465      -4.651787221      
                  -1.660404465      -4.651787221      -0.1366791799     -0.2679970666     
5695002970        -0.02842505716    -0.02487289994    -3.10027532       3.470959904       
                  -3.10027532       3.470959904       -0.2214593076     0.2529354439      
5780002880        -0.002811401904   0.02962856236     4.727796726       1.190746109       
                  4.727796726       1.190746109       0.329646998       0.0581797248      
5865002790        -0.0770707723     0.05225671141     -1.538297407      -4.406676383      
                  -1.538297407      -4.406676383      -0.2722155885     -0.1855858883     
5950002700        0.0153967754      0.01568405209     -3.126678732      3.261838598       
                  -3.126678732      3.261838598       -0.08297278944    0.3332167042      
6035002610        -0.000422639618   -0.02257766979    4.495828623       1.097040327       
                  4.495828623       1.097040327       0.2987437176      -0.09729764662    
6120002520        -0.1350019889     0.05317073103     -1.401275663      -4.174384296      
                  -1.401275663      -4.174384296      -0.3584394883     -0.04565180697    
6205002430        0.04870400684     0.08836599467     -3.030305962      3.056044331       
                  -3.030305962      3.056044331       0.1021558289      0.3376926334      
6290002340        0.06851735649     -0.06910712968    4.27322292        0.9951009364      
                  4.27322292        0.9951009364      0.1957182162      -0.247372102      
6375002250        -0.1991818534     -0.005050593195   -1.281290916      -3.923493645      
                  -1.281290916      -3.923493645      -0.3761967758     0.1296535392      
6460002160        0.01206810234     0.1973905572      -2.831254666      2.859634545       
                  -2.831254666      2.859634545       0.2709167669      0.2725659298      
6545002070        0.1738848609      -0.03941646445    3.905494129       0.9385525426      
                  3.905494129       0.9385525426      0.0289775616      -0.3202489986     
6630001980        -0.1888126064     -0.1156164483     -1.126997267      -3.653366678      
                  -1.126997267      -3.653366678      -0.2987186223     0.3022567832      
6715001890        -0.08215687763    0.2615634262      -2.575362471      2.552301927       
                  -2.575362471      2.552301927       0.3839463642      0.1563719757      
6800001800        0.2562154094      0.07003913046     3.469243931       1.023365367       
                  3.469243931       1.023365367       -0.1313541719     -0.3089094885     
6885001710        -0.08705227185    -0.23696254       -0.8167010186     -3.346138747      
                  -0.8167010186     -3.346138747      -0.1889327487     0.3881817955      
6970001620        -0.2125789551     0.2194301354      -2.518801374      2.163541442       
                  -2.518801374      2.163541442       0.4235125243      0.02362745155     
7055001530        0.2513290584      0.2144916664      3.112367117       1.166926055       
                  3.112367117       1.166926055       -0.2571552196     -0.2714469322     
7140001440        0.09035126277     -0.2918257465     -0.5390015015     -3.125381445      
                  -0.5390015015     -3.125381445      -0.06348747574    0.45403728        
7225001350        -0.2941679311     0.08532532238     -2.491583533      1.853833073       
                  -2.491583533      1.853833073       0.4528126006      -0.1032950597     
7310001260        0.1604747204      0.3476542645      2.79058202        1.117767948       
                  2.79058202        1.117767948       -0.3587440466     -0.1849727125     
7395001170        0.2884066725      -0.2185204327     -0.2485366147     -2.885388038      
                  -0.2485366147     -2.885388038      0.07625607599     0.4820475961      
7480001080        -0.2923978173     -0.1190811371     -2.340882956      1.572827642       
                  -2.340882956      1.572827642       0.3949211711      -0.2369585625     
7565000990        -0.03970648996    0.3966756883      2.5486371         1.126922266       
                  2.5486371         1.126922266       -0.4252388018     -0.08508843912    
7650000900        0.4000498223      -0.04954229686    -0.05490444981    -2.557321926      
                  -0.05490444981    -2.557321926      0.2127775125      0.4391477965      
7735000810        -0.1553853781     -0.3087627598     -2.254544884      1.318942938       
                  -2.254544884      1.318942938       0.3176949539      -0.3463495859     
7820000720        -0.2117300049     0.3126885769      2.232902317       1.219701338       
                  2.232902317       1.219701338       -0.4063599311     0.02491677203     
7905000630        0.411788367       0.1429554341      0.09884173529     -2.266255201      
                  0.09884173529     -2.266255201      0.3243303903      0.362798717       
7990000540        0.07127024647     -0.3901240726     -2.180550498      0.9042085214      
                  -2.180550498      0.9042085214      0.2216970487      -0.4072994429     
8075000450        -0.3520260005     0.1149561607      1.871923247       1.415961335       
                  1.871923247       1.415961335       -0.3883068045     0.1188337891      
8160000360        0.2936203548      0.3158990342      0.2540757581      -2.159944336      
                  0.2540757581      -2.159944336      0.3995103186      0.2801504794      
8245000270        0.2607055113      -0.3346451405     -2.016933568      0.6035123477      
                  -2.016933568      0.6035123477      0.1144959452      -0.4443045273     
8330000180        -0.3650091051     -0.1363245715     1.613355608       1.48467354        
                  1.613355608       1.48467354        -0.343491455      0.1935536279      
8415000090        0.07488968405     0.3931431085      0.3858310765      -1.974602386      
                  0.3858310765      -1.974602386      0.4360168854      0.1674379014      
8500000000        0.384325778       -0.1834287824     -1.817584697      0.4381040777      
                  -1.817584697      0.4381040777      -0.004258044359   -0.4606305225     
