! RsaToolbox (C) 2013 Rohde & Schwarz America
! 
! Number of points: 101
! Number of ports: 2
! Balanced ports?: 0
! 
! 
# Hz S RI R 50
9000              0.9936493674      -0.01227569062    7.174706251e-05   -8.286245742e-06  
                  7.174706251e-05   -8.286245742e-06  1.004803647       -0.01976443453    
85008910          -0.009442190498   0.1327601775      3.04272694        5.153867211       
                  3.04272694        5.153867211       -0.0923985723     -0.1163654591     
170008820         0.123305532       -0.02602270696    3.05177476        -5.024990041      
                  3.05177476        -5.024990041      -0.02088558807    0.1718775977      
255008730         -0.1593436825     -0.07001943394    -5.877911532      -0.1178851807     
                  -5.877911532      -0.1178851807     0.07773129302     -0.02667976733    
340008640         -0.06396352632    0.1496559629      2.609523201       5.160880328       
                  2.609523201       5.160880328       -0.1269945382     -0.05417698162    
425008550         0.1412612698      -0.04014681138    3.24550839        -4.752462099      
                  3.24550839        -4.752462099      0.01638480264     0.1030014264      
510008460         -0.08969156925    -0.1505664832     -5.740043703      -0.5542646741     
                  -5.740043703      -0.5542646741     0.07094006169     -0.07984611131    
595008370         -0.09757050503    0.1213910966      2.205359813       5.245984833       
                  2.205359813       5.245984833       -0.08410726694    -0.01228266424    
680008280         0.1878210204      0.03325327287     3.4908486         -4.509346909      
                  3.4908486         -4.509346909      0.09210927457     0.07563048771     
765008190         0.01427994541     -0.1432042233     -5.569081249      -1.016897992      
                  -5.569081249      -1.016897992      0.06034010876     -0.06080265512    
850008100         -0.1697390267     0.1006814437      1.925905907       5.335955707       
                  1.925905907       5.335955707       -0.07207343182    0.06495683847     
935008010         0.130506369       0.1134906785      3.785141215       -4.17312234       
                  3.785141215       -4.17312234       0.1021549819      0.03901340136     
1020007920        0.07045377956     -0.135263486      -5.449148753      -1.344633914      
                  -5.449148753      -1.344633914      -0.004897121267   -0.0760185918     
1105007830        -0.2108046601     -0.01307732094    1.599197221       5.388705926       
                  1.599197221       5.388705926       -0.06350197878    0.07527236714     
1190007740        0.06250546081     0.1219084616      4.032190072       -3.79066184       
                  4.032190072       -3.79066184       0.1243519         -0.04232590682    
1275007650        0.1525575241      -0.09541746413    -5.35545475       -1.667181878      
                  -5.35545475       -1.667181878      -0.03022489196    -0.08929414115    
1360007560        -0.1470063096     -0.09359668334    1.1449595         5.459504113       
                  1.1449595         5.459504113       -0.005818707169   0.1020722356      
1445007470        0.001996243682    0.1197370182      4.225957683       -3.496609767      
                  4.225957683       -3.496609767      0.1473607434      -0.08819942889    
1530007380        0.1641629284      -0.005303390702   -5.197119682      -1.95841199       
                  -5.197119682      -1.95841199       -0.0695675736     -0.06480595671    
1615007290        -0.07805123022    -0.09953504943    0.7450861899      5.367598404       
                  0.7450861899      5.367598404       0.02280182599     0.1425071564      
1700007200        -0.07272825866    0.07549126767     4.415014959       -3.249414686      
                  4.415014959       -3.249414686      0.1110093359      -0.1335378866     
1785007110        0.09944173341     0.02301114896     -4.941886452      -2.284732513      
                  -4.941886452      -2.284732513      -0.1323997541     -0.06438032787    
1870007020        -0.02105044239    -0.1027155968     0.3961750515      5.373963032       
                  0.3961750515      5.373963032       0.06557908771     0.1325791185      
1955006930        -0.07659978328    0.00957053757     4.581512902       -2.94097167       
                  4.581512902       -2.94097167       0.08943832837     -0.1941476837     
2040006840        0.05710074205     0.01124381094     -4.713541724      -2.519158431      
                  -4.713541724      -2.519158431      -0.1552846468     -0.04190492424    
2125006750        0.01754330141     -0.05998878083    0.04112451887     5.39463974        
                  0.04112451887     5.39463974        0.1308384949      0.1372425375      
2210006660        -0.05065805988    0.005015528009    4.620614503       -2.630074272      
                  4.620614503       -2.630074272      0.04817837189     -0.2185636638     
2295006570        0.01865853965     -0.008033877283   -4.487699242      -2.775711334      
                  -4.487699242      -2.775711334      -0.186761355      0.01497754243     
2380006480        -0.01238792986    -0.02685557535    -0.2530071639     5.289665839       
                  -0.2530071639     5.289665839       0.1668274821      0.1141841889      
2465006390        -0.04479629078    0.01492563783     4.623488607       -2.366541401      
                  4.623488607       -2.366541401      -0.01941615331    -0.2602976463     
2550006300        0.02244502455     -0.05112113725    -4.181051023      -3.059352982      
                  -4.181051023      -3.059352982      -0.1914576418     0.06034941148     
2635006210        -0.03701690072    -0.04111788308    -0.4588165105     5.176576456       
                  -0.4588165105     5.176576456       0.2137126577      0.06420747562     
2720006120        -0.05318522032    0.04449641217     4.648724501       -2.041761986      
                  4.648724501       -2.041761986      -0.09050653967    -0.2653890837     
2805006030        0.05792109306     -0.04832476671    -3.931399273      -3.196057572      
                  -3.931399273      -3.196057572      -0.1635236138     0.1230516757      
2890005940        -0.04903038608    -0.06873607338    -0.6705691398     4.993886414       
                  -0.6705691398     4.993886414       0.2325850625      0.00890769494     
2975005850        -0.09219294853    0.06488505009     4.618912998       -1.625546853      
                  4.618912998       -1.625546853      -0.1621468793     -0.2485805648     
3060005760        0.08650648834     -0.0159744664     -3.683701059      -3.427592763      
                  -3.683701059      -3.427592763      -0.1192881464     0.1684962785      
3145005670        -0.01644869621    -0.1058085724     -1.023105258      4.854900087       
                  -1.023105258      4.854900087       0.2324668138      -0.07173488144    
3230005580        -0.1332355278     0.03700018567     4.697621491       -1.279142884      
                  4.697621491       -1.279142884      -0.2268378296     -0.2088406332     
3315005490        0.09956478286     0.04339009589     -3.466232464      -3.485392829      
                  -3.466232464      -3.485392829      -0.04599183095    0.2027783281      
3400005400        0.03707292244     -0.1232856439     -1.231254417      4.64853762        
                  -1.231254417      4.64853762        0.2024599231      -0.1450258984     
3485005310        -0.1725257063     -0.005651988353   4.661097287       -1.0409251        
                  4.661097287       -1.0409251        -0.281947498      -0.1304135312     
3570005220        0.07031037938     0.1105636822      -3.310962437      -3.477196564      
                  -3.310962437      -3.477196564      0.03362308553     0.2112812365      
3655005130        0.09037970596     -0.1075758102     -1.29839258       4.452354998       
                  -1.29839258       4.452354998       0.1358371492      -0.2085245133     
3740005040        -0.1840754148     -0.07259946404    4.533397866       -0.8173316872     
                  4.533397866       -0.8173316872     -0.3117569547     -0.04006714421    
3825004950        0.005150489684    0.1515512509      -3.053178047      -3.39580841       
                  -3.053178047      -3.39580841       0.1139242154      0.177273709       
3910004860        0.1464090769      -0.06816121464    -1.519415576      4.194703614       
                  -1.519415576      4.194703614       0.05181217009     -0.258868544      
3995004770        -0.1578179397     -0.1469733092     4.364499715       -0.6463039357     
                  4.364499715       -0.6463039357     -0.3054555935     0.06538010752     
4080004680        -0.07610909493    0.1553725351      -2.767864485      -3.420165415      
                  -2.767864485      -3.420165415      0.1918907842      0.1288820728      
4165004590        0.1665774256      0.004524688664    -1.719499641      4.021101672       
                  -1.719499641      4.021101672       -0.04581534903    -0.2728996284     
4250004500        -0.09806697889    -0.1835108613     4.314868323       -0.4478814032     
                  4.314868323       -0.4478814032     -0.2656390128     0.1759882127      
4335004410        -0.1575747258     0.1249047333      -2.515202976      -3.448648326      
                  -2.515202976      -3.448648326      0.2309871423      0.04491963982     
4420004320        0.1449108436      0.07716704473     -1.811486077      3.852288279       
                  -1.811486077      3.852288279       -0.1635459291     -0.2514819793     
4505004230        -0.02592515127    -0.1977537732     4.164401907       -0.3191957099     
                  4.164401907       -0.3191957099     -0.1971427732     0.2594343263      
4590004140        -0.2141647897     0.06056542583     -2.260796147      -3.410745075      
                  -2.260796147      -3.410745075      0.2302045172      -0.05730607089    
4675004050        0.09999887827     0.1329027291      -1.839081094      3.652161967       
                  -1.839081094      3.652161967       -0.2556760362     -0.191930898      
4760003960        0.05977961818     -0.1764990616     3.992342071       -0.1250087214     
                  3.992342071       -0.1250087214     -0.08721551732    0.3116230349      
4845003870        -0.2276443349     -0.0135341184     -2.011402363      -3.386486007      
                  -2.011402363      -3.386486007      0.2007553942      -0.1547560069     
4930003780        0.02800433871     0.1652739917      -1.954170671      3.411482872       
                  -1.954170671      3.411482872       -0.3202555739     -0.1002275844     
5015003690        0.1219916441      -0.113383968      3.839069783       0.08866820418     
                  3.839069783       0.08866820418     0.03505172483     0.3354167244      
5100003600        -0.2143294057     -0.07512113096    -1.825542298      -3.33319304       
                  -1.825542298      -3.33319304       0.1199023156      -0.2294918424     
5185003510        -0.04955408558    0.1639080991      -2.006967419      3.153808124       
                  -2.006967419      3.153808124       -0.350584082      0.01101987015     
5270003420        0.1427165826      -0.03524420217    3.697478126       0.3193064103      
                  3.697478126       0.3193064103      0.1492555228      0.3006509613      
5355003330        -0.1802041985     -0.1147061134     -1.686105822      -3.276939065      
                  -1.686105822      -3.276939065      -0.001900613886   -0.2797692956     
5440003240        -0.1003148538     0.1223747484      -2.022871713      2.984643396       
                  -2.022871713      2.984643396       -0.3204813889     0.1317202828      
5525003150        0.1383836481      0.02185643815     3.615363474       0.4290984501      
                  3.615363474       0.4290984501      0.2689769868      0.2023131161      
5610003060        -0.1203555671     -0.1140950318     -1.574394161      -3.190080095      
                  -1.574394161      -3.190080095      -0.1362477849     -0.2685775408     
5695002970        -0.1068694813     0.08958087536     -2.046591352      2.773858641       
                  -2.046591352      2.773858641       -0.2221190647     0.2528632508      
5780002880        0.1270558449      0.06101938464     3.497053482       0.5229014058      
                  3.497053482       0.5229014058      0.3300635102      0.05887870658     
5865002790        -0.08833439438    -0.084644025      -1.406961325      -3.077762956      
                  -1.406961325      -3.077762956      -0.271856837      -0.1863001784     
5950002700        -0.09907110086    0.0826023786      -2.083047353      2.584696206       
                  -2.083047353      2.584696206       -0.08339264723    0.333653806       
6035002610        0.09750344695     0.06215114155     3.296572584       0.5287443473      
                  3.296572584       0.5287443473      0.2997210644      -0.09660120965    
6120002520        -0.08564921064    -0.07213080608    -1.24460438       -2.956953267      
                  -1.24460438       -2.956953267      -0.358231976      -0.04634313422    
6205002430        -0.07880355984    0.09597967298     -2.049448809      2.427355588       
                  -2.049448809      2.427355588       0.102382793       0.3385524293      
6290002340        0.1158039273      0.04773622727     3.134945866       0.5232367703      
                  3.134945866       0.5232367703      0.1967470641      -0.2479227744     
6375002250        -0.107356693      -0.09532073793    -1.118007618      -2.846081745      
                  -1.118007618      -2.846081745      -0.3763135712     0.128991403       
6460002160        -0.09862750623    0.1527197759      -1.969407148      2.285172716       
                  -1.969407148      2.285172716       0.2713230275      0.2730927974      
6545002070        0.1663093136      0.07987284635     2.909918534       0.5363849621      
                  2.909918534       0.5363849621      0.0297762522      -0.3206941843     
6630001980        -0.07460081483    -0.1558271731     -0.9775934221     -2.698776735      
                  -0.9775934221     -2.698776735      -0.299414031      0.3024362734      
6715001890        -0.1582682392     0.1806499169      -1.848749944      2.052205376       
                  -1.848749944      2.052205376       0.3843821992      0.1571417843      
6800001800        0.2040756405      0.1651970137      2.644250368       0.6336718919      
                  2.644250368       0.6336718919      -0.1311191116     -0.3092395057     
6885001710        0.02266773938     -0.2246046725     -0.730137465      -2.52554282       
                  -0.730137465      -2.52554282       -0.1894363382     0.3886124002      
6970001620        -0.2449900808     0.1232452356      -1.879890422      1.773946358       
                  -1.879890422      1.773946358       0.4239323868      0.02446146741     
7055001530        0.1764411716      0.2713981455      2.458729274       0.7815251391      
                  2.458729274       0.7815251391      -0.2573094051     -0.2716617402     
7140001440        0.1644216377      -0.2446340389     -0.5271315152     -2.478511677      
                  -0.5271315152     -2.478511677      -0.06405460683    0.4548505376      
7225001350        -0.2869676436     -0.002156423622   -1.936864437      1.568634569       
                  -1.936864437      1.568634569       0.4531867142      -0.1027412781     
7310001260        0.08885362984     0.3632975224      2.302347221       0.8107711195      
                  2.302347221       0.8107711195      -0.3593857173     -0.1854565635     
7395001170        0.3263406053      -0.1544869668     -0.2866785195     -2.347315919      
                  -0.2866785195     -2.347315919      0.07650383485     0.482956197       
7480001080        -0.2496917711     -0.1873605843     -1.855007799      1.333008327       
                  -1.855007799      1.333008327       0.3952953109      -0.2368755296     
7565000990        -0.1089215051     0.3811173126      2.102081826       0.8509604183      
                  2.102081826       0.8509604183      -0.425974618      -0.0850160161     
7650000900        0.4066274484      0.00814908613     -0.110903599      -2.163978207      
                  -0.110903599      -2.163978207      0.212296313       0.4397826205      
7735000810        -0.1083394583     -0.3373138014     -1.905055305      1.167032248       
                  -1.905055305      1.167032248       0.3179259867      -0.3466033122     
7820000720        -0.2554453288     0.2818628592      1.927963328       1.002345828       
                  1.927963328       1.002345828       -0.4073096255     0.02435249346     
7905000630        0.3989839371      0.1829079453      0.04636246943     -1.993047554      
                  0.04636246943     -1.993047554      0.3241553092      0.3634782497      
7990000540        0.1164897801      -0.3944293363     -1.88169177       0.8108012393      
                  -1.88169177       0.8108012393      0.2220461081      -0.4080853863     
8075000450        -0.3739264456     0.07463210296     1.647315735       1.217786767       
                  1.647315735       1.217786767       -0.3891830813     0.1185353374      
8160000360        0.2676873495      0.3454226243      0.1956792552      -1.91213321       
                  0.1956792552      -1.91213321       0.3997868725      0.2805595276      
8245000270        0.2912311451      -0.3228602018     -1.804872351      0.5697404014      
                  -1.804872351      0.5697404014      0.1145789511      -0.4450431999     
8330000180        -0.3647989937     -0.1718309892     1.459818405       1.310006535       
                  1.459818405       1.310006535       -0.3438858543     0.1931533653      
8415000090        0.04558586093     0.405210288       0.3222235738      -1.788421932      
                  0.3222235738      -1.788421932      0.4366037238      0.1675558871      
8500000000        0.4013299933      -0.1657960784     -1.669516429      0.4248855725      
                  -1.669516429      0.4248855725      -0.003848230387   -0.4617453733     
