! RsaToolbox (C) 2013 Rohde & Schwarz America
! 
! Number of points: 101
! Number of ports: 2
! Balanced ports?: 0
! 
! 
# Hz S RI R 50
9000              1.008414275       -0.01971118735    7.42349812e-05    -2.562969884e-06  
                  7.42349812e-05    -2.562969884e-06  1.018046811       -0.02450409035    
85008910          0.002188442451    0.1584181898      3.194236651       5.499676799       
                  3.194236651       5.499676799       -0.09235659922    -0.1156567711     
170008820         0.141813959       -0.04363905665    3.183542835       -5.221586953      
                  3.183542835       -5.221586953      -0.02051606468    0.1715496163      
255008730         -0.1755352598     -0.07566753913    -6.054064962      -0.1628587275     
                  -6.054064962      -0.1628587275     0.07770272395     -0.02673278163    
340008640         -0.06350078887    0.1691813616      2.654222458       5.348454199       
                  2.654222458       5.348454199       -0.1265584136     -0.05394882196    
425008550         0.1589338737      -0.04624262168    3.38168166        -4.86935747       
                  3.38168166        -4.86935747       0.01667401352     0.1027297018      
510008460         -0.1014368399     -0.1630761807     -5.903507738      -0.6395145302     
                  -5.903507738      -0.6395145302     0.07082887547     -0.07973701622    
595008370         -0.107202147      0.1392660265      2.23241852        5.420686093       
                  2.23241852        5.420686093       -0.08379885675    -0.01210763495    
680008280         0.2038706728      0.03364148995     3.655537673       -4.576966989      
                  3.655537673       -4.576966989      0.09216527038     0.07542896445     
765008190         0.009575361733    -0.1632040818     -5.730457812      -1.095409555      
                  -5.730457812      -1.095409555      0.06033139005     -0.06058323941    
850008100         -0.1813400097     0.1112031944      1.875975111       5.518360784       
                  1.875975111       5.518360784       -0.07147577053    0.06502922739     
935008010         0.1453775196      0.1232730852      3.938859813       -4.232888648      
                  3.938859813       -4.232888648      0.1022410116      0.03911234922     
1020007920        0.07543452144     -0.1533758407     -5.586697274      -1.439667401      
                  -5.586697274      -1.439667401      -0.004802346715   -0.07560472678    
1105007830        -0.2248176891     -0.008344072561   1.487046176       5.609131635       
                  1.487046176       5.609131635       -0.06310985557    0.07517658555     
1190007740        0.07116088343     0.1397456226      4.18569857        -3.860926817      
                  4.18569857        -3.860926817      0.1244487652      -0.04247429453    
1275007650        0.1640042367      -0.108160173      -5.466307345      -1.822106693      
                  -5.466307345      -1.822106693      -0.03002922609    -0.0891239188     
1360007560        -0.1629706932     -0.100374514      1.050799636       5.637085603       
                  1.050799636       5.637085603       -0.005497202199   0.1018580583      
1445007470        0.0005459426329   0.1412830819      4.4022879         -3.545421747      
                  4.4022879         -3.545421747      0.1470562251      -0.08827929806    
1530007380        0.1840769823      -0.01108949212    -5.305424722      -2.177575669      
                  -5.305424722      -2.177575669      -0.06924207963    -0.06446946123    
1615007290        -0.09371068763    -0.1233706831     0.6276745823      5.595081468       
                  0.6276745823      5.595081468       0.02308135512     0.1420721238      
1700007200        -0.08807256094    0.09657981556     4.658226368       -3.246770393      
                  4.658226368       -3.246770393      0.1108616731      -0.1335135696     
1785007110        0.1274519385      0.031590059       -5.062144305      -2.518803624      
                  -5.062144305      -2.518803624      -0.1317968352     -0.06397765703    
1870007020        -0.0216595464     -0.1350882652     0.232967282       5.601286755       
                  0.232967282       5.601286755       0.06585783978     0.1319393302      
1955006930        -0.106160881      0.02111472641     4.866164566       -2.893565893      
                  4.866164566       -2.893565893      0.08929117342     -0.193936342      
2040006840        0.08205341474     0.03847652913     -4.826967818      -2.802772248      
                  -4.826967818      -2.802772248      -0.1547665916     -0.04157277695    
2125006750        0.03591965086     -0.09219150091    -0.1824518292     5.630734784       
                  -0.1824518292     5.630734784       0.1309634442      0.1368989369      
2210006660        -0.09136092369    -0.0008236648105  4.960609949       -2.539557696      
                  4.960609949       -2.539557696      0.04795338114     -0.2180598074     
2295006570        0.02897319105     0.03550889457     -4.594658456      -3.131276235      
                  -4.594658456      -3.131276235      -0.1860695162     0.01532768803     
2380006480        0.0281036403      -0.05190323407    -0.5447155872     5.565813551       
                  -0.5447155872     5.565813551       0.1669098251      0.114039295       
2465006390        -0.08685151171    -0.01601475042    5.037643695       -2.22120004       
                  5.037643695       -2.22120004       -0.01966258821    -0.2594928843     
2550006300        0.01162479088     -8.386367877e-05  -4.284502116      -3.469584207      
                  -4.284502116      -3.469584207      -0.1910637267     0.06074668687     
2635006210        0.02436788376     -0.04467697609    -0.8822621277     5.507037988       
                  -0.8822621277     5.507037988       0.2134781477      0.06428758086     
2720006120        -0.08168405764    -0.009851403472   5.112400338       -1.849706502      
                  5.112400338       -1.849706502      -0.09061446562    -0.2644565869     
2805006030        0.018316634       -0.001080295381   -4.000346869      -3.714160421      
                  -4.000346869      -3.714160421      -0.162991742      0.1234210733      
2890005940        0.01987742953     -0.0370184421     -1.220145306      5.381105567       
                  -1.220145306      5.381105567       0.2322031683      0.008910678923    
2975005850        -0.09477011124    -0.006872687454   5.144035619       -1.390701045      
                  5.144035619       -1.390701045      -0.16227166       -0.2475620034     
3060005760        0.01965749324     0.009223719867    -3.701004077      -4.05552386       
                  -3.701004077      -4.05552386       -0.1189699087     0.1687458239      
3145005670        0.03490538061     -0.04561985163    -1.616578612      5.227205814       
                  -1.616578612      5.227205814       0.2318037845      -0.07149347573    
3230005580        -0.1021696455     -0.03185143334    5.249947329       -0.9893373696     
                  5.249947329       -0.9893373696     -0.2268353352     -0.2080501351     
3315005490        0.01316354751     0.03185175241     -3.428364492      -4.278625035      
                  -3.428364492      -4.278625035      -0.04607321682    0.2028567947      
3400005400        0.06062899443     -0.03062016057    -1.967746355      5.058753423       
                  -1.967746355      5.058753423       0.2015538208      -0.1447943917     
3485005310        -0.09915140101    -0.0627010484     5.348278743       -0.6268508668     
                  5.348278743       -0.6268508668     -0.2816252772     -0.1298143888     
3570005220        -0.01853108314    0.05011779981     -3.25023374       -4.464779456      
                  -3.25023374       -4.464779456      0.03354674637     0.2108458537      
3655005130        0.06925383966     0.001786329647    -2.161186034      4.924510275       
                  -2.161186034      4.924510275       0.1347364735      -0.2084304661     
3740005040        -0.07908696999    -0.0929432573     5.335976927       -0.2728790845     
                  5.335976927       -0.2728790845     -0.3120570643     -0.03963057415    
3825004950        -0.05767332292    0.03891323814     -2.979739439      -4.592394564      
                  -2.979739439      -4.592394564      0.1134165391      0.1762933112      
3910004860        0.0656436404      0.03573652983     -2.575964679      4.702229788       
                  -2.575964679      4.702229788       0.05055244035     -0.2588978027     
3995004770        -0.03317938856    -0.11211108       5.363073843       0.04432727174     
                  5.363073843       0.04432727174     -0.3054294706     0.06514766357     
4080004680        -0.08476534825    0.01044988373     -2.703795781      -4.762093556      
                  -2.703795781      -4.762093556      0.190702155       0.128322689       
4165004590        0.0419675874      0.06905203019     -2.840930996      4.561159457       
                  -2.840930996      4.561159457       -0.0464249263     -0.2717112602     
4250004500        0.009767073888    -0.09008298979    5.446904321       0.2911564501      
                  5.446904321       0.2911564501      -0.2657638394     0.175574436       
4335004410        -0.1027190621     -0.01727647925    -2.447498087      -4.867133365      
                  -2.447498087      -4.867133365      0.2298298418      0.04464772229     
4420004320        -0.004613647464   0.08398203846     -3.036968718      4.445811168       
                  -3.036968718      4.445811168       -0.1639764613     -0.2508375981     
4505004230        0.03731338763     -0.05998997777    5.390989417       0.4639431919      
                  5.390989417       0.4639431919      -0.1966712323     0.258982668       
4590004140        -0.1027683874     -0.04988470842    -2.183726049      -4.89626419       
                  -2.183726049      -4.89626419       0.2296301926      -0.05757852779    
4675004050        -0.04216865933    0.0723550886      -3.12688341       4.325939459       
                  -3.12688341       4.325939459       -0.2553061299     -0.191340168      
4760003960        0.05793803042     -0.01959629766    5.238630483       0.6956897482      
                  5.238630483       0.6956897482      -0.08646153044    0.3111729976      
4845003870        -0.08007966956    -0.06808827282    -1.936445793      -4.94090511       
                  -1.936445793      -4.94090511       0.200426515       -0.1548238144     
4930003780        -0.07476664361    0.04427828926     -3.303082853      4.140744218       
                  -3.303082853      4.140744218       -0.319514732      -0.09971869997    
5015003690        0.05226597567     0.03426056529     5.11050889        0.9340031544      
                  5.11050889        0.9340031544      0.03552880789     0.3345128758      
5100003600        -0.0559490282     -0.05790586404    -1.766920762      -5.002874366      
                  -1.766920762      -5.002874366      0.1196953998      -0.2293079644     
5185003510        -0.09084134668    0.008767694767    -3.350321406      3.918012597       
                  -3.350321406      3.918012597       -0.3495103663     0.01152073694     
5270003420        0.0185655049      0.06956390784     4.970487974       1.162227034       
                  4.970487974       1.162227034       0.1498070101      0.2996617395      
5355003330        -0.04543756817    -0.0261310663     -1.65447517       -5.05256557       
                  -1.65447517       -5.05256557       -0.00228305953    -0.2791047975     
5440003240        -0.07357800749    -0.03495866111    -3.29958136       3.748372411       
                  -3.29958136       3.748372411       -0.3195108557     0.132083853       
5525003150        -0.01376527024    0.0609206249      4.948645944       1.274470356       
                  4.948645944       1.274470356       0.2688720659      0.201647908       
5610003060        -0.03970492645    0.02251530443     -1.595471959      -4.893028566      
                  -1.595471959      -4.893028566      -0.1366658754     -0.2678064665     
5695002970        -0.017724572      -0.03996882969    -3.296637508      3.529542777       
                  -3.296637508      3.529542777       -0.221038233      0.2531370436      
5780002880        -0.02189127248    0.02598156219     4.892676646       1.363948527       
                  4.892676646       1.363948527       0.3294565085      0.0580018113      
5865002790        -0.07540401145    0.07079091415     -1.482353307      -4.637881208      
                  -1.482353307      -4.637881208      -0.2716426517     -0.1856159141     
5950002700        0.03122810256     0.006226680912    -3.329625108      3.321130937       
                  -3.329625108      3.321130937       -0.08276162229    0.3331029961      
6035002610        -0.01584586528    -0.03449661107    4.675232526       1.261448086       
                  4.675232526       1.261448086       0.2985949786      -0.09731571528    
6120002520        -0.1412866556     0.06967324991     -1.368278567      -4.38467671       
                  -1.368278567      -4.38467671       -0.3583778195     -0.04557455023    
6205002430        0.06631186083     0.08690600433     -3.222757112      3.116879165       
                  -3.222757112      3.116879165       0.1021066662      0.3375925174      
6290002340        0.06074383382     -0.08554587437    4.451860055       1.13357006        
                  4.451860055       1.13357006        0.1951073335      -0.2477659892     
6375002250        -0.2104254838     0.006419610677    -1.264372885      -4.10107672       
                  -1.264372885      -4.10107672       -0.3761760736     0.1299390177      
6460002160        0.02609017713     0.2030144558      -2.989099799      2.918804536       
                  -2.989099799      2.918804536       0.2707788562      0.2723859661      
6545002070        0.1742333676      -0.05520151481    4.057615953       1.045372663       
                  4.057615953       1.045372663       0.02876667077     -0.3201491139     
6630001980        -0.2022922324     -0.1106314267     -1.118980962      -3.804626954      
                  -1.118980962      -3.804626954      -0.2986011447     0.3022835545      
6715001890        -0.07344139703    0.2708857665      -2.697904395      2.604558176       
                  -2.697904395      2.604558176       0.3841293348      0.1557192821      
6800001800        0.2624713779      0.05820313578     3.585257322       1.109317485       
                  3.585257322       1.109317485       -0.1315080781     -0.3087548728     
6885001710        -0.09937554083    -0.2385844423     -0.8087646064     -3.465877294      
                  -0.8087646064     -3.465877294      -0.1882038321     0.3879485011      
6970001620        -0.2094163458     0.2297819041      -2.615401584      2.202967759       
                  -2.615401584      2.202967759       0.4234386503      0.02352666427     
7055001530        0.259442482       0.2084247865      3.192792992       1.231660777       
                  3.192792992       1.231660777       -0.2570758837     -0.2714469525     
7140001440        0.08349289312     -0.2969091453     -0.5325439598     -3.205570485      
                  -0.5325439598     -3.205570485      -0.06344545694    0.4539706785      
7225001350        -0.2953239719     0.09353512404     -2.561256149      1.881215479       
                  -2.561256149      1.881215479       0.4527034197      -0.1033921766     
7310001260        0.1673961162      0.3467216485      2.844667317       1.15709368        
                  2.844667317       1.15709368        -0.3586814889     -0.1850217878     
7395001170        0.2852354874      -0.2243380289     -0.2406769147     -2.946877067      
                  -0.2406769147     -2.946877067      0.07651616045     0.4819909422      
7480001080        -0.2967872828     -0.1125544847     -2.400669997      1.597161462       
                  -2.400669997      1.597161462       0.3950374541      -0.2371947988     
7565000990        -0.03326886858    0.3983196498      2.597061024       1.160587287       
                  2.597061024       1.160587287       -0.4251485794     -0.08435484243    
7650000900        0.4001032741      -0.05467395958    -0.04972979527    -2.59753412       
                  -0.04972979527    -2.59753412       0.2128601957      0.4388598248      
7735000810        -0.1594661774     -0.3067966618     -2.288869533      1.33616445        
                  -2.288869533      1.33616445        0.3172771728      -0.3463928696     
7820000720        -0.208200274      0.3157832183      2.264711559       1.240626505       
                  2.264711559       1.240626505       -0.4057002645     0.02507783235     
7905000630        0.4134208006      0.1399042515      0.1010064006      -2.292120232      
                  0.1010064006      -2.292120232      0.3245072983      0.3625733902      
7990000540        0.06757714506     -0.3901744873     -2.208919047      0.9162945604      
                  -2.208919047      0.9162945604      0.2217475683      -0.4070254557     
8075000450        -0.3505968267     0.1184058509      1.896138913       1.433009134       
                  1.896138913       1.433009134       -0.3879251825     0.1189596524      
8160000360        0.295923606       0.3137252874      0.2559523692      -2.183046622      
                  0.2559523692      -2.183046622      0.3994648322      0.2800678174      
8245000270        0.2590116775      -0.3360783498     -2.035644         0.6097650494      
                  -2.035644         0.6097650494      0.1144520889      -0.4439756738     
8330000180        -0.3656387326     -0.1334884447     1.631332264       1.496342455       
                  1.631332264       1.496342455       -0.3433047764     0.1935393801      
8415000090        0.07753366621     0.3927480257      0.3882061082      -1.992048966      
                  0.3882061082      -1.992048966      0.4359104596      0.1670378633      
8500000000        0.3831172504      -0.1850872031     -1.829556458      0.4422673355      
                  -1.829556458      0.4422673355      -0.004519279597   -0.4604412255     
