! RsaToolbox (C) 2013 Rohde & Schwarz America
! 
! Number of points: 101
! Number of ports: 2
! Balanced ports?: 0
! 
! 
# Hz S RI R 50
9000              1.013166865       -0.01947184327    9.655437127e-05   -9.413208235e-06  
                  9.655437127e-05   -9.413208235e-06  1.018439128       -0.02572022977    
85008910          0.002448059693    0.1589858316      3.193866023       5.512673783       
                  3.193866023       5.512673783       -0.09212831685    -0.115434142      
170008820         0.1421733394      -0.04441922585    3.191022401       -5.227064888      
                  3.191022401       -5.227064888      -0.02025610581    0.1713866966      
255008730         -0.1762183845     -0.07583548446    -6.060452564      -0.1674223645     
                  -6.060452564      -0.1674223645     0.07757133334     -0.02649710258    
340008640         -0.06337298761    0.1698920591      2.653115001       5.355771428       
                  2.653115001       5.355771428       -0.1266442315     -0.05372175419    
425008550         0.1595201036      -0.04637527505    3.388851022       -4.87130001       
                  3.388851022       -4.87130001       0.01660451997     0.1028429475      
510008460         -0.1017522774     -0.1634590659     -5.90735718       -0.6463865787     
                  -5.90735718       -0.6463865787     0.0707264469      -0.07977227677    
595008370         -0.1072657479     0.1398785973      2.229433535       5.427950614       
                  2.229433535       5.427950614       -0.08370048345    -0.01195578265    
680008280         0.2043314412      0.03376907785     3.663770264       -4.577550293      
                  3.663770264       -4.577550293      0.09207073167     0.07539169281     
765008190         0.009391699225    -0.1637699181     -5.734638745      -1.102938363      
                  -5.734638745      -1.102938363      0.05994508169     -0.06056712581    
850008100         -0.1817280031     0.1115021287      1.87085171        5.526723266       
                  1.87085171        5.526723266       -0.07160318464    0.06495032701     
935008010         0.1458220183      0.1237110986      3.948795801       -4.232592897      
                  3.948795801       -4.232592897      0.1021554607      0.03895627522     
1020007920        0.07536513942     -0.1540942233     -5.591987954      -1.44809068       
                  -5.591987954      -1.44809068       -0.004722922518   -0.07567779832    
1105007830        -0.2254033028     -0.008369681839   1.480153499       5.61848211        
                  1.480153499       5.61848211        -0.06299035994    0.07511829149     
1190007740        0.07141296347     0.1404785615      4.196803128       -3.861902308      
                  4.196803128       -3.861902308      0.1241251941      -0.04269937592    
1275007650        0.1643105432      -0.1086698107     -5.470312126      -1.830080679      
                  -5.470312126      -1.830080679      -0.03004746004    -0.08916540636    
1360007560        -0.163470191      -0.1007131869     1.044079754       5.643094452       
                  1.044079754       5.643094452       -0.005555999916   0.1015259033      
1445007470        0.0007842192259   0.1422235109      4.412647204       -3.544740327      
                  4.412647204       -3.544740327      0.1469318477      -0.08857391888    
1530007380        0.1847043011      -0.01127865274    -5.307880959      -2.187862954      
                  -5.307880959      -2.187862954      -0.0691409398     -0.06478982116    
1615007290        -0.09427832818    -0.1242086334     0.6192531855      5.602790952       
                  0.6192531855      5.602790952       0.02346138449     0.1420711193      
1700007200        -0.08862705503    0.09750068054     4.669491375       -3.244105774      
                  4.669491375       -3.244105774      0.1109191746      -0.1335186421     
1785007110        0.1283336961      0.03174559184     -5.064329583      -2.529981883      
                  -5.064329583      -2.529981883      -0.1318658773     -0.06404857893    
1870007020        -0.02167853717    -0.1361602445     0.2246931383      5.60918919        
                  0.2246931383      5.60918919        0.06589264325     0.1321777987      
1955006930        -0.1069481323     0.02145114453     4.877378913       -2.888539735      
                  4.877378913       -2.888539735      0.08926290614     -0.1937307034     
2040006840        0.08316851716     0.03921725975     -4.82893753       -2.814287268      
                  -4.82893753       -2.814287268      -0.1546895659     -0.04152739468    
2125006750        0.03642577714     -0.09331122655    -0.1920616562     5.637431338       
                  -0.1920616562     5.637431338       0.1309717253      0.1366614498      
2210006660        -0.09252913865    -0.0008881822109  4.973826087       -2.534174257      
                  4.973826087       -2.534174257      0.04785565654     -0.2178812338     
2295006570        0.0295786401      0.03665569636     -4.596604285      -3.145099499      
                  -4.596604285      -3.145099499      -0.1859133474     0.01536556877     
2380006480        0.02909133267     -0.05276714941    -0.5562032566     5.575578779       
                  -0.5562032566     5.575578779       0.1670202242      0.1137326941      
2465006390        -0.08801845962    -0.0164295085     5.053025166       -2.214618136      
                  5.053025166       -2.214618136      -0.01959093418    -0.2593374155     
2550006300        0.0117593263      0.001373566934    -4.288173019      -3.48227487       
                  -4.288173019      -3.48227487       -0.1908779671     0.06037770497     
2635006210        0.02582507207     -0.04497769732    -0.8945173772     5.516661955       
                  -0.8945173772     5.516661955       0.2132640196      0.06404277992     
2720006120        -0.08252100047    -0.01068367688    5.12590043        -1.844262453      
                  5.12590043        -1.844262453      -0.09039108443    -0.2643125167     
2805006030        0.01780249466     0.0002692407881   -4.003192805      -3.728832521      
                  -4.003192805      -3.728832521      -0.1630336396     0.1236004643      
2890005940        0.02152490584     -0.03666910658    -1.235391593      5.392869833       
                  -1.235391593      5.392869833       0.232111407       0.009086349691    
2975005850        -0.09486854003    -0.008172747221   5.159093089       -1.38746804       
                  5.159093089       -1.38746804       -0.1621140441     -0.2473795        
3060005760        0.01870849466     0.01029198811     -3.704715533      -4.074020429      
                  -3.704715533      -4.074020429      -0.1189427643     0.1687909999      
3145005670        0.03614899185     -0.04479177046    -1.628388015      5.24013907        
                  -1.628388015      5.24013907        0.23140889        -0.07147135341    
3230005580        -0.1020793849     -0.0329661477     5.267161758       -0.9838572811     
                  5.267161758       -0.9838572811     -0.2267629791     -0.208038974      
3315005490        0.01158230874     0.03196058766     -3.43182095       -4.299690174      
                  -3.43182095       -4.299690174      -0.04615424697    0.2026951852      
3400005400        0.06116404267     -0.02925903682    -1.987786347      5.072548407       
                  -1.987786347      5.072548407       0.2012828451      -0.1450245209     
3485005310        -0.0978348041     -0.0635272        5.368755488       -0.6171613363     
                  5.368755488       -0.6171613363     -0.2819629372     -0.1297310803     
3570005220        -0.02027665215    0.04939799665     -3.250360005      -4.490482391      
                  -3.250360005      -4.490482391      0.03348767782     0.2106081439      
3655005130        0.06929272567     0.003504284762    -2.18493594       4.939758025       
                  -2.18493594       4.939758025       0.1344089136      -0.2086576293     
3740005040        -0.07743127934    -0.09326493881    5.359376689       -0.2616019653     
                  5.359376689       -0.2616019653     -0.311840833      -0.03950819499    
3825004950        -0.05873784893    0.03746516758     -2.980032308      -4.623863743      
                  -2.980032308      -4.623863743      0.1134864706      0.1759051304      
3910004860        0.06428127503     0.03743900171     -2.604870923      4.718970681       
                  -2.604870923      4.718970681       0.05042020582     -0.2588276058     
3995004770        -0.03137654439    -0.1116259729     5.391957978       0.06104311455     
                  5.391957978       0.06104311455     -0.305113404      0.06538726424     
4080004680        -0.08481171962    0.008411925829    -2.703779939      -4.793421502      
                  -2.703779939      -4.793421502      0.1905147691      0.1281397868      
4165004590        0.03983335336     0.07040385454     -2.86687502       4.577919264       
                  -2.86687502       4.577919264       -0.0466230304     -0.2716743579     
4250004500        0.01130868723     -0.08850582666    5.476950009       0.307571109       
                  5.476950009       0.307571109       -0.2657549272     0.175538863       
4335004410        -0.1018417516     -0.01961000119    -2.446454005      -4.903550142      
                  -2.446454005      -4.903550142      0.2294856952      0.04432406155     
4420004320        -0.006979580381   0.08389133275     -3.069121589      4.464307781       
                  -3.069121589      4.464307781       -0.163975505      -0.2507947227     
4505004230        0.03820935207     -0.05768227939    5.426741942       0.4856168847      
                  5.426741942       0.4856168847      -0.1965875064     0.2589475045      
4590004140        -0.1005059877     -0.0516979091     -2.180793863      -4.937795403      
                  -2.180793863      -4.937795403      0.2295637674      -0.05758778015    
4675004050        -0.04469926034    0.07091088973     -3.165602344      4.346718388       
                  -3.165602344      4.346718388       -0.2552914451     -0.1908805581     
4760003960        0.05755084479     -0.01639976934    5.276106202       0.7217298877      
                  5.276106202       0.7217298877      -0.08660882925    0.3110884226      
4845003870        -0.07718212884    -0.06874958694    -1.932285951      -4.988297983      
                  -1.932285951      -4.988297983      0.2002320697      -0.1549449892     
4930003780        -0.0762806112     0.04137098177     -3.348588158      4.162241553       
                  -3.348588158      4.162241553       -0.3195457781     -0.09934449499    
5015003690        0.05047402185     0.03735243552     5.147390259       0.9611948808      
                  5.147390259       0.9611948808      0.03556408071     0.3344526919      
5100003600        -0.052545035      -0.05688075829    -1.759892553      -5.059031863      
                  -1.759892553      -5.059031863      0.119700102       -0.2291118763     
5185003510        -0.09117149527    0.004898314177    -3.40214608       3.938593117       
                  -3.40214608       3.938593117       -0.3496563707     0.01122409805     
5270003420        0.01562440637     0.07158480172     5.011606321       1.193955723       
                  5.011606321       1.193955723       0.1499487516      0.2995850361      
5355003330        -0.04241993355    -0.02340204025    -1.643804112      -5.117786564      
                  -1.643804112      -5.117786564      -0.002227132142   -0.278919117      
5440003240        -0.07221012382    -0.03865089643    -3.349187603      3.772696435       
                  -3.349187603      3.772696435       -0.3192077366     0.132193703       
5525003150        -0.01774456534    0.06123375224     4.994966327       1.308669218       
                  4.994966327       1.308669218       0.2692315334      0.2012460252      
5610003060        -0.03845607012    0.02672248205     -1.587803582      -4.95970434       
                  -1.587803582      -4.95970434       -0.136813354      -0.2677028543     
5695002970        -0.01488163003    -0.0429455905     -3.348044926      3.554737626       
                  -3.348044926      3.554737626       -0.2211346805     0.2530864876      
5780002880        -0.02550714008    0.02456728932     4.945049085       1.402211121       
                  4.945049085       1.402211121       0.3293135406      0.0578433857      
5865002790        -0.07602621986    0.07508584629     -1.487453976      -4.698509362      
                  -1.487453976      -4.698509362      -0.2723121391     -0.1852175892     
5950002700        0.03520759974     0.004834816666    -3.382878501      3.34721488        
                  -3.382878501      3.34721488        -0.08286888405    0.3328619016      
6035002610        -0.01856130157    -0.03777804854    4.731730376       1.299949025       
                  4.731730376       1.299949025       0.2983674092      -0.0976555685     
6120002520        -0.1436076399     0.07295834022     -1.369645606      -4.443075183      
                  -1.369645606      -4.443075183      -0.3584736678     -0.04547857108    
6205002430        0.07050982238     0.08814547556     -3.271163187      3.14209402        
                  -3.271163187      3.14209402        0.1018278633      0.3374082232      
6290002340        0.05968074977     -0.08955858778    4.505899515       1.162676105       
                  4.505899515       1.162676105       0.1948022995      -0.2480033296     
6375002250        -0.2139754664     0.008366011985    -1.269766698      -4.150735191      
                  -1.269766698      -4.150735191      -0.3765975634     0.1300355291      
6460002160        0.0291009826      0.205038106       -3.027697805      2.942715795       
                  -3.027697805      2.942715795       0.2707865079      0.272342924       
6545002070        0.1752448573      -0.05884261508    4.105118201       1.065998304       
                  4.105118201       1.065998304       0.02880998348     -0.3200005824     
6630001980        -0.2059955974     -0.1103761497     -1.12564345       -3.846131582      
                  -1.12564345       -3.846131582      -0.2985716594     0.3022365375      
6715001890        -0.07164654063    0.273563855       -2.727485741      2.626472983       
                  -2.727485741      2.626472983       0.3839135381      0.1558992932      
6800001800        0.2649662004      0.05566696963     3.62077737        1.125783264       
                  3.62077737        1.125783264       -0.1315982724     -0.3086821777     
6885001710        -0.1023273564     -0.2397698336     -0.8133663348     -3.499592497      
                  -0.8133663348     -3.499592497      -0.1879589884     0.3879207015      
6970001620        -0.2093593879     0.2325455864      -2.638803073      2.219949639       
                  -2.638803073      2.219949639       0.4232217527      0.02336031769     
7055001530        0.2629169426      0.2070170342      3.220214923       1.238213525       
                  3.220214923       1.238213525       -0.2571302556     -0.2713399067     
7140001440        0.0818839921      -0.2987640057     -0.5365369576     -3.227422165      
                  -0.5365369576     -3.227422165      -0.06328214236    0.4538344854      
7225001350        -0.2961770996     0.09583910468     -2.578800251      1.894366731       
                  -2.578800251      1.894366731       0.4523758408      -0.1035623932     
7310001260        0.1696207165      0.3469774951      2.861896617       1.162937305       
                  2.861896617       1.162937305       -0.3586817619     -0.1848039334     
7395001170        0.2850765807      -0.2269597508     -0.2436100647     -2.96436253       
                  -0.2436100647     -2.96436253       0.07730744945     0.4819899187      
7480001080        -0.2982712953     -0.1111719596     -2.414568457      1.608030417       
                  -2.414568457      1.608030417       0.3950009912      -0.2372235003     
7565000990        -0.03142987737    0.3995180788      2.613231275       1.165650833       
                  2.613231275       1.165650833       -0.424789782      -0.08432120879    
7650000900        0.4007205657      -0.05600825239    -0.05197095066    -2.608512439      
                  -0.05197095066    -2.608512439      0.2123950288      0.4385794558      
7735000810        -0.1609770207     -0.3066377883     -2.297362134      1.344140667       
                  -2.297362134      1.344140667       0.317448172       -0.3464145034     
7820000720        -0.2074051682     0.3168989827      2.275206114       1.243016424       
                  2.275206114       1.243016424       -0.4057848058     0.0251952028      
7905000630        0.4140959885      0.1392224106      0.09886564215     -2.299458648      
                  0.09886564215     -2.299458648      0.324770338       0.3624027869      
7990000540        0.0665951496      -0.3903767142     -2.215573319      0.9228291441      
                  -2.215573319      0.9228291441      0.2214500904      -0.4069865478     
8075000450        -0.3505779574     0.1197890292      1.905325002       1.435253488       
                  1.905325002       1.435253488       -0.3878498126     0.1190162341      
8160000360        0.2970202033      0.3133937401      0.2534406071      -2.189534824      
                  0.2534406071      -2.189534824      0.3995890832      0.2800693485      
8245000270        0.2587071124      -0.336414339      -2.03967652       0.6139131048      
                  -2.03967652       0.6139131048      0.1142680758      -0.4439522562     
8330000180        -0.366145646      -0.1328577693     1.636414349       1.500665633       
                  1.636414349       1.500665633       -0.3432571143     0.1935156345      
8415000090        0.07864819175     0.392861449       0.3860524893      -1.997121453      
                  0.3860524893      -1.997121453      0.4359074516      0.1674282207      
8500000000        0.3832793406      -0.1854004967     -1.831730804      0.4454371579      
                  -1.831730804      0.4454371579      -0.004650055353   -0.4600275048     
