! RsaToolbox (C) 2013 Rohde & Schwarz America
! 
! Number of points: 101
! Number of ports: 2
! Balanced ports?: 0
! 
! 
# Hz S RI R 50
9000              0.983436774       -0.008445497622   7.592671664e-05   -1.706882905e-05  
                  7.592671664e-05   -1.706882905e-05  0.9962296611      -0.01751405365    
85008910          -0.06024499019    -0.0001613006426  2.309666427       3.740320261       
                  2.309666427       3.740320261       -0.09220090636    -0.1168404766     
170008820         0.04048851002     0.0580840862      2.263349448       -4.003602079      
                  2.263349448       -4.003602079      -0.02119727122    0.1718836627      
255008730         -0.05839528821    -0.0377128637     -4.622842669      0.1211569277      
                  -4.622842669      0.1211569277      0.07790647282     -0.02674318827    
340008640         -0.0697394043     0.04809041442     2.273930785       3.998850045       
                  2.273930785       3.998850045       -0.1271029753     -0.05454958446    
425008550         0.0511778805      0.0008242932881   2.391340004       -3.951742745      
                  2.391340004       -3.951742745      0.01618213008     0.1030281044      
510008460         -0.01817819228    -0.08407804623    -4.600623724      -0.1730766238     
                  -4.600623724      -0.1730766238     0.07106873736     -0.08001400772    
595008370         -0.05709803712    0.02743409501     2.014280903       4.183416715       
                  2.014280903       4.183416715       -0.08433022595    -0.01247028143    
680008280         0.09233862066     0.04232662315     2.529641616       -3.768329835      
                  2.529641616       -3.768329835      0.09214478195     0.07587168243     
765008190         0.04947548216     -0.04396111974    -4.568498715      -0.589056841      
                  -4.568498715      -0.589056841      0.06054600692     -0.06089848625    
850008100         -0.1061616342     0.03155183235     1.829870984       4.150805381       
                  1.829870984       4.150805381       -0.07224396835    0.06489380866     
935008010         0.04425194087     0.07259918991     2.842168371       -3.59626317       
                  2.842168371       -3.59626317       0.1022729624      0.03899894469     
1020007920        0.05174470086     -0.03561712849    -4.547717268      -0.811233026      
                  -4.547717268      -0.811233026      -0.00501115921    -0.07638046251    
1105007830        -0.1230125201     -0.03969346683    1.641018976       4.141812974       
                  1.641018976       4.141812974       -0.06380042749    0.07526781216     
1190007740        0.01588742679     0.01594674589     3.101218613       -3.366987708      
                  3.101218613       -3.366987708      0.1244365152      -0.04229371974    
1275007650        0.08704614223     -0.01292574566    -4.434316142      -0.9467386922     
                  -4.434316142      -0.9467386922     -0.03036922092    -0.08948175633    
1360007560        -0.04190329257    -0.05493842142    1.347311029       4.278851904       
                  1.347311029       4.278851904       -0.00606936952    0.1022649234      
1445007470        0.02057807174     -0.01321920068    3.197927226       -3.1944495        
                  3.197927226       -3.1944495        0.1475719855      -0.0882005936     
1530007380        0.03753309165     0.03413718462     -4.234735462      -1.025757642      
                  -4.234735462      -1.025757642      -0.0698008103     -0.06502812461    
1615007290        0.005628111434    0.0257157893      1.142306983       4.17877346        
                  1.142306983       4.17877346        0.02258590824     0.1427001318      
1700007200        0.02126728445     -0.0467814239     3.094681517       -3.049165893      
                  3.094681517       -3.049165893      0.1111738462      -0.133694241      
1785007110        -0.05017213495    -0.02308559933    -4.144274631      -1.263307985      
                  -4.144274631      -1.263307985      -0.1327456097     -0.06460101387    
1870007020        -0.0132869135     0.05825599219     0.9517389307      4.196318313       
                  0.9517389307      4.196318313       0.06526062348     0.1327456241      
1955006930        0.06994099767     -0.0477108285     3.261792639       -2.913292647      
                  3.261792639       -2.913292647      0.0896081275      -0.1944324614     
2040006840        -0.05379144018    -0.1110277932     -4.073157926      -1.430786113      
                  -4.073157926      -1.430786113      -0.1557238449     -0.04213339707    
2125006750        -0.06358205099    0.08556431808     0.7841958857      4.265800917       
                  0.7841958857      4.265800917       0.1308325567      0.1375155639      
2210006660        0.1194294412      0.02451136444     3.259467423       -2.740631229      
                  3.259467423       -2.740631229      0.04832101687     -0.2189763821     
2295006570        -0.01990356287    -0.1748375426     -3.941233165      -1.549994528      
                  -3.941233165      -1.549994528      -0.1871199419     0.01481403638     
2380006480        -0.1457149039     0.05737692384     0.5524505765      4.286732872       
                  0.5524505765      4.286732872       0.1670358293      0.1142524442      
2465006390        0.1037249932      0.1153487108      3.225325186       -2.579095059      
                  3.225325186       -2.579095059      -0.01944021284    -0.2608635933     
2550006300        0.06291271021     -0.203814702      -3.794615042      -1.860190889      
                  -3.794615042      -1.860190889      -0.1917401158     0.06044039297     
2635006210        -0.199780045      -0.02334500159    0.4404640338      4.118582534       
                  0.4404640338      4.118582534       0.2140188479      0.06413878445     
2720006120        0.03179734624     0.2007841349      3.287852955       -2.346841773      
                  3.287852955       -2.346841773      -0.09052283011    -0.2658732299     
2805006030        0.1677570362      -0.170066478      -3.593595999      -1.873074973      
                  -3.593595999      -1.873074973      -0.1637109233     0.122901145       
2890005940        -0.2007301652     -0.1278657816     0.2576028248      3.960789719       
                  0.2576028248      3.960789719       0.2329290951      0.008667049023    
2975005850        -0.08752467727    0.2313649235      3.370548487       -1.9480156        
                  3.370548487       -1.9480156        -0.1622345096     -0.2492268208     
3060005760        0.2372632461      -0.07241438645    -3.378797868      -2.081535621      
                  -3.378797868      -2.081535621      -0.1193745881     0.1684964475      
3145005670        -0.1267096619     -0.2251851852     -0.08206477968    3.886321997       
                  -0.08206477968    3.886321997       0.2327658331      -0.07197354167    
3230005580        -0.1987098159     0.1804277142      3.492378602       -1.619320408      
                  3.492378602       -1.619320408      -0.2268545054     -0.2092603569     
3315005490        0.2577554926      0.05496997919     -3.141951802      -2.129913228      
                  -3.141951802      -2.129913228      -0.04596274251    0.2029001757      
3400005400        -0.01257135399    -0.2705313997     -0.3378636659     3.724090234       
                  -0.3378636659     3.724090234       0.2030036331      -0.1453326103     
3485005310        -0.2875361868     0.090607597       3.453696782       -1.377797006      
                  3.453696782       -1.377797006      -0.2820229524     -0.1307507974     
3570005220        0.201649196       0.1809273475      -2.948249975      -2.206008492      
                  -2.948249975      -2.206008492      0.03395359371     0.2116281456      
3655005130        0.1031743038      -0.2539226507     -0.4850801509     3.547295331       
                  -0.4850801509     3.547295331       0.1364616584      -0.2085791319     
3740005040        -0.3168799317     -0.03586737019    3.365876215       -1.137657991      
                  3.365876215       -1.137657991      -0.3116825257     -0.04024653762    
3825004950        0.09008540555     0.2602262872      -2.656304281      -2.232883864      
                  -2.656304281      -2.232883864      0.1144335206      0.1779545978      
3910004860        0.2155356565      -0.1857318819     -0.72791791       3.346544325       
                  -0.72791791       3.346544325       0.05271979338     -0.2588577873     
3995004770        -0.2841216102     -0.1668772008     3.235907501       -0.9161412096     
                  3.235907501       -0.9161412096     -0.3055991578     0.06560266242     
4080004680        -0.04730319341    0.2848758385      -2.369422872      -2.294555735      
                  -2.369422872      -2.294555735      0.1929582492      0.1289389624      
4165004590        0.2708020517      -0.06816332318    -0.9574037045     3.228572697       
                  -0.9574037045     3.228572697       -0.04583968846    -0.2742022983     
4250004500        -0.1967271176     -0.250389074      3.234459154       -0.6828413898     
                  3.234459154       -0.6828413898     -0.2652842044     0.1764073552      
4335004410        -0.1855766216     0.2400844802      -2.165650517      -2.424373259      
                  -2.165650517      -2.424373259      0.2318361506      0.04484962485     
4420004320        0.2619618617      0.05889839862     -1.109614577      3.079116054       
                  -1.109614577      3.079116054       -0.163596271      -0.2519322935     
4505004230        -0.08264876267    -0.2941461412     3.139992215       -0.5199160203     
                  3.139992215       -0.5199160203     -0.1972561833     0.2597159778      
4590004140        -0.2827871865     0.1470868045      -1.924495074      -2.433836031      
                  -1.924495074      -2.433836031      0.2305766275      -0.05735219646    
4675004050        0.204697965       0.1652028765      -1.194300158      2.895157523       
                  -1.194300158      2.895157523       -0.2559502378     -0.192175124      
4760003960        0.05058689634     -0.2834289502     3.020364169       -0.323284496      
                  3.020364169       -0.323284496      -0.08752622184    0.3119535247      
4845003870        -0.3190561272     0.03008626498     -1.690201605      -2.455725821      
                  -1.690201605      -2.455725821      0.2010753651      -0.1547864772     
4930003780        0.09858467916     0.236674296       -1.351046018      2.699627155       
                  -1.351046018      2.699627155       -0.320835066      -0.1004348916     
5015003690        0.1577440509      -0.2093577552     2.920505914       -0.1061264327     
                  2.920505914       -0.1061264327     0.03505390968     0.3361025652      
5100003600        -0.3043581465     -0.07899026033    -1.518947937      -2.466001407      
                  -1.518947937      -2.466001407      0.1200107051      -0.2297267276     
5185003510        -0.0208430969     0.2549523499      -1.447003444      2.48020115        
                  -1.447003444      2.48020115        -0.3511740067     0.01066070394     
5270003420        0.2126335375      -0.09885477524    2.853597802       0.1331995434      
                  2.853597802       0.1331995434      0.1489334725      0.3012727394      
5355003330        -0.2527186984     -0.1575121718     -1.375347701      -2.45256394       
                  -1.375347701      -2.45256394       -0.001704451594   -0.2802691878     
5440003240        -0.1130897667     0.2149983726      -1.504471263      2.348422018       
                  -1.504471263      2.348422018       -0.321175321      0.1315278275      
5525003150        0.2225875254      0.0002529327272   2.793594032       0.2536951476      
                  2.793594032       0.2536951476      0.2690176317      0.2029161301      
5610003060        -0.1651124858     -0.1854007648     -1.268568709      -2.415173         
                  -1.268568709      -2.415173         -0.1360784421     -0.26907996       
5695002970        -0.1567857761     0.1630377006      -1.551911459      2.180891448       
                  -1.551911459      2.180891448       -0.2226884797     0.2527670609      
5780002880        0.204066494       0.08188946944     2.710861044       0.3605470176      
                  2.710861044       0.3605470176      0.3303806564      0.05960753088     
5865002790        -0.09568588451    -0.1711312881     -1.114948571      -2.366486692      
                  -1.114948571      -2.366486692      -0.2715107446     -0.1869452134     
5950002700        -0.1723853702     0.1233969339      -1.599848986      2.029822148       
                  -1.599848986      2.029822148       -0.08387175501    0.3340380632      
6035002610        0.1549975759      0.1165929286      2.556454731       0.4018690425      
                  2.556454731       0.4018690425      0.3006012056      -0.09579821547    
6120002520        -0.05116281851    -0.153675142      -0.9644487756     -2.293744882      
                  -0.9644487756     -2.293744882      -0.357996199      -0.04692096865    
6205002430        -0.1624698546     0.09895333434     -1.587043135      1.902200263       
                  -1.587043135      1.902200263       0.1024600993      0.3393331861      
6290002340        0.1421422764      0.1246734206      2.434914653       0.4242995849      
                  2.434914653       0.4242995849      0.1978831814      -0.2477949946     
6375002250        -0.03903556817    -0.1557922544     -0.8515033901     -2.22733647       
                  -0.8515033901     -2.22733647       -0.376446287      0.1283125443      
6460002160        -0.1758747067     0.1180203933      -1.54641306       1.793178863       
                  -1.54641306       1.793178863       0.2714995669      0.2736849345      
6545002070        0.1564488114      0.1616055537      2.27303694        0.443481951       
                  2.27303694        0.443481951       0.03044551915     -0.3210129738     
6630001980        0.01091193532     -0.1810010929     -0.7387395577     -2.130768323      
                  -0.7387395577     -2.130768323      -0.2998806495     0.3023969516      
6715001890        -0.2130086983     0.1171254984      -1.473418726      1.616371298       
                  -1.473418726      1.616371298       0.3845809363      0.1577305329      
6800001800        0.1621402497      0.2326752479      2.083709418       0.519381223       
                  2.083709418       0.519381223       -0.1308024411     -0.3094531771     
6885001710        0.1077468161      -0.2102982136     -0.5467385527     -2.008026578      
                  -0.5467385527     -2.008026578      -0.1887540561     0.3890764527      
6970001620        -0.2671640419     0.04244372579     -1.511631786      1.400118455       
                  -1.511631786      1.400118455       0.4241349703      0.02507825661     
7055001530        0.1100550506      0.316185938       1.937247741       0.6282815546      
                  1.937247741       0.6282815546      -0.257388719      -0.2720432704     
7140001440        0.2344254183      -0.1945338252     -0.3986995073     -1.966825408      
                  -0.3986995073     -1.966825408      -0.06456325605    0.4551081428      
7225001350        -0.2734775801     -0.08249950803    -1.560045223      1.24616083        
                  -1.560045223      1.24616083        0.4535165551      -0.1022357869     
7310001260        0.01641662543     0.3745748455      1.851512965       0.6534425322      
                  1.851512965       0.6534425322      -0.3596341086     -0.1857682239     
7395001170        0.3623196702      -0.08511303284    -0.2213418112     -1.879711842      
                  -0.2213418112     -1.879711842      0.07609752654     0.4832528016      
7480001080        -0.2030362442     -0.2504273433     -1.503234715      1.058164745       
                  -1.503234715      1.058164745       0.3955106954      -0.2367689575     
7565000990        -0.1801850389     0.3591925668      1.676584926       0.6954126884      
                  1.676584926       0.6954126884      -0.4265362299     -0.08537702865    
7650000900        0.4109052799      0.07955886846     -0.09297968244    -1.757315022      
                  -0.09297968244    -1.757315022      0.2119395727      0.4402540067      
7735000810        -0.04400985519    -0.3693440506     -1.557457517      0.9421599404      
                  -1.557457517      0.9421599404      0.3180877885      -0.346820652      
7820000720        -0.3075074485     0.2375728902      1.573741603       0.8290118537      
                  1.573741603       0.8290118537      -0.4079493625     0.02405514201     
7905000630        0.376282389       0.2432531209      0.03449473537     -1.640570658      
                  0.03449473537     -1.640570658      0.3239940159      0.3638711801      
7990000540        0.1810542578      -0.3954260842     -1.548984204      0.6520796462      
                  -1.548984204      0.6520796462      0.2224677107      -0.4086642995     
8075000450        -0.4008017696     0.0134381649      1.346948209       1.019922865       
                  1.346948209       1.019922865       -0.3898861658     0.1183142493      
8160000360        0.2247241183      0.3901770696      0.1691143277      -1.583162089      
                  0.1691143277      -1.583162089      0.399950049       0.2807589478      
8245000270        0.3434632518      -0.300793656      -1.504127639      0.4765734565      
                  -1.504127639      0.4765734565      0.1146299176      -0.4455331636     
8330000180        -0.3612729547     -0.2330669513     1.200802883       1.089224658       
                  1.200802883       1.089224658       -0.3441303788     0.1930746748      
8415000090        -0.009284957762   0.4254100288      0.2740963696      -1.487108563      
                  0.2740963696      -1.487108563      0.4371274952      0.1676015245      
8500000000        0.4370839781      -0.1277981683     -1.402461661      0.3673019082      
                  -1.402461661      0.3673019082      -0.003611975844   -0.4625451147     
