! RsaToolbox (C) 2013 Rohde & Schwarz America
! 
! Number of points: 101
! Number of ports: 2
! Balanced ports?: 0
! 
! 
# Hz S RI R 50
9000              1.019514156       -0.02667771109    5.938088272e-05   -1.768781974e-05  
                  5.938088272e-05   -1.768781974e-05  1.026651242       -0.03408347382    
85008910          0.002491781594    0.159342048       3.195765618       5.529354297       
                  3.195765618       5.529354297       -0.09220755169    -0.1155118176     
170008820         0.1426902717      -0.04449455518    3.202848523       -5.228542984      
                  3.202848523       -5.228542984      -0.01994197032    0.1716104985      
255008730         -0.1767031925     -0.07572696757    -6.065183305      -0.1753984762     
                  -6.065183305      -0.1753984762     0.0775856363      -0.02670076905    
340008640         -0.06327556412    0.1700712203      2.647723975       5.363442312       
                  2.647723975       5.363442312       -0.1264493165     -0.05340587887    
425008550         0.1601103535      -0.04650513525    3.398246792       -4.873301503      
                  3.398246792       -4.873301503      0.0169834584      0.103342237       
510008460         -0.1023011282     -0.1635183194     -5.912078367      -0.6514891393     
                  -5.912078367      -0.6514891393     0.07111422988     -0.07976546765    
595008370         -0.1076821597     0.1403145282      2.225705203       5.436789106       
                  2.225705203       5.436789106       -0.08389192632    -0.01115696153    
680008280         0.20441357        0.03383503438     3.67436265        -4.574129088      
                  3.67436265        -4.574129088      0.09148004481     0.07530477159     
765008190         0.009146615882    -0.1642082158     -5.739005792      -1.111815261      
                  -5.739005792      -1.111815261      0.05990058953     -0.06062454013    
850008100         -0.1823508742     0.1118982946      1.866976908       5.534154883       
                  1.866976908       5.534154883       -0.07190825589    0.06497786606     
935008010         0.1461085481      0.1235050213      3.956413362       -4.229121474      
                  3.956413362       -4.229121474      0.1025637849      0.03899076157     
1020007920        0.0758636134      -0.1542115977     -5.593016167      -1.455578558      
                  -5.593016167      -1.455578558      -0.004525196766   -0.07513428683    
1105007830        -0.2260916816     -0.009154895451   1.47377874        5.624339746       
                  1.47377874        5.624339746       -0.06198841624    0.07533821798     
1190007740        0.07108130132     0.1400937612      4.203467013       -3.854190723      
                  4.203467013       -3.854190723      0.1240468524      -0.04259164252    
1275007650        0.1645771901      -0.1092023994     -5.47154579       -1.834258119      
                  -5.47154579       -1.834258119      -0.02941907445    -0.08944876943    
1360007560        -0.1642095159     -0.1007994146     1.03706079        5.652495602       
                  1.03706079        5.652495602       -0.004964762606   0.101661978       
1445007470        0.0005663892636   0.1427258893      4.418433425       -3.542892917      
                  4.418433425       -3.542892917      0.147435279       -0.08869874709    
1530007380        0.1851860883      -0.01141300689    -5.307895557      -2.195883521      
                  -5.307895557      -2.195883521      -0.06933720608    -0.06474948951    
1615007290        -0.09431491809    -0.1245775071     0.6132159344      5.606747915       
                  0.6132159344      5.606747915       0.02339703013     0.1418424541      
1700007200        -0.08899089061    0.09806581464     4.678055327       -3.243088197      
                  4.678055327       -3.243088197      0.110954856       -0.1328054543     
1785007110        0.1292508305      0.03172814563     -5.065508826      -2.538070681      
                  -5.065508826      -2.538070681      -0.1318459668     -0.06366466133    
1870007020        -0.02146476027    -0.1366350393     0.2160747679      5.61572014        
                  0.2160747679      5.61572014        0.06645606122     0.1321423078      
1955006930        -0.1073910281     0.02180422623     4.884342306       -2.886107625      
                  4.884342306       -2.886107625      0.08948528228     -0.1938229135     
2040006840        0.08427616075     0.03917088163     -4.832258985      -2.823761683      
                  -4.832258985      -2.823761683      -0.1550711775     -0.04131066728    
2125006750        0.03632803617     -0.09386962208    -0.1994952105     5.643429067       
                  -0.1994952105     5.643429067       0.1306130145      0.1368082366      
2210006660        -0.09303415075    -0.0004192366489  4.979883738       -2.532102762      
                  4.979883738       -2.532102762      0.04846771529     -0.2179030794     
2295006570        0.02955445544     0.03705209432     -4.599105593      -3.152992891      
                  -4.599105593      -3.152992891      -0.1859384261     0.01587809388     
2380006480        0.0293316737      -0.05273211189    -0.5629158532     5.580669907       
                  -0.5629158532     5.580669907       0.167039483       0.1137173018      
2465006390        -0.08832413957    -0.01711241095    5.061467109       -2.213565199      
                  5.061467109       -2.213565199      -0.020222363      -0.2584031567     
2550006300        0.01127465065     0.001970189034    -4.29147199       -3.489583985      
                  -4.29147199       -3.489583985      -0.1909458399     0.0607490371      
2635006210        0.02624136917     -0.04498940493    -0.9040116574     5.524993823       
                  -0.9040116574     5.524993823       0.213321731       0.06417440395     
2720006120        -0.08287540696    -0.01141333236    5.134544839       -1.843814586      
                  5.134544839       -1.843814586      -0.0906008011     -0.2634603209     
2805006030        0.01706874553     0.0006825167316   -4.007279314      -3.739527212      
                  -4.007279314      -3.739527212      -0.1630529714     0.1239749714      
2890005940        0.02251925222     -0.03611056522    -1.245387798      5.396552918       
                  -1.245387798      5.396552918       0.231551265       0.00814219145     
2975005850        -0.0951564283     -0.00936986114    5.168972841       -1.386078731      
                  5.168972841       -1.386078731      -0.1627761991     -0.2474926637     
3060005760        0.01782610139     0.0106746659      -3.705949706      -4.084364423      
                  -3.705949706      -4.084364423      -0.1187367047     0.1680984344      
3145005670        0.0364961281      -0.04450560243    -1.640846116      5.24853688        
                  -1.640846116      5.24853688        0.2324048032      -0.07180103584    
3230005580        -0.1014910393     -0.03383785291    5.277128305       -0.9823210805     
                  5.277128305       -0.9823210805     -0.2274459094     -0.2084890956     
3315005490        0.01145930521     0.03215275694     -3.435379764      -4.312498661      
                  -3.435379764      -4.312498661      -0.04589003781    0.2022746733      
3400005400        0.06087153714     -0.02803775784    -1.999061305      5.079795551       
                  -1.999061305      5.079795551       0.2015712843      -0.1443838071     
3485005310        -0.09801543815    -0.06451673526    5.378472348       -0.6139876532     
                  5.378472348       -0.6139876532     -0.2827805586     -0.1290971235     
3570005220        -0.02127363254    0.04982557453     -3.254197557      -4.50145183       
                  -3.254197557      -4.50145183       0.03366656802     0.2102683359      
3655005130        0.06981736848     0.004418997286    -2.191641996      4.947476379       
                  -2.191641996      4.947476379       0.1338513581      -0.2091105782     
3740005040        -0.07660679587    -0.09409363383    5.370827478       -0.2578671794     
                  5.370827478       -0.2578671794     -0.3121056638     -0.03894346511    
3825004950        -0.05867108281    0.03651371918     -2.979602031      -4.640520881      
                  -2.979602031      -4.640520881      0.1121864462      0.1754777215      
3910004860        0.06388167684     0.03870480288     -2.615934313      4.727453216       
                  -2.615934313      4.727453216       0.05006941966     -0.2600926421     
3995004770        -0.03069552224    -0.1114261453     5.404827645       0.06785287144     
                  5.404827645       0.06785287144     -0.3052876317     0.06582433993     
4080004680        -0.08433655449    0.007885382927    -2.705300323      -4.809490731      
                  -2.705300323      -4.809490731      0.190726156       0.1285463974      
4165004590        0.0380442326      0.07077277078     -2.875692578      4.589052849       
                  -2.875692578      4.589052849       -0.04642805555    -0.2715400424     
4250004500        0.01137130881     -0.08668831415    5.492808889       0.3071640987      
                  5.492808889       0.3071640987      -0.2663428888     0.1753806127      
4335004410        -0.1012940358     -0.02032260967    -2.454614243      -4.917546959      
                  -2.454614243      -4.917546959      0.2294593059      0.04406779107     
4420004320        -0.007961098439   0.08343772539     -3.079569613      4.47960269        
                  -3.079569613      4.47960269        -0.1644030289     -0.250083563      
4505004230        0.03753307767     -0.05647717373    5.447468878       0.4901449034      
                  5.447468878       0.4901449034      -0.1967732081     0.2591696964      
4590004140        -0.09939530566    -0.05241739273    -2.186239067      -4.961127903      
                  -2.186239067      -4.961127903      0.229270464       -0.05751300075    
4675004050        -0.04524309888    0.06981567784     -3.179982318      4.361069147       
                  -3.179982318      4.361069147       -0.2554222263     -0.1910515524     
4760003960        0.05708013676     -0.01560387586    5.295366452       0.7288989839      
                  5.295366452       0.7288989839      -0.08681272785    0.3108692718      
4845003870        -0.07651067116    -0.06808446523    -1.93789053       -5.008714625      
                  -1.93789053       -5.008714625      0.200289596       -0.1550707852     
4930003780        -0.07637666986    0.04051727672     -3.366047928      4.180967001       
                  -3.366047928      4.180967001       -0.3196408434     -0.09961336376    
5015003690        0.04873203515     0.03774856796     5.172198997       0.9668968493      
                  5.172198997       0.9668968493      0.03678386936     0.3348253875      
5100003600        -0.05221229347    -0.05519413968    -1.76837321       -5.084891124      
                  -1.76837321       -5.084891124      0.1196714746      -0.2291602033     
5185003510        -0.09139687669    0.003744226086    -3.420656941      3.958860914       
                  -3.420656941      3.958860914       -0.3499857936     0.0116945272      
5270003420        0.01453536235     0.07165604186     5.038399294       1.200369886       
                  5.038399294       1.200369886       0.1490771406      0.299802643       
5355003330        -0.04232124236    -0.02163978782    -1.652583741      -5.146393308      
                  -1.652583741      -5.146393308      -0.002218783043   -0.2793898317     
5440003240        -0.07074166501    -0.03992833254    -3.364776428      3.792220318       
                  -3.364776428      3.792220318       -0.3192565278     0.1325094518      
5525003150        -0.01853853192    0.06054234225     5.02377077        1.313580227       
                  5.02377077        1.313580227       0.2693422481      0.2008486248      
5610003060        -0.03908927026    0.02879370614     -1.597202543      -4.989149376      
                  -1.597202543      -4.989149376      -0.1375716087     -0.2676611711     
5695002970        -0.01323588093    -0.04335398899    -3.365707072      3.57419589        
                  -3.365707072      3.57419589        -0.2209798145     0.2525995111      
5780002880        -0.02624086763    0.02287974191     4.974310593       1.409168684       
                  4.974310593       1.409168684       0.3296486194      0.057435613       
5865002790        -0.0772238858     0.07661962709     -1.496717789      -4.724228811      
                  -1.496717789      -4.724228811      -0.2722520039     -0.1854553726     
5950002700        0.0365374606      0.005689019985    -3.400477268      3.367462294       
                  -3.400477268      3.367462294       -0.08331340813    0.3323916483      
6035002610        -0.01853918179    -0.03992510999    4.761501129       1.300615923       
                  4.761501129       1.300615923       0.2982026509      -0.09728484673    
6120002520        -0.1457227844     0.07342309293     -1.38460488       -4.468505096      
                  -1.38460488       -4.468505096      -0.3587797736     -0.04549487356    
6205002430        0.07251162017     0.08966507446     -3.284944138      3.168658022       
                  -3.284944138      3.168658022       0.1023520463      0.336795661       
6290002340        0.06057203157     -0.09239663653    4.539249353       1.158471197       
                  4.539249353       1.158471197       0.1945253359      -0.2492403048     
6375002250        -0.2163775784     0.008365306449    -1.287334628      -4.165089339      
                  -1.287334628      -4.165089339      -0.3757467446     0.1301091353      
6460002160        0.02853509243     0.2063789057      -3.020654801      2.953662941       
                  -3.020654801      2.953662941       0.2691676906      0.2717907469      
6545002070        0.1752925129      -0.05751915102    4.096655886       1.063797934       
                  4.096655886       1.063797934       0.02862573656     -0.3168206        
6630001980        -0.2065489389     -0.1099909353     -1.124383931      -3.831802254      
                  -1.124383931      -3.831802254      -0.2983738101     0.2997879162      
6715001890        -0.07124885446    0.2719638305      -2.705145727      2.625179383       
                  -2.705145727      2.625179383       0.3800141466      0.1529564331      
6800001800        0.2649139478      0.05040327547     3.61986629        1.090366615       
                  3.61986629        1.090366615       -0.1312866093     -0.3077885618     
6885001710        -0.1040983109     -0.2414963761     -0.8570446415     -3.484122336      
                  -0.8570446415     -3.484122336      -0.1837766314     0.3822961869      
6970001620        -0.2056017891     0.2328634521      -2.618198115      2.241933979       
                  -2.618198115      2.241933979       0.4206270013      0.02111087014     
7055001530        0.2629567854      0.2057594578      3.220827952       1.237907699       
                  3.220827952       1.237907699       -0.2560603556     -0.2724192619     
7140001440        0.08167993886     -0.300077825      -0.5268579527     -3.217355773      
                  -0.5268579527     -3.217355773      -0.06754147796    0.4480312031      
7225001350        -0.2940960427     0.09170051318     -2.557588165      1.878300387       
                  -2.557588165      1.878300387       0.4486097207      -0.1053493076     
7310001260        0.1728564102      0.3394073764      2.840402767       1.137190106       
                  2.840402767       1.137190106       -0.3524899873     -0.1853131329     
7395001170        0.2850165434      -0.2299270257     -0.2728377643     -2.94675766       
                  -0.2728377643     -2.94675766       0.08194083179     0.4774230647      
7480001080        -0.2976096586     -0.1072926683     -2.405003171      1.631637759       
                  -2.405003171      1.631637759       0.3947411118      -0.2384396836     
7565000990        -0.0306808883     0.4020845817      2.630071194       1.162884935       
                  2.630071194       1.162884935       -0.4264950495     -0.08432871592    
7650000900        0.4008819418      -0.05599484333    -0.05055066911    -2.617536855      
                  -0.05055066911    -2.617536855      0.2117253716      0.4397724339      
7735000810        -0.1608249429     -0.3073198173     -2.297475766      1.344194664       
                  -2.297475766      1.344194664       0.3173649627      -0.3461406421     
7820000720        -0.2060554594     0.3165511315      2.276623396       1.236526311       
                  2.276623396       1.236526311       -0.4046652663     0.02512682361     
7905000630        0.4152254122      0.137938481       0.09067572564     -2.30142659       
                  0.09067572564     -2.30142659       0.3244039128      0.3613949242      
7990000540        0.06582729609     -0.3913160461     -2.217268731      0.9301381737      
                  -2.217268731      0.9301381737      0.2216073067      -0.407347788      
8075000450        -0.3495751179     0.1205143192      1.905932229       1.432699474       
                  1.905932229       1.432699474       -0.38579184       0.1177227605      
8160000360        0.2968827229      0.3122017397      0.249109818       -2.181597621      
                  0.249109818       -2.181597621      0.3973109186      0.2789636139      
8245000270        0.2555075035      -0.3332296018     -2.021333077      0.6155387683      
                  -2.021333077      0.6155387683      0.1158665385      -0.4400330111     
8330000180        -0.3610909156     -0.1280773091     1.62015841        1.480756371       
                  1.62015841        1.480756371       -0.3374222566     0.1906667713      
8415000090        0.07759550127     0.3919839013      0.3953962357      -1.984462227      
                  0.3953962357      -1.984462227      0.4372208989      0.1707481858      
8500000000        0.3851788004      -0.1810227449     -1.827562793      0.4348461055      
                  -1.827562793      0.4348461055      -0.0009300027468  -0.4593122942     
