! RsaToolbox (C) 2013 Rohde & Schwarz America
! 
! Number of points: 101
! Number of ports: 2
! Balanced ports?: 0
! 
! 
# Hz S RI R 50
9000              0.9978490788      -0.01400709742    7.188422556e-05   -1.026353539e-05  
                  7.188422556e-05   -1.026353539e-05  1.007734006       -0.02054338914    
85008910          -0.002137698048   0.1480694691      3.150614529       5.385115437       
                  3.150614529       5.385115437       -0.09239550492    -0.1162409786     
170008820         0.1345020593      -0.03671973256    3.130672057       -5.144650782      
                  3.130672057       -5.144650782      -0.0208398811     0.1718215003      
255008730         -0.1685156787     -0.07267818873    -5.984794929      -0.1489824292     
                  -5.984794929      -0.1489824292     0.07777886769     -0.02658729253    
340008640         -0.06333573136    0.1607991781      2.631961997       5.279218622       
                  2.631961997       5.279218622       -0.1268518837     -0.05408948399    
425008550         0.1512327435      -0.04389291891    3.327019844       -4.821948946      
                  3.327019844       -4.821948946      0.01645876439     0.1029225142      
510008460         -0.09663271206    -0.1572036206     -5.840383708      -0.6085242309     
                  -5.840383708      -0.6085242309     0.07083236093     -0.07988931912    
595008370         -0.1030976532     0.1318714799      2.225775465       5.347083096       
                  2.225775465       5.347083096       -0.08398726178    -0.01224566902    
680008280         0.1966448224      0.03282334687     3.593243939       -4.551139196      
                  3.593243939       -4.551139196      0.09214138256     0.07552452837     
765008190         0.01142820875     -0.154923711      -5.666327629      -1.056287236      
                  -5.666327629      -1.056287236      0.06030823302     -0.06070948002    
850008100         -0.1755508211     0.10696905        1.895247423       5.449069158       
                  1.895247423       5.449069158       -0.07197670831    0.06498373242     
935008010         0.138708044       0.1186992971      3.87220983        -4.211074672      
                  3.87220983        -4.211074672      0.102191782       0.03891093177     
1020007920        0.07315613905     -0.1454950344     -5.530845237      -1.389169107      
                  -5.530845237      -1.389169107      -0.004911128911   -0.07592018084    
1105007830        -0.2177912355     -0.009073798024   1.52963963        5.533066639       
                  1.52963963        5.533066639       -0.0634059331     0.07531780641     
1190007740        0.06733237484     0.1318994324      4.112214199       -3.838164289      
                  4.112214199       -3.838164289      0.1243691285      -0.04241212056    
1275007650        0.1584514383      -0.1024923037     -5.422081907      -1.749347827      
                  -5.422081907      -1.749347827      -0.03019359083    -0.08919067688    
1360007560        -0.1557132624     -0.09683151454    1.096546677       5.560827419       
                  1.096546677       5.560827419       -0.005683839262   0.1020495793      
1445007470        0.001342119399    0.1317124113      4.317533865       -3.533988498      
                  4.317533865       -3.533988498      0.1473052177      -0.08835015205    
1530007380        0.1748536726      -0.008920440991   -5.266104375      -2.085203591      
                  -5.266104375      -2.085203591      -0.06953503294    -0.06474189475    
1615007290        -0.08728719719    -0.1130033237     0.6935923038      5.500330628       
                  0.6935923038      5.500330628       0.02292290591     0.1424236255      
1700007200        -0.0813853551     0.08739099912     4.548263802       -3.260271331      
                  4.548263802       -3.260271331      0.1110191844      -0.1335119525     
1785007110        0.1152899427      0.02804825537     -5.019202023      -2.405918044      
                  -5.019202023      -2.405918044      -0.1322577652     -0.06428804878    
1870007020        -0.02122723269    -0.1212048961     0.3156853639      5.504410386       
                  0.3156853639      5.504410386       0.06551995565     0.1324275652      
1955006930        -0.09376628471    0.01587752921     4.737559535       -2.92701933       
                  4.737559535       -2.92701933       0.08936172575     -0.1940806347     
2040006840        0.0709992862      0.02699267127     -4.784965469      -2.665706428      
                  -4.784965469      -2.665706428      -0.1552132912     -0.04182214675    
2125006750        0.0286379837      -0.07823832043    -0.07055208051    5.528102245       
                  -0.07055208051    5.528102245       0.1308785997      0.1371708136      
2210006660        -0.07412970346    0.0009681410767   4.805948402       -2.591605335      
                  4.805948402       -2.591605335      0.04814423368     -0.2184009266     
2295006570        0.02405219271     0.01728865159     -4.555891393      -2.963420379      
                  -4.555891393      -2.963420379      -0.1865775797     0.01511888797     
2380006480        0.01185215235     -0.04085093551    -0.4084933807     5.44850137        
                  -0.4084933807     5.44850137        0.1668683639      0.1141462366      
2465006390        -0.06908609376    -0.004161450248   4.855269532       -2.293447787      
                  4.855269532       -2.293447787      -0.01955097987    -0.2601107289     
2550006300        0.01542372718     -0.02177771163    -4.247762398      -3.279521787      
                  -4.247762398      -3.279521787      -0.191310569      0.06044581571     
2635006210        -0.0002451621787  -0.04236867828    -0.687042329      5.373267746       
                  -0.687042329      5.373267746       0.2136705193      0.06421559907     
2720006120        -0.06935213506    0.01219423493     4.908386706       -1.946220151      
                  4.908386706       -1.946220151      -0.09059919074    -0.265138212      
2805006030        0.0340554881      -0.02135243276    -3.979375422      -3.480802735      
                  -3.979375422      -3.480802735      -0.1634447433     0.1231598099      
2890005940        -0.009013812556   -0.04955043999    -0.9605479052     5.222936435       
                  -0.9605479052     5.222936435       0.2324667117      0.009028614424    
2975005850        -0.09280717851    0.02330046785     4.912771003       -1.506797013      
                  4.912771003       -1.506797013      -0.1622226869     -0.2483543634     
3060005760        0.04689101962     -0.002605859037   -3.705044112      -3.779469188      
                  -3.705044112      -3.779469188      -0.1191926835     0.1685943948      
3145005670        0.01261731714     -0.07002915076    -1.339156275      5.075475083       
                  -1.339156275      5.075475083       0.2323398682      -0.07170775549    
3230005580        -0.114142294      -0.002413160553   5.009932329       -1.130274009      
                  5.009932329       -1.130274009      -0.2268692597     -0.2086134404     
3315005490        0.04903686599     0.0353361104      -3.472567318      -3.92911287       
                  -3.472567318      -3.92911287       -0.04607933478    0.2027524027      
3400005400        0.04992105927     -0.07090803186    -1.604626021      4.897638385       
                  -1.604626021      4.897638385       0.2022556917      -0.1450704065     
3485005310        -0.1308701519     -0.03724292308    5.047249759       -0.8438058632     
                  5.047249759       -0.8438058632     -0.2820213287     -0.1301807237     
3570005220        0.02131288931     0.07662809411     -3.326703607      -3.999442958      
                  -3.326703607      -3.999442958      0.03360253431     0.2111320526      
3655005130        0.07906624005     -0.04905795014    -1.707747239      4.734231096       
                  -1.707747239      4.734231096       0.1354343446      -0.2086962914     
3740005040        -0.127560533      -0.08324959402    4.972306752       -0.5765154045     
                  4.972306752       -0.5765154045     -0.3118957395     -0.03995989412    
3825004950        -0.02728140688    0.09445233832     -3.093973272      -3.973806122      
                  -3.093973272      -3.973806122      0.1138745445      0.1769710853      
3910004860        0.1075507465      -0.01640589845    -1.979876325      4.49682136        
                  -1.979876325      4.49682136        0.0515896919      -0.2589938403     
3995004770        -0.09796318954    -0.1311619323     4.861578676       -0.394112959      
                  4.861578676       -0.394112959      -0.3054691285     0.06534424677     
4080004680        -0.08143006353    0.08973886889     -2.829137074      -4.004119564      
                  -2.829137074      -4.004119564      0.1915680963      0.1286877518      
4165004590        0.1110079575      0.03518811251     -2.179157578      4.321294521       
                  -2.179157578      4.321294521       -0.04591405934    -0.2725073589     
4250004500        -0.05037577267    -0.1440316875     4.834007987       -0.2098311486     
                  4.834007987       -0.2098311486     -0.2657155345     0.1758586831      
4335004410        -0.1362009097     0.06520965361     -2.581671624      -4.019165756      
                  -2.581671624      -4.019165756      0.2306828591      0.04484214755     
4420004320        0.0828287274      0.08171125896     -2.26161851       4.16817563        
                  -2.26161851       4.16817563        -0.1636854788     -0.2512672582     
4505004230        0.00042437125     -0.1436761587     4.681958445       -0.103449224      
                  4.681958445       -0.103449224      -0.1969806863     0.2592899208      
4590004140        -0.1724577165     0.01686707111     -2.331709896      -3.965725392      
                  -2.331709896      -3.965725392      0.2300183411      -0.05741493925    
4675004050        0.04556179657     0.1114014185      -2.256579498      3.981115898       
                  -2.256579498      3.981115898       -0.255665389      -0.1917234283     
4760003960        0.0604471457      -0.1179045823     4.491144181       0.08502555421     
                  4.491144181       0.08502555421     -0.08693442053    0.3115159142      
4845003870        -0.1755258833     -0.03414054997    -2.08855041       -3.924552377      
                  -2.08855041       -3.924552377      0.2006580364      -0.1548227302     
4930003780        -0.008381875857   0.1239574839      -2.349879774      3.738883279       
                  -2.349879774      3.738883279       -0.3201535624     -0.1000431206     
5015003690        0.09887015449     -0.06133629783    4.319472171       0.2895125928      
                  4.319472171       0.2895125928      0.03518596491     0.3351319736      
5100003600        -0.1628554343     -0.0699564173     -1.91329974       -3.853686713      
                  -1.91329974       -3.853686713      0.1197207845      -0.2293737039     
5185003510        -0.06363783258    0.1126401411      -2.379900815      3.475560407       
                  -2.379900815      3.475560407       -0.3502597624     0.01109207944     
5270003420        0.1018967661      -0.0004073043556  4.153819357       0.5056567603      
                  4.153819357       0.5056567603      0.1493427253      0.300421515       
5355003330        -0.1394276756     -0.08772625045    -1.785747107      -3.785441464      
                  -1.785747107      -3.785441464      -0.001962484184   -0.2795992158     
5440003240        -0.0917397138     0.07080806973     -2.371166155      3.295512389       
                  -2.371166155      3.295512389       -0.320205626      0.1318096427      
5525003150        0.09015353126     0.03333543674     4.068471228       0.6024648561      
                  4.068471228       0.6024648561      0.2690162576      0.2019932931      
5610003060        -0.09636340949    -0.07235839897    -1.68208401       -3.665748461      
                  -1.68208401       -3.665748461      -0.1364795747     -0.268337183      
5695002970        -0.07838094487    0.04875675222     -2.374009067      3.06881511        
                  -2.374009067      3.06881511        -0.2218299946     0.2528912803      
5780002880        0.0831906363      0.04884990801     3.937147914       0.6789556093      
                  3.937147914       0.6789556093      0.3298643343      0.05854671872     
5865002790        -0.08514133595    -0.03583338886    -1.520026919      -3.514602063      
                  -1.520026919      -3.514602063      -0.272030445      -0.1860089515     
5950002700        -0.05826370615    0.05983535577     -2.399402733      2.864473751       
                  -2.399402733      2.864473751       -0.08319940092    0.3334380329      
6035002610        0.06517519176     0.03189327691     3.713653239       0.6543338309      
                  3.713653239       0.6543338309      0.2994146956      -0.09690276255    
6120002520        -0.1045416482     -0.02743259572    -1.3577909        -3.356004272      
                  -1.3577909        -3.356004272      -0.3583536591     -0.04604118901    
6205002430        -0.03327675281    0.09428091696     -2.348654944      2.687894055       
                  -2.348654944      2.687894055       0.1023338344      0.3381963272      
6290002340        0.1008671662      0.006025895731    3.52921497        0.6250975166      
                  3.52921497        0.6250975166      0.1961625329      -0.2478679632     
6375002250        -0.142232565      -0.06249589541    -1.225754885      -3.209065027      
                  -1.225754885      -3.209065027      -0.3762730337     0.1292756027      
6460002160        -0.05764766267    0.1704494147      -2.242201503      2.526478259       
                  -2.242201503      2.526478259       0.2712434333      0.2727766214      
6545002070        0.1706975445      0.03638513681     3.262789285       0.6292303301      
                  3.262789285       0.6292303301      0.02949111977     -0.3205109299     
6630001980        -0.1192063419     -0.1415581314     -1.073532887      -3.032282699      
                  -1.073532887      -3.032282699      -0.2991442112     0.302343754       
6715001890        -0.129232405      0.2129709493      -2.088228136      2.265865333       
                  -2.088228136      2.265865333       0.3842948763      0.1567881899      
6800001800        0.2251289419      0.1293421905      2.951083621       0.7359043126      
                  2.951083621       0.7359043126      -0.1312146496     -0.309172441      
6885001710        -0.02127490194    -0.2306406716     -0.7966308418     -2.824648624      
                  -0.7966308418     -2.824648624      -0.1886242125     0.3885194713      
6970001620        -0.2326240102     0.1631730049      -2.105730006      1.948846384       
                  -2.105730006      1.948846384       0.4237875062      0.02413677447     
7055001530        0.2079938055      0.248606772       2.723225522       0.901708693       
                  2.723225522       0.901708693       -0.2572292347     -0.2716576457     
7140001440        0.1316947439      -0.26625279       -0.5560686945     -2.744137674      
                  -0.5560686945     -2.744137674      -0.06389999826    0.4544740949      
7225001350        -0.2907766        0.03674055893     -2.153525801      1.706381364       
                  -2.153525801      1.706381364       0.4531124416      -0.1029614065     
7310001260        0.1221915119      0.3566729124      2.522344271       0.9252970933      
                  2.522344271       0.9252970933      -0.3591323522     -0.1852913829     
7395001170        0.3090807755      -0.1846090101     -0.2873589835     -2.581309842      
                  -0.2873589835     -2.581309842      0.07676489848     0.4826581184      
7480001080        -0.2695755905     -0.1570878171     -2.050961467      1.449503051       
                  -2.050961467      1.449503051       0.3951822949      -0.2369528567     
7565000990        -0.0771837548     0.389066096       2.300881523       0.9542880685      
                  2.300881523       0.9542880685      -0.4256398599     -0.08475752273    
7650000900        0.403576415       -0.02074326663    -0.0946905419     -2.350204496      
                  -0.0946905419     -2.350204496      0.2124931467      0.4395702625      
7735000810        -0.1327939467     -0.3228090585     -2.070859395      1.248968483       
                  -2.070859395      1.248968483       0.3177829378      -0.3464800201     
7820000720        -0.2333092995     0.297948884       2.079377443       1.098903599       
                  2.079377443       1.098903599       -0.4069971593     0.02455036202     
7905000630        0.4058171463      0.161268041       0.06823496002     -2.133903902      
                  0.06823496002     -2.133903902      0.3242610747      0.3631955635      
7990000540        0.09256807125     -0.3922086152     -2.028763986      0.8630594262      
                  -2.028763986      0.8630594262      0.2218769697      -0.4078598633     
8075000450        -0.362350234      0.09588392659     1.762870393       1.312334672       
                  1.762870393       1.312334672       -0.3888351        0.1185266576      
8160000360        0.2815718273      0.3293463807      0.2213794176      -2.040006709      
                  0.2213794176      -2.040006709      0.3997043946      0.2804676211      
8245000270        0.2745042538      -0.3291727585     -1.91507947       0.5898142968      
                  -1.91507947       0.5898142968      0.1146246887      -0.4448238757     
8330000180        -0.3648134093     -0.1525824645     1.541862654       1.399099124       
                  1.541862654       1.399099124       -0.3437118629     0.1931601011      
8415000090        0.06162935645     0.3983558371      0.3554101116      -1.887127302      
                  0.3554101116      -1.887127302      0.4365178393      0.1675173526      
8500000000        0.3917359972      -0.1753704962     -1.748730364      0.432364407       
                  -1.748730364      0.432364407       -0.004089365062   -0.4613867384     
