! RsaToolbox (C) 2013 Rohde & Schwarz America
! 
! Number of points: 101
! Number of ports: 2
! Balanced ports?: 0
! 
! 
# Hz S RI R 50
9000              1.00007333        -0.01415639932    7.267573941e-05   -1.989978622e-05  
                  7.267573941e-05   -1.989978622e-05  1.009199647       -0.02110374997    
85008910          -0.0006870808695  0.1517187216      3.168636654       5.420245686       
                  3.168636654       5.420245686       -0.0922590846     -0.115960626      
170008820         0.1370125173      -0.03910439072    3.1459852         -5.172315675      
                  3.1459852         -5.172315675      -0.02072841919    0.1717481426      
255008730         -0.1708105389     -0.07370013008    -6.005577604      -0.1517274014     
                  -6.005577604      -0.1517274014     0.07771690558     -0.0265700105     
340008640         -0.06347012148    0.1636405699      2.640349248       5.300509603       
                  2.640349248       5.300509603       -0.1269172436     -0.05411799417    
425008550         0.1537651145      -0.0447112749     3.343347205       -4.837699091      
                  3.343347205       -4.837699091      0.01652773418     0.1028606458      
510008460         -0.09822738636    -0.1591817489     -5.86078635       -0.6172742724     
                  -5.86078635       -0.6172742724     0.070824831       -0.07976296444    
595008370         -0.1045367065     0.1343099693      2.230587916       5.370810655       
                  2.230587916       5.370810655       -0.083986623      -0.01221729235    
680008280         0.1989675446      0.03313178671     3.6116362         -4.561005736      
                  3.6116362         -4.561005736      0.09209369972     0.07552933739     
765008190         0.01084699435     -0.1576842241     -5.687949881      -1.065450739      
                  -5.687949881      -1.065450739      0.06026154156     -0.06063525915    
850008100         -0.1774556446     0.1082931491      1.89175012        5.470055648       
                  1.89175012        5.470055648       -0.07187677643    0.06509500912     
935008010         0.140753879       0.1201751228      3.891611829       -4.220462819      
                  3.891611829       -4.220462819      0.1021574997      0.0389206904      
1020007920        0.07392881419     -0.1480199491     -5.550262371      -1.403020187      
                  -5.550262371      -1.403020187      -0.004813773738   -0.07585090415    
1105007830        -0.2200163337     -0.008844600007   1.516103125       5.559309791       
                  1.516103125       5.559309791       -0.06330287539    0.07525650313     
1190007740        0.06848430715     0.1344485595      4.134932549       -3.848095863      
                  4.134932549       -3.848095863      0.1243572428      -0.04251276381    
1275007650        0.1601568332      -0.1043041214     -5.437849605      -1.770006329      
                  -5.437849605      -1.770006329      -0.03013643267    -0.08924875674    
1360007560        -0.1579702601     -0.09804283528    1.084123131       5.584904083       
                  1.084123131       5.584904083       -0.005718215939   0.1019324452      
1445007470        0.0009738573553   0.1347260273      4.343952217       -3.539690712      
                  4.343952217       -3.539690712      0.1472884917      -0.08829602518    
1530007380        0.1777520565      -0.009545445906   -5.280414783      -2.112740366      
                  -5.280414783      -2.112740366      -0.06940812742    -0.06469930017    
1615007290        -0.08935530615    -0.116415155      0.67558069        5.53214662        
                  0.67558069        5.53214662        0.0230051893      0.1423860078      
1700007200        -0.08363663752    0.09036243799     4.582927699       -3.258602718      
                  4.582927699       -3.258602718      0.1110019866      -0.1334947949     
1785007110        0.1191628534      0.02933698122     -5.036107946      -2.438959024      
                  -5.036107946      -2.438959024      -0.1321379334     -0.0641959097     
1870007020        -0.02129438889    -0.1257324978     0.292985278       5.536173058       
                  0.292985278       5.536173058       0.06559821359     0.1324043417      
1955006930        -0.0978777442     0.01739618191     4.777466157       -2.91993085       
                  4.777466157       -2.91993085       0.08938239124     -0.1940315194     
2040006840        0.0744668766      0.03089473371     -4.800656198      -2.70569176       
                  -4.800656198      -2.70569176       -0.1550419097     -0.04168986669    
2125006750        0.0312449251      -0.0827673179     -0.1021472419     5.561676482       
                  -0.1021472419     5.561676482       0.1309011965      0.1370867423      
2210006660        -0.0799584963     6.645687394e-05   4.854580595       -2.577457111      
                  4.854580595       -2.577457111      0.04808574734     -0.2183217989     
2295006570        0.02541742486     0.02351169482     -4.569556796      -3.014660503      
                  -4.569556796      -3.014660503      -0.1864869658     0.01519561975     
2380006480        0.0176870473      -0.04435354279    -0.4510828202     5.487026574       
                  -0.4510828202     5.487026574       0.1668752487      0.1141378732      
2465006390        -0.07513261909    -0.008684855401   4.914399798       -2.271121165      
                  4.914399798       -2.271121165      -0.01959994832    -0.2598761842     
2550006300        0.01368887397     -0.0142033566     -4.260697072      -3.341483607      
                  -4.260697072      -3.341483607      -0.1913424267     0.06053484426     
2635006210        0.009040976739    -0.0425880812     -0.7527831771     5.419588127       
                  -0.7527831771     5.419588127       0.2136523476      0.06414915545     
2720006120        -0.07346535334    0.003918596256    4.978173274       -1.913568343      
                  4.978173274       -1.913568343      -0.09061921872    -0.2650665701     
2805006030        0.02798026067     -0.01437135222    -3.986600296      -3.560299638      
                  -3.986600296      -3.560299638      -0.1633878373     0.1232424762      
2890005940        0.001847982316    -0.04418906416    -1.050766016      5.280809137       
                  -1.050766016      5.280809137       0.2323927054      0.008980536686    
2975005850        -0.0929389583     0.01199318087     4.993145129       -1.466462879      
                  4.993145129       -1.466462879      -0.1623467564     -0.2481895825     
3060005760        0.03622072578     0.001176541782    -3.703379846      -3.875922284      
                  -3.703379846      -3.875922284      -0.1191796569     0.1686393701      
3145005670        0.02064533456     -0.06012966291    -1.434900711      5.129564053       
                  -1.434900711      5.129564053       0.2321803738      -0.07170479396    
3230005580        -0.108966736      -0.01313465229    5.092911442       -1.080673528      
                  5.092911442       -1.080673528      -0.2269696297     -0.208537836      
3315005490        0.03466688017     0.03313183938     -3.459417036      -4.058855954      
                  -3.459417036      -4.058855954      -0.04603059004    0.2027130281      
3400005400        0.05356102746     -0.05480072593    -1.732607904      4.96133595        
                  -1.732607904      4.96133595        0.2021449821      -0.1452316424     
3485005310        -0.1179959817     -0.04700316991    5.160151942       -0.7676212852     
                  5.160151942       -0.7676212852     -0.2821117509     -0.1300850583     
3570005220        0.00548702398     0.0653115709      -3.307297183      -4.17531168       
                  -3.307297183      -4.17531168       0.03356206577     0.2109572989      
3655005130        0.0746353901      -0.02882293304    -1.867408716      4.813192525       
                  -1.867408716      4.813192525       0.1353199459      -0.2088562588     
3740005040        -0.1079116093     -0.08671086595    5.114330362       -0.4714641318     
                  5.114330362       -0.4714641318     -0.3119114224     -0.03991037217    
3825004950        -0.03933800806    0.07178225169     -3.07403757       -4.203566953      
                  -3.07403757       -4.203566953      0.1139952645      0.1766628145      
3910004860        0.09090666265     0.003945899011    -2.185578024      4.589523336       
                  -2.185578024      4.589523336       0.05127493215     -0.2592593472     
3995004770        -0.07297670028    -0.1236409307     5.055411912       -0.2546913151     
                  5.055411912       -0.2546913151     -0.3054645114     0.06530626814     
4080004680        -0.08272428748    0.05979762855     -2.814606249      -4.275663219      
                  -2.814606249      -4.275663219      0.1913582752      0.1285912351      
4165004590        0.08538256156     0.04809429554     -2.407337867      4.426201421       
                  -2.407337867      4.426201421       -0.0458156394     -0.27217818       
4250004500        -0.02816323673    -0.1244112431     5.064230623       -0.05967280541    
                  5.064230623       -0.05967280541    -0.2657102918     0.1757896929      
4335004410        -0.1247943481     0.03618956976     -2.572279617      -4.304704778      
                  -2.572279617      -4.304704778      0.2304970806      0.04451831845     
4420004320        0.052621339       0.08288306426     -2.502411792      4.289322932       
                  -2.502411792      4.289322932       -0.1636723739     -0.251203706      
4505004230        0.01306456636     -0.1160336452     4.928380942       0.04361995537     
                  4.928380942       0.04361995537     -0.1970031658     0.2592110319      
4590004140        -0.1504571318     -0.004954445437   -2.327404345      -4.255971293      
                  -2.327404345      -4.255971293      0.2299443187      -0.05748601861    
4675004050        0.01745472893     0.09951116266     -2.499094122      4.122209781       
                  -2.499094122      4.122209781       -0.2555300494     -0.1916386335     
4760003960        0.06018685478     -0.08752970544    4.735595837       0.2307304046      
                  4.735595837       0.2307304046      -0.08687696104    0.3114873881      
4845003870        -0.1476569265     -0.04455764804    -2.090601944      -4.214831796      
                  -2.090601944      -4.214831796      0.2005828974      -0.1548491899     
4930003780        -0.02787150452    0.1012838063      -2.589135436      3.889300356       
                  -2.589135436      3.889300356       -0.3200007067     -0.0999420256     
5015003690        0.08601350599     -0.0335205756     4.564082331       0.432118752       
                  4.564082331       0.432118752       0.03523354955     0.3351046751      
5100003600        -0.1339778102     -0.06701880867    -1.926201618      -4.154305178      
                  -1.926201618      -4.154305178      0.1197569749      -0.2293535368     
5185003510        -0.07135488249    0.08439620799     -2.60891987       3.629639863       
                  -2.60891987       3.629639863       -0.350042928      0.01110666163     
5270003420        0.07933108597     0.01891948339     4.393949175       0.6404652257      
                  4.393949175       0.6404652257      0.1495019663      0.3002391526      
5355003330        -0.1158638816     -0.07217418695    -1.809335695      -4.089577935      
                  -1.809335695      -4.089577935      -0.002034044926   -0.2794483456     
5440003240        -0.08715713637    0.04254744199     -2.583737855      3.44566436        
                  -2.583737855      3.44566436        -0.3201062621     0.1319247681      
5525003150        0.06311343552     0.04023147961     4.312823788       0.7300638951      
                  4.312823788       0.7300638951      0.268980524       0.2019031856      
5610003060        -0.08242102787    -0.04846798703    -1.712898436      -3.951779186      
                  -1.712898436      -3.951779186      -0.1366395314     -0.2681604584     
5695002970        -0.0627148999     0.02571475216     -2.578484457      3.216188901       
                  -2.578484457      3.216188901       -0.2217361696     0.2528376911      
5780002880        0.05797315251     0.04259704109     4.181749517       0.7959204938      
                  4.181749517       0.7959204938      0.3297795203      0.05846646209     
5865002790        -0.08294021133    -0.008800185608   -1.557531933      -3.771336059      
                  -1.557531933      -3.771336059      -0.2720832854     -0.1858586693     
5950002700        -0.03552902028    0.04655592602     -2.598539968      3.006201202       
                  -2.598539968      3.006201202       -0.08310506346    0.33339037        
6035002610        0.04623840579     0.01531416223     3.949233128       0.7525061758      
                  3.949233128       0.7525061758      0.2991788513      -0.09701747299    
6120002520        -0.1144532831     -0.002348945398   -1.399203815      -3.593557696      
                  -1.399203815      -3.593557696      -0.3583410616     -0.04593771251    
6205002430        -0.007926027813   0.09287966024     -2.53552815       2.817687271       
                  -2.53552815       2.817687271       0.1022275083      0.3380816385      
6290002340        0.09177480468     -0.01674833346    3.750096374       0.7049171254      
                  3.750096374       0.7049171254      0.1958387202      -0.2479394418     
6375002250        -0.1608100378     -0.04451404566    -1.265376397      -3.419847702      
                  -1.265376397      -3.419847702      -0.3762086322     0.1293566548      
6460002160        -0.03555255478    0.1794757745      -2.408922802      2.645169244       
                  -2.408922802      2.645169244       0.2711274639      0.272758181       
6545002070        0.1723086032      0.0126640394      3.459451792       0.7007522018      
                  3.459451792       0.7007522018      0.02927730016     -0.320381236      
6630001980        -0.1422895634     -0.1334594479     -1.107825336      -3.220414754      
                  -1.107825336      -3.220414754      -0.2990375431     0.3023534821      
6715001890        -0.1137915967     0.229431505       -2.231161211      2.369082662       
                  -2.231161211      2.369082662       0.3841896288      0.1566751495      
6800001800        0.2358487031      0.1099159341      3.117799648       0.8092871963      
                  3.117799648       0.8092871963      -0.131228319      -0.3090643406     
6885001710        -0.04387544683    -0.2331887686     -0.8173509666     -2.991019505      
                  -0.8173509666     -2.991019505      -0.1885282363     0.3884828891      
6970001620        -0.2258269287     0.1830239235      -2.234798269      2.030166954       
                  -2.234798269      2.030166954       0.423662606       0.02397375312     
7055001530        0.2234615912      0.2368359625      2.858230779       0.9798450348      
                  2.858230779       0.9798450348      -0.2572174864     -0.2715876357     
7140001440        0.1161522668      -0.2759778904     -0.5580152953     -2.877818337      
                  -0.5580152953     -2.877818337      -0.06402901916    0.4543239747      
7225001350        -0.2922232072     0.05494975672     -2.2696997        1.766187429       
                  -2.2696997        1.766187429       0.4528459908      -0.102686578      
7310001260        0.1369577344      0.353389869       2.622849666       0.9893601267      
                  2.622849666       0.9893601267      -0.3590178724     -0.1853442877     
7395001170        0.3010389401      -0.1977464591     -0.2784302035     -2.692792126      
                  -0.2784302035     -2.692792126      0.07683092883     0.4825710374      
7480001080        -0.2783745784     -0.1428002714     -2.151592866      1.499013866       
                  -2.151592866      1.499013866       0.3951946952      -0.2370282534     
7565000990        -0.06276866604    0.3921286076      2.393592875       1.012546565       
                  2.393592875       1.012546565       -0.4256812935     -0.08553393155    
7650000900        0.4020963173      -0.03234839684    -0.081786371      -2.429410811      
                  -0.081786371      -2.429410811      0.2126010094      0.4393911323      
7735000810        -0.1419146358     -0.3170350653     -2.141528875      1.277804661       
                  -2.141528875      1.277804661       0.3177440526      -0.3464150013     
7820000720        -0.2244280949     0.3039705086      2.140296873       1.144542143       
                  2.140296873       1.144542143       -0.4067618124     0.02471668847     
7905000630        0.4082280565      0.1536164412      0.08014319937     -2.186198303      
                  0.08014319937     -2.186198303      0.3242574562      0.3629766039      
7990000540        0.08395011935     -0.3913112575     -2.088246105      0.8795633044      
                  -2.088246105      0.8795633044      0.2211978516      -0.4075653247     
8075000450        -0.3581095764     0.1036414755      1.805858602       1.352531099       
                  1.805858602       1.352531099       -0.3886878014     0.1186219469      
8160000360        0.2864861621      0.32362744        0.2340400774      -2.087171835      
                  0.2340400774      -2.087171835      0.3993105894      0.280767567       
8245000270        0.2687240728      -0.3313231192     -1.955375532      0.5949855827      
                  -1.955375532      0.5949855827      0.114614186       -0.4446211927     
8330000180        -0.3647138743     -0.1459930383     1.569975406       1.432971761       
                  1.569975406       1.432971761       -0.3436547225     0.1932866264      
8415000090        0.06712300127     0.3961433417      0.3678857163      -1.922023293      
                  0.3678857163      -1.922023293      0.4362584263      0.1674374199      
8500000000        0.3885314625      -0.1787112611     -1.776161934      0.4341239326      
                  -1.776161934      0.4341239326      -0.004084624205   -0.4611877388     
