! RsaToolbox (C) 2013 Rohde & Schwarz America
! 
! Number of points: 101
! Number of ports: 2
! Balanced ports?: 0
! 
! 
# Hz S RI R 50
9000              1.025436813       -0.02278872958    9.315639271e-05   -0.0001087370858  
                  9.315639271e-05   -0.0001087370858  1.01999626        -0.03475605203    
85008910          0.002926739595    0.158807504       3.191354429       5.528865083       
                  3.191354429       5.528865083       -0.09126546422    -0.1153741479     
170008820         0.1425513591      -0.04505221709    3.20203827        -5.226187423      
                  3.20203827        -5.226187423      -0.01937876104    0.1728861328      
255008730         -0.1765744646     -0.07586881549    -6.069992133      -0.1754585946     
                  -6.069992133      -0.1754585946     0.07698035026     -0.02553069371    
340008640         -0.0636249644     0.1706391377      2.653550963       5.367603919       
                  2.653550963       5.367603919       -0.1264315676     -0.05408517298    
425008550         0.1596736486      -0.0462494845     3.39676033        -4.871610867      
                  3.39676033        -4.871610867      0.01703793687     0.1026600376      
510008460         -0.1020399312     -0.1633672771     -5.911224606      -0.6595220822     
                  -5.911224606      -0.6595220822     0.06989937141     -0.08046670197    
595008370         -0.1081096207     0.1402526298      2.22517171        5.435468472       
                  2.22517171        5.435468472       -0.08344996312    -0.01273836739    
680008280         0.2050691648      0.03383302159     3.679738204       -4.57688442       
                  3.679738204       -4.57688442       0.09229318438     0.07501221279     
765008190         0.008887700921    -0.1645562241     -5.743288645      -1.114948198      
                  -5.743288645      -1.114948198      0.06068440193     -0.06075413734    
850008100         -0.1814445136     0.1118867618      1.86578215        5.535374591       
                  1.86578215        5.535374591       -0.0718293436     0.06595812298     
935008010         0.1460105315      0.123379784       3.957409754       -4.230308739      
                  3.957409754       -4.230308739      0.1012544194      0.03952246188     
1020007920        0.07614981319     -0.1540236667     -5.595933388      -1.457254108      
                  -5.595933388      -1.457254108      -0.005474263883   -0.07465707771    
1105007830        -0.2257477444     -0.008440951416   1.476295836       5.626251471       
                  1.476295836       5.626251471       -0.06276054256    0.07535283335     
1190007740        0.07112962869     0.1409030683      4.205605796       -3.859531996      
                  4.205605796       -3.859531996      0.1246154496      -0.04241278968    
1275007650        0.164615566       -0.1091233768     -5.471240074      -1.840574652      
                  -5.471240074      -1.840574652      -0.02947215535    -0.08944589151    
1360007560        -0.1639187456     -0.1008922954     1.03827735        5.652309243       
                  1.03827735        5.652309243       -0.005603745661   0.1016373368      
1445007470        0.0008477637885   0.1421336851      4.421676492       -3.543659853      
                  4.421676492       -3.543659853      0.1478033002      -0.08792981583    
1530007380        0.1854752185      -0.01151981967    -5.312274008      -2.199802913      
                  -5.312274008      -2.199802913      -0.06934310147    -0.06442571138    
1615007290        -0.09449900266    -0.1249025196     0.6101968009      5.613687559       
                  0.6101968009      5.613687559       0.02357804012     0.1418106529      
1700007200        -0.08920527667    0.09707991731     4.676216          -3.239059457      
                  4.676216          -3.239059457      0.1114537371      -0.1324802794     
1785007110        0.128333381       0.03160912205     -5.066383996      -2.543306602      
                  -5.066383996      -2.543306602      -0.1317008392     -0.06467113436    
1870007020        -0.02152415438    -0.1368982947     0.2213663468      5.617831514       
                  0.2213663468      5.617831514       0.06571098234     0.1328010259      
1955006930        -0.1072222035     0.02177395381     4.884846866       -2.88666639       
                  4.884846866       -2.88666639       0.0887927819      -0.1936813062     
2040006840        0.08353564338     0.03938797748     -4.831685438      -2.822690697      
                  -4.831685438      -2.822690697      -0.1547774236     -0.04081233685    
2125006750        0.03655997069     -0.09391786297    -0.2023624442     5.642583391       
                  -0.2023624442     5.642583391       0.1299105825      0.1363452549      
2210006660        -0.09347828112    -0.0005466834013  4.984240229       -2.529562806      
                  4.984240229       -2.529562806      0.04743819146     -0.2176760603     
2295006570        0.0304288801      0.0366987865      -4.595276993      -3.153950204      
                  -4.595276993      -3.153950204      -0.1859909942     0.01469989154     
2380006480        0.03023381486     -0.05337014489    -0.5655621092     5.581445522       
                  -0.5655621092     5.581445522       0.1664361476      0.1140123293      
2465006390        -0.08907216138    -0.01691367596    5.062836457       -2.214588696      
                  5.062836457       -2.214588696      -0.01962362096    -0.2595068667     
2550006300        0.01102764577     0.002319897852    -4.287582914      -3.495623453      
                  -4.287582914      -3.495623453      -0.1909363727     0.0597229937      
2635006210        0.02600305776     -0.04506743281    -0.9040862587     5.523633033       
                  -0.9040862587     5.523633033       0.2131052258      0.06427430415     
2720006120        -0.08260526813    -0.01112942711    5.13742893        -1.838702915      
                  5.13742893        -1.838702915      -0.09090212143    -0.2644183901     
2805006030        0.01731045813     0.001015761185    -4.00535709       -3.740876325      
                  -4.00535709       -3.740876325      -0.1629665617     0.1234247148      
2890005940        0.02140404462     -0.0367369236     -1.246193543      5.400159375       
                  -1.246193543      5.400159375       0.2322169309      0.009596562906    
2975005850        -0.09563233309    -0.00899632161    5.172642998       -1.384794099      
                  5.172642998       -1.384794099      -0.1616116565     -0.2469456294     
3060005760        0.01802716717     0.009882913405    -3.708834711      -4.084360709      
                  -3.708834711      -4.084360709      -0.118826312      0.1685277351      
3145005670        0.03729151021     -0.0446696867     -1.637578657      5.246222799       
                  -1.637578657      5.246222799       0.2316898388      -0.07183313136    
3230005580        -0.1018669598     -0.03375988692    5.277454206       -0.9839221176     
                  5.277454206       -0.9839221176     -0.2274006333     -0.2084170303     
3315005490        0.01104707323     0.03254288242     -3.435714643      -4.311092897      
                  -3.435714643      -4.311092897      -0.04600307443    0.2031704799      
3400005400        0.06193497097     -0.02845633787    -1.994993705      5.081680552       
                  -1.994993705      5.081680552       0.2023665579      -0.1444244048     
3485005310        -0.09803624497    -0.06337321363    5.379372397       -0.6143812304     
                  5.379372397       -0.6143812304     -0.2828395293     -0.1290844429     
3570005220        -0.02030635679    0.04955927811     -3.24965427       -4.50362178       
                  -3.24965427       -4.50362178       0.03286110286     0.2113614337      
3655005130        0.06849672054     0.004240381671    -2.194987422      4.949725066       
                  -2.194987422      4.949725066       0.1348580695      -0.208156565      
3740005040        -0.07676545826    -0.0934526591     5.371924471       -0.2595827382     
                  5.371924471       -0.2595827382     -0.3123240629     -0.03898756449    
3825004950        -0.0586141583     0.0381811174      -2.980544942      -4.642202814      
                  -2.980544942      -4.642202814      0.1136504248      0.1764068512      
3910004860        0.06373335555     0.03773635843     -2.618885435      4.726968502       
                  -2.618885435      4.726968502       0.05052174368     -0.25837645       
3995004770        -0.03141134708    -0.1107526198     5.404335257       0.07057596966     
                  5.404335257       0.07057596966     -0.3063063417     0.06513965466     
4080004680        -0.0852854566     0.00739930961     -2.706706647      -4.812379629      
                  -2.706706647      -4.812379629      0.1908597998      0.1289141065      
4165004590        0.03875755836     0.07008457411     -2.87635858       4.590117601       
                  -2.87635858       4.590117601       -0.04622331292    -0.2722578648     
4250004500        0.01153345847     -0.08752024631    5.49437606        0.3096587283      
                  5.49437606        0.3096587283      -0.2653049418     0.1760830816      
4335004410        -0.1011703751     -0.02035015602    -2.453176965      -4.918415929      
                  -2.453176965      -4.918415929      0.2294742442      0.04402450873     
4420004320        -0.00822683999    0.08342018808     -3.079149539      4.482020601       
                  -3.079149539      4.482020601       -0.1647765682     -0.2506737739     
4505004230        0.03784545997     -0.05702102294    5.44946804        0.4888439853      
                  5.44946804        0.4888439853      -0.1962718526     0.2597082188      
4590004140        -0.09905084349    -0.0521499203     -2.183460574      -4.963064263      
                  -2.183460574      -4.963064263      0.2293683339      -0.05843423935    
4675004050        -0.04497405529    0.0700650903      -3.181916911      4.361012482       
                  -3.181916911      4.361012482       -0.2554476389     -0.1909614044     
4760003960        0.05693793745     -0.01629933463    5.299467894       0.7276105344      
                  5.299467894       0.7276105344      -0.08555805056    0.3114881631      
4845003870        -0.0766118931     -0.06823378592    -1.936970521      -5.013109465      
                  -1.936970521      -5.013109465      0.2003396597      -0.1552329853     
4930003780        -0.07655376802    0.04047988874     -3.367211673      4.182873604       
                  -3.367211673      4.182873604       -0.3194917961     -0.09961111524    
5015003690        0.04867996262     0.03803281822     5.175678511       0.9667191727      
                  5.175678511       0.9667191727      0.03516339954     0.3344324082      
5100003600        -0.05191533855    -0.05540341059    -1.767030379      -5.086765046      
                  -1.767030379      -5.086765046      0.1195234545      -0.2287999766     
5185003510        -0.09065027478    0.003125659775    -3.421375081      3.961117514       
                  -3.421375081      3.961117514       -0.3486045104     0.01201001277     
5270003420        0.01365660822     0.07152061095     5.037193075       1.200227042       
                  5.037193075       1.200227042       0.14992605        0.2996199751      
5355003330        -0.04220926991    -0.02119766826    -1.653425184      -5.148900541      
                  -1.653425184      -5.148900541      -0.00205711956    -0.2790434532     
5440003240        -0.0710480001     -0.03991440014    -3.367670024      3.794773059       
                  -3.367670024      3.794773059       -0.3188514927     0.132537214       
5525003150        -0.01870764783    0.0598542226      5.022203433       1.314994308       
                  5.022203433       1.314994308       0.2695865127      0.2017332584      
5610003060        -0.03922540341    0.02812476061     -1.5982624        -4.991480116      
                  -1.5982624        -4.991480116      -0.1373379561     -0.2672542402     
5695002970        -0.01347492456    -0.04314515125    -3.367749419      3.576188375       
                  -3.367749419      3.576188375       -0.2207311309     0.2522609656      
5780002880        -0.02617162159    0.0234972588      4.977325251       1.412704808       
                  4.977325251       1.412704808       0.3294204826      0.05750896095     
5865002790        -0.07790311621    0.07747702637     -1.497868359      -4.726945376      
                  -1.497868359      -4.726945376      -0.2722047536     -0.1851060504     
5950002700        0.03691517475     0.006189695172    -3.398780871      3.366841879       
                  -3.398780871      3.366841879       -0.08256949248    0.3327076467      
6035002610        -0.01867015069    -0.03977666842    4.761444997       1.300856639       
                  4.761444997       1.300856639       0.2982793094      -0.09761122525    
6120002520        -0.1452450857     0.07371960055     -1.385211904      -4.471744026      
                  -1.385211904      -4.471744026      -0.3579527871     -0.04592088831    
6205002430        0.07247316556     0.08926867615     -3.288891265      3.169826237       
                  -3.288891265      3.169826237       0.10238971        0.3373875011      
6290002340        0.06184865891     -0.09148075337    4.542108016       1.160942372       
                  4.542108016       1.160942372       0.1943952782      -0.2488462933     
6375002250        -0.2156587877     0.009307272788    -1.28542319       -4.165936227      
                  -1.28542319       -4.165936227      -0.3766103249     0.131011196       
6460002160        0.02865797457     0.2074507157      -3.02193923       2.953888732       
                  -3.02193923       2.953888732       0.2692758611      0.2714258254      
6545002070        0.1751658798      -0.05840090108    4.097444322       1.063650899       
                  4.097444322       1.063650899       0.02855564274     -0.3174134296     
6630001980        -0.2067376097     -0.1102969486     -1.12620207       -3.834523859      
                  -1.12620207       -3.834523859      -0.2973090805     0.3004638833      
6715001890        -0.07111057066    0.2718686897      -2.706134075      2.625881943       
                  -2.706134075      2.625881943       0.3793421179      0.1516897784      
6800001800        0.2653793828      0.0510445314      3.620617883       1.088751698       
                  3.620617883       1.088751698       -0.1320516431     -0.3078551097     
6885001710        -0.1038263966     -0.2417674228     -0.8549567988     -3.487045049      
                  -0.8549567988     -3.487045049      -0.1835137972     0.3827972088      
6970001620        -0.205667536      0.2327852228      -2.618586293      2.24221453        
                  -2.618586293      2.24221453        0.4210495481      0.02030928829     
7055001530        0.2629717272      0.206801122       3.220092215       1.243342109       
                  3.220092215       1.243342109       -0.2557930201     -0.2713366578     
7140001440        0.08133288377     -0.3004679314     -0.5290336682     -3.214909706      
                  -0.5290336682     -3.214909706      -0.06664697677    0.4477722503      
7225001350        -0.2935660101     0.09121471334     -2.557087054      1.878109928       
                  -2.557087054      1.878109928       0.4477974787      -0.104904988      
7310001260        0.1730433232      0.3385595458      2.841904043       1.134056887       
                  2.841904043       1.134056887       -0.3517568484     -0.1839199577     
7395001170        0.2848933828      -0.2294382642     -0.270045814      -2.947077319      
                  -0.270045814      -2.947077319      0.08355374658     0.4772370688      
7480001080        -0.2973744071     -0.1082017885     -2.406683558      1.631301012       
                  -2.406683558      1.631301012       0.3948705658      -0.2376955567     
7565000990        -0.03182446841    0.4023673684      2.63083662        1.163038838       
                  2.63083662        1.163038838       -0.4261641837     -0.0830427581     
7650000900        0.4007011645      -0.05547462376    -0.0518063053     -2.618376041      
                  -0.0518063053     -2.618376041      0.2113281767      0.4395368902      
7735000810        -0.1610714243     -0.3064594144     -2.298205042      1.34543949        
                  -2.298205042      1.34543949        0.3174762307      -0.345528822      
7820000720        -0.2052530206     0.3180129126      2.278602094       1.236240863       
                  2.278602094       1.236240863       -0.4042404196     0.02483176377     
7905000630        0.4146533539      0.1389387492      0.09040457607     -2.301952767      
                  0.09040457607     -2.301952767      0.3247649294      0.3613887129      
7990000540        0.06666539217     -0.3901785966     -2.217781932      0.9301268745      
                  -2.217781932      0.9301268745      0.2215978901      -0.4063942895     
8075000450        -0.3516337194     0.1191882382      1.905798837       1.432572034       
                  1.905798837       1.432572034       -0.387603607      0.1158879103      
8160000360        0.2965575938      0.3116499634      0.2484727055      -2.180284724      
                  0.2484727055      -2.180284724      0.3983122722      0.280270659       
8245000270        0.2556856218      -0.33285001       -2.022995391      0.6160701812      
                  -2.022995391      0.6160701812      0.1156944311      -0.4385558092     
8330000180        -0.3605653081     -0.1275477197     1.61982206        1.480747494       
                  1.61982206        1.480747494       -0.3375346858     0.1924221761      
8415000090        0.07725024995     0.3924288625      0.3986252759      -1.981462082      
                  0.3986252759      -1.981462082      0.4375519462      0.1705880503      
8500000000        0.3842628235      -0.1834425983     -1.828176116      0.435741547       
                  -1.828176116      0.435741547       -9.400218636e-05  -0.4604514827     
