! RsaToolbox (C) 2013 Rohde & Schwarz America
! 
! Number of points: 101
! Number of ports: 2
! Balanced ports?: 0
! 
! 
# Hz S RI R 50
9000              0.9986835566      -0.01352516266    6.860098124e-05   -2.748740524e-05  
                  6.860098124e-05   -2.748740524e-05  1.008169669       -0.02195775829    
85008910          -0.001686804787   0.1491808435      3.156557726       5.395565776       
                  3.156557726       5.395565776       -0.09238475941    -0.1161398027     
170008820         0.1352451217      -0.03748737444    3.135749931       -5.153624579      
                  3.135749931       -5.153624579      -0.02081572273    0.1717696595      
255008730         -0.1691722969     -0.07301129422    -5.991561376      -0.1497395925     
                  -5.991561376      -0.1497395925     0.07768497171     -0.02663772438    
340008640         -0.06337521999    0.1616349872      2.634682593       5.285307292       
                  2.634682593       5.285307292       -0.1269322312     -0.05404867386    
425008550         0.1520191012      -0.04416625037    3.331643562       -4.826222139      
                  3.331643562       -4.826222139      0.01646918387     0.102884807       
510008460         -0.09712738663    -0.1577370133     -5.846056506      -0.6102804484     
                  -5.846056506      -0.6102804484     0.07090877334     -0.0798391676     
595008370         -0.1034976337     0.132569182       2.226831141       5.353727455       
                  2.226831141       5.353727455       -0.08397427993    -0.0122399207     
680008280         0.1973136652      0.03290392825     3.598175345       -4.553867427      
                  3.598175345       -4.553867427      0.0921120412      0.07553085632     
765008190         0.011229218       -0.1557019156     -5.672996752      -1.058516553      
                  -5.672996752      -1.058516553      0.06030302548     -0.06069829688    
850008100         -0.1760938228     0.1072918319      1.895308073       5.454418221       
                  1.895308073       5.454418221       -0.07196151713    0.06501184011     
935008010         0.1392658253      0.1190887891      3.877787787       -4.213737169      
                  3.877787787       -4.213737169      0.1021302899      0.03891248159     
1020007920        0.07338054389     -0.1461847763     -5.536447918      -1.393298978      
                  -5.536447918      -1.393298978      -0.004828004641   -0.07586595143    
1105007830        -0.2184136265     -0.009091783748   1.525060667       5.54065482        
                  1.525060667       5.54065482        -0.06336069546    0.07527797749     
1190007740        0.06759325797     0.1326923794      4.120122297       -3.841816096      
                  4.120122297       -3.841816096      0.1243442464      -0.04242967618    
1275007650        0.1589081998      -0.1030773651     -5.426904234      -1.755062726      
                  -5.426904234      -1.755062726      -0.03018715631    -0.08920234372    
1360007560        -0.1563379315     -0.09719824657    1.093386653       5.568297041       
                  1.093386653       5.568297041       -0.005763846313   0.1020305128      
1445007470        0.001153923404    0.1326024448      4.326168434       -3.535756388      
                  4.326168434       -3.535756388      0.1473034094      -0.08827482566    
1530007380        0.1756705184      -0.009129730817   -5.270279832      -2.093162977      
                  -5.270279832      -2.093162977      -0.06944423469    -0.06473137973    
1615007290        -0.08792288267    -0.1140661589     0.6877116485      5.510308527       
                  0.6877116485      5.510308527       0.02298208305     0.1424301345      
1700007200        -0.08208298762    0.08823576448     4.559030404       -3.259684839      
                  4.559030404       -3.259684839      0.1109542446      -0.1335107689     
1785007110        0.1164126225      0.02842397961     -5.025088809      -2.415907846      
                  -5.025088809      -2.415907846      -0.132215442      -0.06419625693    
1870007020        -0.02124840999    -0.1225289041     0.3103113859      5.514106496       
                  0.3103113859      5.514106496       0.06556622321     0.1324326262      
1955006930        -0.09496643283    0.01631321634     4.749694452       -2.926349649      
                  4.749694452       -2.926349649      0.08938982629     -0.1940136947     
2040006840        0.07207937143     0.02815320715     -4.790961915      -2.676072561      
                  -4.790961915      -2.676072561      -0.1551394101     -0.04182801748    
2125006750        0.02943172978     -0.07962523693    -0.07867711913    5.538455627       
                  -0.07867711913    5.538455627       0.1309291954      0.1371556833      
2210006660        -0.07594478053    0.0006775982305   4.820503011       -2.587851082      
                  4.820503011       -2.587851082      0.04809671824     -0.2183995604     
2295006570        0.0243945878      0.01916759792     -4.559920606      -2.977942133      
                  -4.559920606      -2.977942133      -0.1865311706     0.01512412064     
2380006480        0.01359602078     -0.04192296401    -0.4202937669     5.459799074       
                  -0.4202937669     5.459799074       0.1669118486      0.114153627       
2465006390        -0.07088247559    -0.005550728943   4.871989215       -2.288035413      
                  4.871989215       -2.288035413      -0.0195680161     -0.2600424327     
2550006300        0.01488928861     -0.01954463392    -4.25165546       -3.297436232      
                  -4.25165546       -3.297436232      -0.1913852073     0.06050871244     
2635006210        0.002712964184    -0.04232325732    -0.7063249068     5.386857229       
                  -0.7063249068     5.386857229       0.2136738032      0.06422732726     
2720006120        -0.07061248427    0.009689942002    4.929773762       -1.936787459      
                  4.929773762       -1.936787459      -0.09051131936    -0.2650027695     
2805006030        0.03216990958     -0.01920449312    -3.98191314       -3.503532455      
                  -3.98191314       -3.503532455      -0.1634059244     0.1231582476      
2890005940        -0.005733515239   -0.04790632846    -0.9879169875     5.240797333       
                  -0.9879169875     5.240797333       0.2324513877      0.008992088215    
2975005850        -0.09282451632    0.02002070731     4.936856178       -1.49569419       
                  4.936856178       -1.49569419       -0.1622149577     -0.2482520588     
3060005760        0.04356965004     -0.001422648033   -3.705488401      -3.806959301      
                  -3.705488401      -3.806959301      -0.1192295901     0.1686208053      
3145005670        0.01486537888     -0.06707637532    -1.365012498      5.090949276       
                  -1.365012498      5.090949276       0.2324518328      -0.07176802079    
3230005580        -0.1126254855     -0.005488839619   5.033983393       -1.116806256      
                  5.033983393       -1.116806256      -0.2271828198     -0.2081985477     
3315005490        0.04444636024     0.03460856773     -3.470164792      -3.968681472      
                  -3.470164792      -3.968681472      -0.04596759099    0.2028641843      
3400005400        0.05092893718     -0.06587263765    -1.641231865      4.917348496       
                  -1.641231865      4.917348496       0.2019416204      -0.1450727076     
3485005310        -0.1270183087     -0.04007294546    5.080767704       -0.8227946994     
                  5.080767704       -0.8227946994     -0.282059101      -0.1302118081     
3570005220        0.01642293246     0.07313006256     -3.323630225      -4.05224555       
                  -3.323630225      -4.05224555       0.03355408007     0.2111360352      
3655005130        0.0776845252      -0.04300530855    -1.75291716       4.759287665       
                  -1.75291716       4.759287665       0.1354173145      -0.2085887854     
3740005040        -0.12176705       -0.08419978327    5.014879981       -0.5478659497     
                  5.014879981       -0.5478659497     -0.3118124223     -0.04000634141    
3825004950        -0.0308482325     0.08797962107     -3.092360928      -4.037462972      
                  -3.092360928      -4.037462972      0.1138568939      0.1771381332      
3910004860        0.1027651965      -0.01058161393    -2.035949362      4.524719575       
                  -2.035949362      4.524719575       0.05139905097     -0.2589570069     
3995004770        -0.09089350019    -0.128967208      4.917720339       -0.3568737309     
                  4.917720339       -0.3568737309     -0.3055060299     0.06538146279     
4080004680        -0.08176797016    0.0815331523      -2.82824676       -4.07839149       
                  -2.82824676       -4.07839149       0.1915754184      0.1286471844      
4165004590        0.1039290986      0.03874523882     -2.240203605      4.352068628       
                  -2.240203605      4.352068628       -0.04573191251    -0.2722859134     
4250004500        -0.04435067742    -0.1388470248     4.897424773       -0.1722597948     
                  4.897424773       -0.1722597948     -0.265675945      0.1758332671      
4335004410        -0.1332307862     0.0574289596      -2.581916791      -4.094228682      
                  -2.581916791      -4.094228682      0.2305615581      0.04488163615     
4420004320        0.0747012954      0.08203192223     -2.32419996       4.202856927       
                  -2.32419996       4.202856927       -0.1636969625     -0.251233145      
4505004230        0.003834366833    -0.1364583002     4.747527256       -0.06796744149    
                  4.747527256       -0.06796744149    -0.1969652759     0.2592785674      
4590004140        -0.1666002467     0.01094888375     -2.33376494       -4.043693675      
                  -2.33376494       -4.043693675      0.2300114628      -0.05747487287    
4675004050        0.03796291535     0.1083318364      -2.319453145      4.021554472       
                  -2.319453145      4.021554472       -0.2556145005     -0.1917029368     
4760003960        0.06044111025     -0.1102031668     4.554075104       0.1194015514      
                  4.554075104       0.1194015514      -0.08698244324    0.3115265563      
4845003870        -0.1682989309     -0.03690357252    -2.092214289      -4.000232828      
                  -2.092214289      -4.000232828      0.2006290449      -0.1548349569     
4930003780        -0.0135277579     0.1180160932      -2.41110589       3.780699661       
                  -2.41110589       3.780699661       -0.3200181982     -0.1000573761     
5015003690        0.09578681688     -0.05439463733    4.382273065       0.3222906684      
                  4.382273065       0.3222906684      0.03523111979     0.3351884209      
5100003600        -0.1555221503     -0.06927577986    -1.919413614      -3.930808321      
                  -1.919413614      -3.930808321      0.1197873539      -0.2293935952     
5185003510        -0.06565903314    0.1052755442      -2.437936628      3.517590943       
                  -2.437936628      3.517590943       -0.350236166      0.01086943252     
5270003420        0.09612416738     0.004438205011    4.215728215       0.5401008777      
                  4.215728215       0.5401008777      0.1494637697      0.300370844       
5355003330        -0.1333059871     -0.08370797567    -1.794729247      -3.863477945      
                  -1.794729247      -3.863477945      -0.001955167779   -0.2795245475     
5440003240        -0.09060446744    0.06372891301     -2.42275315       3.334516475       
                  -2.42275315       3.334516475       -0.320124731      0.1318351393      
5525003150        0.08322436936     0.03504661897     4.132272992       0.6331323644      
                  4.132272992       0.6331323644      0.2690415398      0.2020736947      
5610003060        -0.09285896783    -0.066260832      -1.691834433      -3.738337421      
                  -1.691834433      -3.738337421      -0.1363525739     -0.268365835      
5695002970        -0.07443711477    0.04308089953     -2.423168031      3.106892575       
                  -2.423168031      3.106892575       -0.2218422645     0.2528792136      
5780002880        0.07683587292     0.04721485022     3.999797601       0.706349193       
                  3.999797601       0.706349193       0.3298362031      0.05852650558     
5865002790        -0.08458198937    -0.02896134783    -1.531484576      -3.578487871      
                  -1.531484576      -3.578487871      -0.27202456       -0.1859818148     
5950002700        -0.05239042327    0.05645276071     -2.449303853      2.902289194       
                  -2.449303853      2.902289194       -0.08311686443    0.3334462014      
6035002610        0.06025404328     0.02759859203     3.774173399       0.6772269699      
                  3.774173399       0.6772269699      0.2994215927      -0.09691930377    
6120002520        -0.1070769756     -0.02110059383    -1.369783556      -3.414819397      
                  -1.369783556      -3.414819397      -0.3583032103     -0.04604121309    
6205002430        -0.02681972185    0.09397684227     -2.394863397      2.721684758       
                  -2.394863397      2.721684758       0.1022143374      0.3381592317      
6290002340        0.09856774235     2.81473578e-05    3.586755745       0.643838338       
                  3.586755745       0.643838338       0.1966577849      -0.2474477798     
6375002250        -0.1471724646     -0.05777260181    -1.237046014      -3.263445866      
                  -1.237046014      -3.263445866      -0.3762521744     0.1293038609      
6460002160        -0.0518774693     0.172875507       -2.284388726      2.558313683       
                  -2.284388726      2.558313683       0.2711421909      0.272833669       
6545002070        0.171159672       0.03017093758     3.313999695       0.6459237819      
                  3.313999695       0.6459237819      0.02939010712     -0.3205167259     
6630001980        -0.1252293493     -0.1395376412     -1.08352416       -3.079972454      
                  -1.08352416       -3.079972454      -0.2991255361     0.3024124         
6715001890        -0.1252951184     0.2172145497      -2.123521276      2.292731623       
                  -2.123521276      2.292731623       0.3843406137      0.1568084872      
6800001800        0.2280359632      0.1241175893      2.995493982       0.7541269912      
                  2.995493982       0.7541269912      -0.131238473      -0.3091431446     
6885001710        -0.02712552327    -0.2313658034     -0.8030294621     -2.866884021      
                  -0.8030294621     -2.866884021      -0.1886213126     0.3884971428      
6970001620        -0.2308497626     0.1684547195      -2.139018974      1.971289288       
                  -2.139018974      1.971289288       0.4237598073      0.02411545774     
7055001530        0.2121909063      0.24550298        2.759190155       0.9210595158      
                  2.759190155       0.9210595158      -0.2571956753     -0.2716585235     
7140001440        0.1275996935      -0.2688568134     -0.5572018135     -2.779297206      
                  -0.5572018135     -2.779297206      -0.06379576248    0.4545058022      
7225001350        -0.2911058014     0.04164456974     -2.183914181      1.723382203       
                  -2.183914181      1.723382203       0.4530884056      -0.1029195772     
7310001260        0.1260589852      0.3558660197      2.548770578       0.9413615401      
                  2.548770578       0.9413615401      -0.3591375651     -0.1852411666     
7395001170        0.306870504       -0.1882352819     -0.2858609751     -2.611023164      
                  -0.2858609751     -2.611023164      0.07674063207     0.482713318       
7480001080        -0.2721550242     -0.1541367183     -2.07634412       1.462977669       
                  -2.07634412       1.462977669       0.3951834275      -0.2369785532     
7565000990        -0.07338879304    0.3898366394      2.324950173       0.9687676394      
                  2.324950173       0.9687676394      -0.4256353931     -0.08471804199    
7650000900        0.4031173076      -0.02392956967    -0.09159047101    -2.372090189      
                  -0.09159047101    -2.372090189      0.2129428306      0.4395923086      
7735000810        -0.1354177914     -0.3211748598     -2.09066912       1.257514339       
                  -2.09066912       1.257514339       0.3177599228      -0.3464528982     
7820000720        -0.2308001576     0.2996820827      2.096613198       1.111501795       
                  2.096613198       1.111501795       -0.406894829      0.02469818379     
7905000630        0.4064599087      0.1591311936      0.07143976697     -2.148140621      
                  0.07143976697     -2.148140621      0.3242053994      0.3631564802      
7990000540        0.0901961261      -0.391895067      -2.04511125       0.8678452537      
                  -2.04511125       0.8678452537      0.2218400364      -0.4077104101     
8075000450        -0.3612164461     0.09810368428     1.7749921         1.323261368       
                  1.7749921         1.323261368       -0.3887834633     0.1186020722      
8160000360        0.2829930417      0.3276827844      0.2247544811      -2.052831816      
                  0.2247544811      -2.052831816      0.3997137714      0.2804714569      
8245000270        0.2727381737      -0.3298643352     -1.92668919       0.5916397878      
                  -1.92668919       0.5916397878      0.1146744759      -0.4447570619     
8330000180        -0.3646882076     -0.1506480549     1.549863829       1.408506434       
                  1.549863829       1.408506434       -0.3437060732     0.1932114787      
8415000090        0.06320575897     0.3976891055      0.3588904267      -1.897177757      
                  0.3588904267      -1.897177757      0.4363379943      0.1674787833      
8500000000        0.3907319114      -0.1762837952     -1.756195326      0.4328317509      
                  -1.756195326      0.4328317509      -0.004074994791   -0.4613814715     
