! RsaToolbox (C) 2013 Rohde & Schwarz America
! 
! Number of points: 101
! Number of ports: 2
! Balanced ports?: 0
! 
! 
# Hz S RI R 50
9000              1.007352081       -0.02467308985    9.637600729e-05   -2.680471961e-05  
                  9.637600729e-05   -2.680471961e-05  1.02128694        -0.03083206652    
85008910          0.002713082715    0.1594960939      3.194568178       5.525891305       
                  3.194568178       5.525891305       -0.09113368335    -0.115318892      
170008820         0.1422361464      -0.04476056101    3.200574992       -5.225912939      
                  3.200574992       -5.225912939      -0.02035795246    0.1718454046      
255008730         -0.1761979509     -0.07632503944    -6.064763071      -0.1790521862     
                  -6.064763071      -0.1790521862     0.07768287347     -0.02625618019    
340008640         -0.06340393674    0.169968263       2.648923702       5.363054721       
                  2.648923702       5.363054721       -0.1263004033     -0.05333384571    
425008550         0.1594865021      -0.04650707742    3.39993804        -4.870522986      
                  3.39993804        -4.870522986      0.01759177888     0.1031540826      
510008460         -0.1019225732     -0.1632925124     -5.911214869      -0.6530042537     
                  -5.911214869      -0.6530042537     0.07017555612     -0.07909720709    
595008370         -0.1078519854     0.1400672768      2.221330731       5.437937691       
                  2.221330731       5.437937691       -0.08341334772    -0.01164872639    
680008280         0.2045663224      0.03407246753     3.672139002       -4.576982655      
                  3.672139002       -4.576982655      0.09248883768     0.07495570076     
765008190         0.009983882501    -0.1641318015     -5.734431769      -1.109127502      
                  -5.734431769      -1.109127502      0.05976228245     -0.06060461549    
850008100         -0.1821517459     0.1119349578      1.866399977       5.530201921       
                  1.866399977       5.530201921       -0.07170526235    0.06526745722     
935008010         0.1457511133      0.1236530818      3.955846053       -4.23163846       
                  3.955846053       -4.23163846       0.1021897272      0.03849413524     
1020007920        0.07565905192     -0.1541157724     -5.593088223      -1.455703029      
                  -5.593088223      -1.455703029      -0.005326241007   -0.07565623438    
1105007830        -0.2259004804     -0.008533355522   1.478920804       5.62421763        
                  1.478920804       5.62421763        -0.0623887497     0.07524203071     
1190007740        0.07147568345     0.1405468065      4.202489589       -3.858325572      
                  4.202489589       -3.858325572      0.1242596461      -0.04240589774    
1275007650        0.1646681045      -0.1092402368     -5.472700579      -1.833974963      
                  -5.472700579      -1.833974963      -0.02966167678    -0.08914643623    
1360007560        -0.1638635681     -0.1009905997     1.040993055       5.648104234       
                  1.040993055       5.648104234       -0.00570816473    0.1015679934      
1445007470        0.0005458093999   0.1426699786      4.420021542       -3.545096453      
                  4.420021542       -3.545096453      0.1469923479      -0.08826505443    
1530007380        0.1856642783      -0.01170288363    -5.310334646      -2.194134484      
                  -5.310334646      -2.194134484      -0.06896774435    -0.06408811655    
1615007290        -0.09454495243    -0.1240166305     0.6159380929      5.609401298       
                  0.6159380929      5.609401298       0.0234330006      0.1419385401      
1700007200        -0.08865938535    0.09773568284     4.676009008       -3.244554929      
                  4.676009008       -3.244554929      0.1108709527      -0.133438675      
1785007110        0.1288923576      0.03147774281     -5.067976434      -2.533281475      
                  -5.067976434      -2.533281475      -0.1316008354     -0.0637860725     
1870007020        -0.02161430722    -0.1365062993     0.2205188181      5.613727447       
                  0.2205188181      5.613727447       0.06605497322     0.1321695015      
1955006930        -0.1074134091     0.02174995955     4.883237677       -2.886718872      
                  4.883237677       -2.886718872      0.08952375341     -0.1937669209     
2040006840        0.08330140447     0.03946317815     -4.831623521      -2.822352261      
                  -4.831623521      -2.822352261      -0.1546218868     -0.04168613204    
2125006750        0.03640349119     -0.09348028236    -0.1978729597     5.642208244       
                  -0.1978729597     5.642208244       0.1311824428      0.1363863877      
2210006660        -0.09281896268    -0.0008492287466  4.979397048       -2.53275439       
                  4.979397048       -2.53275439       0.04814921035     -0.2177378073     
2295006570        0.02989952868     0.03726286401     -4.598933065      -3.150827818      
                  -4.598933065      -3.150827818      -0.1856197052     0.01554111392     
2380006480        0.02918104591     -0.0534320097     -0.5632416353     5.580073512       
                  -0.5632416353     5.580073512       0.1670367641      0.1140980855      
2465006390        -0.08869720244    -0.0170643362     5.059066373       -2.21310664       
                  5.059066373       -2.21310664       -0.01956767817    -0.2588688606     
2550006300        0.01164765713     0.001986354586    -4.290435621      -3.489879843      
                  -4.290435621      -3.489879843      -0.1910358966     0.06085354672     
2635006210        0.02643377898     -0.04522447697    -0.9014166296     5.523005517       
                  -0.9014166296     5.523005517       0.2135170933      0.06452293938     
2720006120        -0.08285633875    -0.01128642791    5.134828972       -1.84264607       
                  5.134828972       -1.84264607       -0.09071447394    -0.2642981787     
2805006030        0.01732682147     0.0004919162338   -4.004441555      -3.739605297      
                  -4.004441555      -3.739605297      -0.1629558946     0.1236583874      
2890005940        0.02191368779     -0.03682885965    -1.241787419      5.401311701       
                  -1.241787419      5.401311701       0.2320720658      0.009267235215    
2975005850        -0.09465955437    -0.008883728189   5.168544995       -1.383380388      
                  5.168544995       -1.383380388      -0.1621609471     -0.2475250912     
3060005760        0.01817754952     0.01050392109     -3.708690202      -4.082471917      
                  -3.708690202      -4.082471917      -0.118631658      0.1689012857      
3145005670        0.03701319017     -0.04412774527    -1.642776804      5.24279709        
                  -1.642776804      5.24279709        0.2309817799      -0.07181037471    
3230005580        -0.101593674      -0.03344966575    5.277563865       -0.9804965496     
                  5.277563865       -0.9804965496     -0.2275336509     -0.2071284633     
3315005490        0.01011273985     0.03226159416     -3.434552284      -4.307820981      
                  -3.434552284      -4.307820981      -0.04544385362    0.2034511949      
3400005400        0.06112404473     -0.02827515326    -1.992686413      5.078888677       
                  -1.992686413      5.078888677       0.2013712113      -0.1448003092     
3485005310        -0.09825771118    -0.06417805489    5.37729306        -0.6140656865     
                  5.37729306        -0.6140656865     -0.2823769586     -0.1295834435     
3570005220        -0.02046675492    0.04965187637     -3.255240249      -4.501848701      
                  -3.255240249      -4.501848701      0.03339036217     0.2106972125      
3655005130        0.06907632577     0.004727361431    -2.192833         4.947386628       
                  -2.192833         4.947386628       0.1345792077      -0.2087050115     
3740005040        -0.07711352858    -0.09376412753    5.369696264       -0.2560099477     
                  5.369696264       -0.2560099477     -0.3116704283     -0.03984863184    
3825004950        -0.05897810243    0.03701920261     -2.980355805      -4.639571396      
                  -2.980355805      -4.639571396      0.1131497388      0.1766423782      
3910004860        0.06333250478     0.03751728497     -2.617823127      4.726459073       
                  -2.617823127      4.726459073       0.05022334025     -0.2588766803     
3995004770        -0.03117373749    -0.1106346407     5.404983675       0.06751869013     
                  5.404983675       0.06751869013     -0.305361985      0.06514344631     
4080004680        -0.08463030053    0.007559760707    -2.709368137      -4.806792466      
                  -2.709368137      -4.806792466      0.1906593787      0.1281367807      
4165004590        0.03939351114     0.07046273754     -2.876624257      4.589502141       
                  -2.876624257      4.589502141       -0.04622000121    -0.2715174047     
4250004500        0.01116968798     -0.08751916809    5.49157809        0.3088434078      
                  5.49157809        0.3088434078      -0.2656408867     0.1755566805      
4335004410        -0.101116759      -0.02026508643    -2.451775117      -4.920853941      
                  -2.451775117      -4.920853941      0.2297444872      0.0442996676      
4420004320        -0.007888430961   0.08366204867     -3.08006802       4.475763738       
                  -3.08006802       4.475763738       -0.1641636018     -0.2504770394     
4505004230        0.03820138907     -0.05655252803    5.444251664       0.4911291569      
                  5.444251664       0.4911291569      -0.1966030893     0.2587282388      
4590004140        -0.09967923156    -0.05219191356    -2.184819873      -4.956315411      
                  -2.184819873      -4.956315411      0.2291832879      -0.05764690436    
4675004050        -0.04507542224    0.07022591191     -3.17408677       4.363291364       
                  -3.17408677       4.363291364       -0.2552062633     -0.1908657585     
4760003960        0.05708353923     -0.0156943291     5.296476641       0.7234759637      
                  5.296476641       0.7234759637      -0.08648123532    0.3109780427      
4845003870        -0.07647358709    -0.06835650201    -1.935420748      -5.007025892      
                  -1.935420748      -5.007025892      0.2005161232      -0.1550039373     
4930003780        -0.07628003006    0.04061100191     -3.367913583      4.174606338       
                  -3.367913583      4.174606338       -0.319772758      -0.09984850506    
5015003690        0.04938234033     0.03760991795     5.170037976       0.9662940703      
                  5.170037976       0.9662940703      0.03586787029     0.3342839374      
5100003600        -0.05137417698    -0.05573948849    -1.764735741      -5.081275392      
                  -1.764735741      -5.081275392      0.1189490366      -0.2290443998     
5185003510        -0.09044000408    0.003682843613    -3.418267114      3.955135075       
                  -3.418267114      3.955135075       -0.3491619517     0.01139020575     
5270003420        0.01485601823     0.071672863       5.033227907       1.198700887       
                  5.033227907       1.198700887       0.1497129415      0.2995472222      
5355003330        -0.04219771042    -0.02211306562    -1.644884791      -5.144818483      
                  -1.644884791      -5.144818483      -0.002152619278   -0.2793006066     
5440003240        -0.07108921537    -0.03953839589    -3.36226914       3.790279893       
                  -3.36226914       3.790279893       -0.3192361834     0.1320765002      
5525003150        -0.01874898595    0.06074636787     5.017617948       1.313728204       
                  5.017617948       1.313728204       0.2694045407      0.2011392652      
5610003060        -0.03936896296    0.02829424517     -1.595823207      -4.986471517      
                  -1.595823207      -4.986471517      -0.1367452573     -0.2676210411     
5695002970        -0.01306258387    -0.04322396577    -3.36316327       3.570619174       
                  -3.36316327       3.570619174       -0.2214654819     0.2530209117      
5780002880        -0.02598400094    0.02310307222     4.971566093       1.407706452       
                  4.971566093       1.407706452       0.3294575633      0.05754558117     
5865002790        -0.07703469214    0.07642725478     -1.496277577      -4.723382522      
                  -1.496277577      -4.723382522      -0.2724142778     -0.1849976091     
5950002700        0.03679146667     0.005478095753    -3.398952123      3.364704179       
                  -3.398952123      3.364704179       -0.08284278594    0.3331808661      
6035002610        -0.01899038113    -0.03965345011    4.756738516       1.302737244       
                  4.756738516       1.302737244       0.2982217576      -0.09729991959    
6120002520        -0.1451296588     0.07375604723     -1.380246967      -4.46321458       
                  -1.380246967      -4.46321458       -0.3583415699     -0.0452318889     
6205002430        0.07123739271     0.0880939437      -3.284493984      3.15836495        
                  -3.284493984      3.15836495        0.1019628668      0.3372224095      
6290002340        0.06106330747     -0.09112455666    4.531043552       1.165355291       
                  4.531043552       1.165355291       0.1944088814      -0.2478361477     
6375002250        -0.2158768267     0.008591161267    -1.281391023      -4.166470158      
                  -1.281391023      -4.166470158      -0.3762393384     0.1299620595      
6460002160        0.03016794135     0.2065960731      -3.038388747      2.959203962       
                  -3.038388747      2.959203962       0.2708284996      0.2721664912      
6545002070        0.176728726       -0.06020376686    4.125484877       1.067616096       
                  4.125484877       1.067616096       0.02868043823     -0.3200916917     
6630001980        -0.207666358      -0.1110483682     -1.135711502      -3.86160333       
                  -1.135711502      -3.86160333       -0.2979567768     0.3023981597      
6715001890        -0.07147891651    0.2757857828      -2.734247261      2.640556089       
                  -2.734247261      2.640556089       0.3840168388      0.1559257264      
6800001800        0.2661079243      0.05471966981     3.635822327       1.125353012       
                  3.635822327       1.125353012       -0.1316365849     -0.3086597749     
6885001710        -0.102967557      -0.2407452136     -0.8223087638     -3.509620616      
                  -0.8223087638     -3.509620616      -0.1873926018     0.3874130496      
6970001620        -0.2092428431     0.2334572654      -2.642725807      2.231299902       
                  -2.642725807      2.231299902       0.4232367275      0.02324598098     
7055001530        0.2633832793      0.2077646133      3.228844009       1.242360588       
                  3.228844009       1.242360588       -0.2566962286     -0.2711614523     
7140001440        0.08192821603     -0.3001257544     -0.54282481       -3.235278331      
                  -0.54282481       -3.235278331      -0.062658684      0.4540327535      
7225001350        -0.2972254173     0.09680088842     -2.58351399       1.902326306       
                  -2.58351399       1.902326306       0.4521604919      -0.103301111      
7310001260        0.1704760238      0.3476104372      2.869844034       1.160108233       
                  2.869844034       1.160108233       -0.3589103762     -0.1842796398     
7395001170        0.2853892437      -0.2281035089     -0.2478821752     -2.969551444      
                  -0.2478821752     -2.969551444      0.07713273847     0.4820006124      
7480001080        -0.2997108002     -0.1106415086     -2.418442198      1.615074472       
                  -2.418442198      1.615074472       0.3947019033      -0.2379073976     
7565000990        -0.0308530513     0.3999951426      2.618871368       1.164901458       
                  2.618871368       1.164901458       -0.4249991706     -0.08434276672    
7650000900        0.4010348426      -0.05662168295    -0.05538679079    -2.612849512      
                  -0.05538679079    -2.612849512      0.2137981105      0.4388729539      
7735000810        -0.1613039321     -0.3067937724     -2.299101087      1.349135656       
                  -2.299101087      1.349135656       0.3171109582      -0.3457880427     
7820000720        -0.2072112813     0.3177959918      2.280020275       1.241097098       
                  2.280020275       1.241097098       -0.4061499453     0.02399721331     
7905000630        0.4146200085      0.1385528795      0.09683494083     -2.301487459      
                  0.09683494083     -2.301487459      0.3253862825      0.3622251411      
7990000540        0.06615168897     -0.3909220354     -2.215766328      0.926689903       
                  -2.215766328      0.926689903       0.2215244339      -0.4074957264     
8075000450        -0.350575153      0.120455895       1.908872843       1.4331261         
                  1.908872843       1.4331261         -0.3882456326     0.1183799596      
8160000360        0.2971254994      0.3133824931      0.2519106486      -2.191830957      
                  0.2519106486      -2.191830957      0.3987835345      0.2800585828      
8245000270        0.2568159207      -0.337669745      -2.042014101      0.6167444363      
                  -2.042014101      0.6167444363      0.1136114917      -0.443550609      
8330000180        -0.3662980773     -0.1331792952     1.638680559       1.501483412       
                  1.638680559       1.501483412       -0.3433049221     0.1931952664      
8415000090        0.07857982224     0.3928683699      0.3841333284      -1.998614292      
                  0.3841333284      -1.998614292      0.4358791306      0.1671370506      
8500000000        0.3823951353      -0.1863527983     -1.832093063      0.4477496908      
                  -1.832093063      0.4477496908      -0.004468012231   -0.4600699175     
