! RsaToolbox (C) 2013 Rohde & Schwarz America
! 
! Number of points: 101
! Number of ports: 2
! Balanced ports?: 0
! 
! 
# Hz S RI R 50
9000              1.015007345       -0.02134915879    6.686841327e-05   -4.607862121e-05  
                  6.686841327e-05   -4.607862121e-05  1.02150359        -0.03221076273    
85008910          0.002433787168    0.1592630459      3.19531824        5.519786509       
                  3.19531824        5.519786509       -0.09266683144    -0.1154681333     
170008820         0.1423036452      -0.04444604416    3.19189037        -5.229505267      
                  3.19189037        -5.229505267      -0.02040877801    0.1716153699      
255008730         -0.1763419744     -0.07582505317    -6.062300822      -0.1696949109     
                  -6.062300822      -0.1696949109     0.07753589513     -0.02621429427    
340008640         -0.06338715825    0.1699434264      2.653444746       5.359122529       
                  2.653444746       5.359122529       -0.126757786      -0.05384556013    
425008550         0.1596476009      -0.04640963462    3.393792035       -4.871748577      
                  3.393792035       -4.871748577      0.01658178054     0.1029356131      
510008460         -0.1016537869     -0.1637265508     -5.909958427      -0.6482541286     
                  -5.909958427      -0.6482541286     0.07094472074     -0.07975250193    
595008370         -0.1072285615     0.1402357426      2.23250505        5.427466032       
                  2.23250505        5.427466032       -0.08387547543    -0.01212302248    
680008280         0.2045671393      0.03374701689     3.665694868       -4.577505719      
                  3.665694868       -4.577505719      0.09219107719     0.07507025453     
765008190         0.009329910163    -0.1640038138     -5.735048533      -1.10431266       
                  -5.735048533      -1.10431266       0.06031201881     -0.0605319691     
850008100         -0.1818883452     0.1117308927      1.869317663       5.527460109       
                  1.869317663       5.527460109       -0.07162817126    0.0650921084      
935008010         0.1457340759      0.1237425711      3.950951987       -4.233139865      
                  3.950951987       -4.233139865      0.1021594861      0.03866419867     
1020007920        0.07538377342     -0.1541301814     -5.592646005      -1.450606162      
                  -5.592646005      -1.450606162      -0.004655066451   -0.0756312972     
1105007830        -0.2257903361     -0.008194868791   1.477989912       5.620402259       
                  1.477989912       5.620402259       -0.06287501006    0.07508368636     
1190007740        0.07154010362     0.1406788043      4.199921153       -3.861443483      
                  4.199921153       -3.861443483      0.1243173979      -0.04272202343    
1275007650        0.1647199335      -0.1088915319     -5.474290812      -1.826883612      
                  -5.474290812      -1.826883612      -0.03012134205    -0.08918359185    
1360007560        -0.1636748604     -0.1007461038     1.042103974       5.647631841       
                  1.042103974       5.647631841       -0.005556883583   0.1018875906      
1445007470        0.0006050007694   0.142463829       4.418040452       -3.540825631      
                  4.418040452       -3.540825631      0.1470634912      -0.08842925693    
1530007380        0.1850182881      -0.01135789962    -5.309466659      -2.189814668      
                  -5.309466659      -2.189814668      -0.06912827305    -0.06425016768    
1615007290        -0.09419008511    -0.1241804118     0.6187501348      5.605466817       
                  0.6187501348      5.605466817       0.02342745722     0.142339034       
1700007200        -0.08854919636    0.09758792933     4.672110163       -3.243562136      
                  4.672110163       -3.243562136      0.1108445944      -0.133288661      
1785007110        0.1284746999      0.03189858993     -5.065376473      -2.531435888      
                  -5.065376473      -2.531435888      -0.1316524527     -0.06387089869    
1870007020        -0.02203559725    -0.136570437      0.2225040226      5.611388311       
                  0.2225040226      5.611388311       0.06596107991     0.13202379        
1955006930        -0.1072231267     0.02184269721     4.879731993       -2.889271672      
                  4.879731993       -2.889271672      0.08909307962     -0.1940671562     
2040006840        0.08292633096     0.03942298885     -4.828116484      -2.81733851       
                  -4.828116484      -2.81733851       -0.15478448       -0.04154689237    
2125006750        0.0363280587      -0.09335839817    -0.1948698824     5.639204126       
                  -0.1948698824     5.639204126       0.1311261196      0.1370429843      
2210006660        -0.09253735561    -0.0007700561546  4.975173787       -2.534049326      
                  4.975173787       -2.534049326      0.04785861077     -0.2181810202     
2295006570        0.0297258076      0.03714047437     -4.596109213      -3.147492777      
                  -4.596109213      -3.147492777      -0.1861362773     0.01546174567     
2380006480        0.02902586904     -0.05279287571    -0.5584164349     5.577365555       
                  -0.5584164349     5.577365555       0.1672409941      0.1139869991      
2465006390        -0.0881800218     -0.01646407114    5.055608632       -2.213185437      
                  5.055608632       -2.213185437      -0.01946353847    -0.2595353805     
2550006300        0.01185277459     0.00180432802     -4.288131259      -3.484820225      
                  -4.288131259      -3.484820225      -0.1906626288     0.06059589176     
2635006210        0.02614648446     -0.04521531934    -0.8994637289     5.520635134       
                  -0.8994637289     5.520635134       0.213063815       0.06406622257     
2720006120        -0.08274057695    -0.01119350851    5.131141703       -1.83998162       
                  5.131141703       -1.83998162       -0.09045992107    -0.2643933909     
2805006030        0.01771170422     0.0002779526004   -4.003280202      -3.734649835      
                  -4.003280202      -3.734649835      -0.1630285103     0.1235359585      
2890005940        0.02217337191     -0.03664467899    -1.239400282      5.394708651       
                  -1.239400282      5.394708651       0.2319199807      0.008785784367    
2975005850        -0.09501678438    -0.00839531154    5.163417234       -1.385699339      
                  5.163417234       -1.385699339      -0.1623350505     -0.2471959975     
3060005760        0.01836341679     0.01051118842     -3.705804773      -4.077084872      
                  -3.705804773      -4.077084872      -0.1192887704     0.1688060127      
3145005670        0.03654360591     -0.04448130212    -1.636699551      5.243560575       
                  -1.636699551      5.243560575       0.2318051917      -0.07154403158    
3230005580        -0.1018545235     -0.03340098874    5.271951553       -0.9838013576     
                  5.271951553       -0.9838013576     -0.2274800393     -0.2075002122     
3315005490        0.01178338823     0.03218913598     -3.433350256      -4.305202901      
                  -3.433350256      -4.305202901      -0.0457960681     0.2027708373      
3400005400        0.06150623167     -0.02935545142    -1.991307434      5.076966602       
                  -1.991307434      5.076966602       0.2011699511      -0.1448970787     
3485005310        -0.09770266508    -0.06432132418    5.374536052       -0.6158840208     
                  5.374536052       -0.6158840208     -0.2820439843     -0.1293598442     
3570005220        -0.02046371546    0.04956596738     -3.252247284      -4.494561244      
                  -3.252247284      -4.494561244      0.0331131149      0.2107837003      
3655005130        0.06916707717     0.00357846347     -2.189424865      4.943234801       
                  -2.189424865      4.943234801       0.1346294901      -0.2087695331     
3740005040        -0.07743235743    -0.09348075409    5.362449268       -0.2581417003     
                  5.362449268       -0.2581417003     -0.3121725772     -0.03989286448    
3825004950        -0.05897420327    0.03726412317     -2.979146116      -4.630198695      
                  -2.979146116      -4.630198695      0.1132982295      0.1756602607      
3910004860        0.06385500619     0.0376484773      -2.609981418      4.720463468       
                  -2.609981418      4.720463468       0.05021069091     -0.2589749393     
3995004770        -0.03088120087    -0.111437451      5.397790524       0.06469120326     
                  5.397790524       0.06469120326     -0.3055276277     0.06549053688     
4080004680        -0.08516132785    0.008064002677    -2.704748859      -4.80138935       
                  -2.704748859      -4.80138935       0.19038652        0.128177751       
4165004590        0.03957353655     0.07023055417     -2.872549211      4.583911257       
                  -2.872549211      4.583911257       -0.04612548321    -0.2714982331     
4250004500        0.01182726848     -0.08812111797    5.485173481       0.3119713537      
                  5.485173481       0.3119713537      -0.2657761793     0.175402863       
4335004410        -0.1016132145     -0.01994884535    -2.446989428      -4.911603508      
                  -2.446989428      -4.911603508      0.2296173302      0.0445713566      
4420004320        -0.007331888037   0.08379687231     -3.075072369      4.470667317       
                  -3.075072369      4.470667317       -0.1639535177     -0.2506744385     
4505004230        0.03806211991     -0.05702647286    5.435475131       0.4905233149      
                  5.435475131       0.4905233149      -0.1964872639     0.2590235362      
4590004140        -0.1001455397     -0.05218214076    -2.181899421      -4.949138         
                  -2.181899421      -4.949138         0.2296763281      -0.05789309315    
4675004050        -0.04501512048    0.07015997239     -3.173755959      4.352999856       
                  -3.173755959      4.352999856       -0.2553147236     -0.1911431796     
4760003960        0.05734857979     -0.01633052851    5.286672439       0.7244462784      
                  5.286672439       0.7244462784      -0.08610824036    0.3115363418      
4845003870        -0.07654793445    -0.06878752424    -1.933869765      -5.00015713       
                  -1.933869765      -5.00015713       0.2000489056      -0.1551652626     
4930003780        -0.07658385903    0.04055893691     -3.356818112      4.16855652        
                  -3.356818112      4.16855652        -0.3194371805     -0.09966144853    
5015003690        0.04982078057     0.03773497791     5.158215693       0.9646854944      
                  5.158215693       0.9646854944      0.0351739352      0.3344196729      
5100003600        -0.05190008412    -0.05628885115    -1.761336038      -5.071272239      
                  -1.761336038      -5.071272239      0.1195054423      -0.2292440528     
5185003510        -0.09077159573    0.004471699021    -3.412464479      3.946299161       
                  -3.412464479      3.946299161       -0.3495254501     0.01148578542     
5270003420        0.01475677624     0.07149410762     5.022689243       1.197944837       
                  5.022689243       1.197944837       0.1498058613      0.2996923526      
5355003330        -0.04216957165    -0.02275580959    -1.646061323      -5.132049001      
                  -1.646061323      -5.132049001      -0.002074283055   -0.279050207      
5440003240        -0.07161006131    -0.03931761454    -3.358913335      3.779999831       
                  -3.358913335      3.779999831       -0.3189457745     0.1326928949      
5525003150        -0.01831311372    0.0608691691      5.007830235       1.312643999       
                  5.007830235       1.312643999       0.2691941517      0.2014424033      
5610003060        -0.03855549643    0.02748513891     -1.589379566      -4.973950167      
                  -1.589379566      -4.973950167      -0.1368243582     -0.2675422836     
5695002970        -0.01389074763    -0.04304659291    -3.358404332      3.562774632       
                  -3.358404332      3.562774632       -0.2212030055     0.2528649788      
5780002880        -0.02594605685    0.02369354887     4.957803584       1.407277911       
                  4.957803584       1.407277911       0.3293597098      0.05772508082     
5865002790        -0.07650111222    0.07572674394     -1.490872523      -4.712807207      
                  -1.490872523      -4.712807207      -0.2725444537     -0.1849150878     
5950002700        0.03611550022     0.005085690551    -3.393612367      3.35609021        
                  -3.393612367      3.35609021        -0.08292278085    0.3328585937      
6035002610        -0.01881751345    -0.03863899937    4.744760622       1.30370221        
                  4.744760622       1.30370221        0.298385494       -0.09742197974    
6120002520        -0.1446156997     0.07357425604     -1.374717987      -4.455746451      
                  -1.374717987      -4.455746451      -0.3585336813     -0.04524108099    
6205002430        0.0707573255      0.08794991453     -3.279552686      3.15130219        
                  -3.279552686      3.15130219        0.1020025569      0.3374115271      
6290002340        0.06016306642     -0.09053860052    4.520361025       1.164977546       
                  4.520361025       1.164977546       0.1947672019      -0.2475291015     
6375002250        -0.2149094357     0.008678458193    -1.274347571      -4.160933005      
                  -1.274347571      -4.160933005      -0.3760161826     0.1300353042      
6460002160        0.02936131517     0.2056010408      -3.034745765      2.950958551       
                  -3.034745765      2.950958551       0.2706612073      0.2720336687      
6545002070        0.1761026471      -0.05985369976    4.11574151        1.067254969       
                  4.11574151        1.067254969       0.02848978241     -0.3200013346     
6630001980        -0.2069677964     -0.1107190771     -1.130403175      -3.8550623        
                  -1.130403175      -3.8550623        -0.2987870364     0.3019883123      
6715001890        -0.07164142205    0.2745627887      -2.733072321      2.634391289       
                  -2.733072321      2.634391289       0.3836805692      0.155947956       
6800001800        0.26558425        0.05530600222     3.629729917       1.126501036       
                  3.629729917       1.126501036       -0.1313302799     -0.3089395694     
6885001710        -0.1026892813     -0.2404372248     -0.816782952      -3.505560092      
                  -0.816782952      -3.505560092      -0.188175179      0.3881074291      
6970001620        -0.2091178249     0.2335094635      -2.642179252      2.225665466       
                  -2.642179252      2.225665466       0.4232011105      0.02308649088     
7055001530        0.2627701334      0.2073504147      3.224236557       1.243941229       
                  3.224236557       1.243941229       -0.257004616      -0.2712249419     
7140001440        0.08170907768     -0.2993467048     -0.5396412146     -3.230832457      
                  -0.5396412146     -3.230832457      -0.06316488537    0.4538268059      
7225001350        -0.296240287      0.09622124762     -2.580202703      1.897702778       
                  -2.580202703      1.897702778       0.4526927085      -0.1035866419     
7310001260        0.1697003696      0.3471779281      2.865058162       1.162741002       
                  2.865058162       1.162741002       -0.3588630313     -0.1848417099     
7395001170        0.2851913767      -0.2275828117     -0.2458211121     -2.967393134      
                  -0.2458211121     -2.967393134      0.07689407667     0.4817978891      
7480001080        -0.2987934891     -0.1108369392     -2.417936484      1.61249627        
                  -2.417936484      1.61249627        0.395008036       -0.2369908075     
7565000990        -0.03102383172    0.3994073355      2.615957856       1.165222877       
                  2.615957856       1.165222877       -0.4245309913     -0.08412254479    
7650000900        0.4004046095      -0.05666397341    -0.05402004709    -2.611155145      
                  -0.05402004709    -2.611155145      0.2131028043      0.4388070911      
7735000810        -0.1612742034     -0.3065920535     -2.297768712      1.346588412       
                  -2.297768712      1.346588412       0.3171528057      -0.3462913127     
7820000720        -0.2074233211     0.3175461416      2.277805177       1.242529946       
                  2.277805177       1.242529946       -0.4060532274     0.02525925502     
7905000630        0.4139779285      0.1393105332      0.0970401237      -2.301195203      
                  0.0970401237      -2.301195203      0.3246602204      0.3624505397      
7990000540        0.06634203705     -0.3907032509     -2.216002582      0.9250502731      
                  -2.216002582      0.9250502731      0.2208881534      -0.4071183768     
8075000450        -0.350609202      0.1200845212      1.907663649       1.433873122       
                  1.907663649       1.433873122       -0.3876946957     0.1195834031      
8160000360        0.2974154632      0.3136422044      0.2524128414      -2.190760115      
                  0.2524128414      -2.190760115      0.3995179579      0.2798784341      
8245000270        0.2576627319      -0.3368170707     -2.040304935      0.6153178899      
                  -2.040304935      0.6153178899      0.1140353675      -0.4444485779     
8330000180        -0.3662712274     -0.1325182148     1.637244221       1.501283221       
                  1.637244221       1.501283221       -0.3433240825     0.1935243504      
8415000090        0.07836594054     0.392875888       0.3848328346      -1.997854371      
                  0.3848328346      -1.997854371      0.435805729       0.1665939964      
8500000000        0.3829824013      -0.1858707852     -1.832157429      0.4461441607      
                  -1.832157429      0.4461441607      -0.004534267823   -0.4600751785     
