! RsaToolbox (C) 2013 Rohde & Schwarz America
! 
! Number of points: 101
! Number of ports: 2
! Balanced ports?: 0
! 
! 
# Hz S RI R 50
9000              1.018501571       -0.02206223127    3.15869031e-05    -5.087978806e-05  
                  3.15869031e-05    -5.087978806e-05  1.017269028       -0.02378582729    
85008910          0.00254038118     0.1590003095      3.195609505       5.515745287       
                  3.195609505       5.515745287       -0.09212976297    -0.1155150037     
170008820         0.1424780151      -0.04446192675    3.191883705       -5.227439191      
                  3.191883705       -5.227439191      -0.02040648802    0.1715469043      
255008730         -0.176160045      -0.07586621154    -6.062214126      -0.168434368      
                  -6.062214126      -0.168434368      0.07727251024     -0.02640209598    
340008640         -0.06332445977    0.1698793516      2.652879788       5.356973643       
                  2.652879788       5.356973643       -0.1264794374     -0.05364051322    
425008550         0.1595329763      -0.04656132305    3.391515317       -4.871445469      
                  3.391515317       -4.871445469      0.01657027671     0.1027149066      
510008460         -0.1018101853     -0.1635079079     -5.907480026      -0.6467241516     
                  -5.907480026      -0.6467241516     0.07087960056     -0.07949003893    
595008370         -0.1070849664     0.1401269425      2.228496865       5.429647936       
                  2.228496865       5.429647936       -0.08361972915    -0.01217440878    
680008280         0.2043941899      0.0339655864      3.666064877       -4.577282252      
                  3.666064877       -4.577282252      0.09198661696     0.07512889262     
765008190         0.009376638544    -0.1637882529     -5.733930055      -1.104086306      
                  -5.733930055      -1.104086306      0.0602858735      -0.06054442123    
850008100         -0.181884189      0.1116696599      1.871104739       5.526201504       
                  1.871104739       5.526201504       -0.07150249581    0.06516915595     
935008010         0.1458228087      0.1235645979      3.948725901       -4.232695088      
                  3.948725901       -4.232695088      0.1021705619      0.03897256392     
1020007920        0.07560089397     -0.1541402707     -5.592521431      -1.448242057      
                  -5.592521431      -1.448242057      -0.004795407882   -0.07552148074    
1105007830        -0.2255117395     -0.008678795806   1.48008857        5.620711326       
                  1.48008857        5.620711326       -0.06267350218    0.07515875692     
1190007740        0.07136654722     0.140410923       4.195313018       -3.86181606       
                  4.195313018       -3.86181606       0.1243470983      -0.04274072002    
1275007650        0.1644492505      -0.1088235551     -5.470560393      -1.830569283      
                  -5.470560393      -1.830569283      -0.02998115962    -0.08936338757    
1360007560        -0.1635775205     -0.1008682719     1.044393552       5.644601858       
                  1.044393552       5.644601858       -0.005579299026   0.1014768752      
1445007470        0.0003833925315   0.1422415968      4.413061933       -3.545763507      
                  4.413061933       -3.545763507      0.1471251662      -0.08846915469    
1530007380        0.1846044507      -0.01145461037    -5.308377687      -2.18759132       
                  -5.308377687      -2.18759132       -0.06919966243    -0.06427856987    
1615007290        -0.09425427754    -0.1243990498     0.6188447283      5.605237394       
                  0.6188447283      5.605237394       0.02339310167     0.142177853       
1700007200        -0.08874316788    0.09733926365     4.670023087       -3.244401379      
                  4.670023087       -3.244401379      0.1108995623      -0.1332618631     
1785007110        0.1284117062      0.03165803017     -5.065259905      -2.529059815      
                  -5.065259905      -2.529059815      -0.1320516757     -0.06393551918    
1870007020        -0.02179307149    -0.1363103569     0.2247356087      5.60942859        
                  0.2247356087      5.60942859        0.06586914118     0.1319102579      
1955006930        -0.1072140033     0.02166081522     4.877925139       -2.888226788      
                  4.877925139       -2.888226788      0.0892193683      -0.1939938815     
2040006840        0.08306700822     0.03921231404     -4.828897375      -2.815487617      
                  -4.828897375      -2.815487617      -0.1545333616     -0.04134818703    
2125006750        0.03628759963     -0.09331913418    -0.1931343129     5.638533645       
                  -0.1931343129     5.638533645       0.1310405115      0.1368316545      
2210006660        -0.09288900631    -0.00099180726    4.975069646       -2.534451406      
                  4.975069646       -2.534451406      0.04800302556     -0.2182084232     
2295006570        0.02961529526     0.03679027324     -4.59656866       -3.145958686      
                  -4.59656866       -3.145958686      -0.1860055197     0.01545957027     
2380006480        0.02904568992     -0.05292004915    -0.557388407      5.57647103        
                  -0.557388407      5.57647103        0.1668150739      0.1139492181      
2465006390        -0.08823919656    -0.01643180466    5.054524294       -2.213928903      
                  5.054524294       -2.213928903      -0.01968926085    -0.2595322173     
2550006300        0.01171645945     0.001418216508    -4.289527839      -3.4826407        
                  -4.289527839      -3.4826407        -0.1909085963     0.06080320349     
2635006210        0.0258603056      -0.04500539457    -0.8959458636     5.515960948       
                  -0.8959458636     5.515960948       0.2134183027      0.06422293091     
2720006120        -0.08264952801    -0.01085647677    5.126691004       -1.844482648      
                  5.126691004       -1.844482648      -0.09042349332    -0.2644179168     
2805006030        0.01753216088     0.0003511554388   -4.00426052       -3.729947654      
                  -4.00426052       -3.729947654      -0.1629346325     0.1231256408      
2890005940        0.02145915808     -0.0366461404     -1.235516746      5.39459887        
                  -1.235516746      5.39459887        0.2319957478      0.0091516756      
2975005850        -0.09508677645    -0.008251137894   5.160164682       -1.387503697      
                  5.160164682       -1.387503697      -0.162410437      -0.2475925792     
3060005760        0.01855020326     0.01014660485     -3.70625505       -4.074022348      
                  -3.70625505       -4.074022348      -0.1191474528     0.1686612072      
3145005670        0.03625592122     -0.0446533245     -1.632309016      5.241936672       
                  -1.632309016      5.241936672       0.2320795765      -0.07132357821    
3230005580        -0.102178777      -0.03320443988    5.268837188       -0.9863349856     
                  5.268837188       -0.9863349856     -0.226844213      -0.2079929597     
3315005490        0.01149407233     0.0320796079      -3.433607405      -4.29970826       
                  -3.433607405      -4.29970826       -0.04616663389    0.2024548281      
3400005400        0.06115189009     -0.02898380932    -1.987255153      5.073805989       
                  -1.987255153      5.073805989       0.2011116004      -0.1449240728     
3485005310        -0.09822165028    -0.06395750498    5.369261929       -0.6195161201     
                  5.369261929       -0.6195161201     -0.2819836781     -0.1297236022     
3570005220        -0.02001675242    0.04929982339     -3.253122137      -4.489582766      
                  -3.253122137      -4.489582766      0.03347111483     0.2106896654      
3655005130        0.06928728391     0.003549967396    -2.184273675      4.941619284       
                  -2.184273675      4.941619284       0.1343526181      -0.2086352799     
3740005040        -0.07753500195    -0.0934640036     5.359750022       -0.2630240348     
                  5.359750022       -0.2630240348     -0.3115819112     -0.03979831403    
3825004950        -0.0589711077     0.03748420257     -2.980312451      -4.623567902      
                  -2.980312451      -4.623567902      0.1135760435      0.1763496512      
3910004860        0.06398074924     0.03746890936     -2.604475265      4.720286854       
                  -2.604475265      4.720286854       0.05053008489     -0.2587976936     
3995004770        -0.03122458736    -0.1113561442     5.391791761       0.05943420844     
                  5.391791761       0.05943420844     -0.3053769521     0.06526670607     
4080004680        -0.08486573274    0.008216866926    -2.704027927      -4.796206807      
                  -2.704027927      -4.796206807      0.1906064338      0.1282680645      
4165004590        0.03980039581     0.07038144081     -2.868053041      4.579279733       
                  -2.868053041      4.579279733       -0.04666071505    -0.2717143644     
4250004500        0.01123612456     -0.08859134702    5.479267052       0.3072787041      
                  5.479267052       0.3072787041      -0.2658428791     0.1754894036      
4335004410        -0.1016791263     -0.01943120112    -2.448333522      -4.904700382      
                  -2.448333522      -4.904700382      0.2297427175      0.04425051884     
4420004320        -0.007224897331   0.08352077161     -3.07020183       4.464809396       
                  -3.07020183       4.464809396       -0.163896898      -0.2505029214     
4505004230        0.03816133585     -0.05735938072    5.427939177       0.4863993353      
                  5.427939177       0.4863993353      -0.1967140727     0.2589331606      
4590004140        -0.1004876269     -0.0517294363     -2.180735842      -4.940849765      
                  -2.180735842      -4.940849765      0.2295901614      -0.05748821791    
4675004050        -0.04469291488    0.07087568751     -3.167467384      4.347461944       
                  -3.167467384      4.347461944       -0.2553006078     -0.1910789954     
4760003960        0.0576065021      -0.01646182547    5.277464301       0.7223584117      
                  5.277464301       0.7223584117      -0.08636793994    0.3108340109      
4845003870        -0.07678765848    -0.06861088585    -1.932741198      -4.991573363      
                  -1.932741198      -4.991573363      0.2004340232      -0.1549954996     
4930003780        -0.07656874388    0.04115101444     -3.350368626      4.163366205       
                  -3.350368626      4.163366205       -0.3195632118     -0.09984236713    
5015003690        0.05034609889     0.03741446441     5.15105675        0.9639336465      
                  5.15105675        0.9639336465      0.03567792359     0.3343713887      
5100003600        -0.05221768516    -0.0568193092     -1.759047299      -5.063499363      
                  -1.759047299      -5.063499363      0.1195585147      -0.2293697535     
5185003510        -0.09110729351    0.00481602343     -3.405166446      3.940425386       
                  -3.405166446      3.940425386       -0.3493246644     0.01146829308     
5270003420        0.01532518471     0.07162842997     5.014874404       1.195849595       
                  5.014874404       1.195849595       0.1498617862      0.2997359686      
5355003330        -0.04231426751    -0.02329039817    -1.645338453      -5.122181579      
                  -1.645338453      -5.122181579      -0.002105905295   -0.2789169276     
5440003240        -0.07203598812    -0.03893899043    -3.351667905      3.774980208       
                  -3.351667905      3.774980208       -0.3191802219     0.1324855082      
5525003150        -0.01776187616    0.06140190456     4.99851063        1.3104154         
                  4.99851063        1.3104154         0.269204608       0.2014338056      
5610003060        -0.03860416437    0.02687907117     -1.588354944      -4.964123598      
                  -1.588354944      -4.964123598      -0.1366029797     -0.2675581452     
5695002970        -0.01438396889    -0.04297596859    -3.351457427      3.557162282       
                  -3.351457427      3.557162282       -0.22130545       0.2529542786      
5780002880        -0.02575345858    0.02426285618     4.948941725       1.404411796       
                  4.948941725       1.404411796       0.3293623441      0.05791748097     
5865002790        -0.0761723345     0.0751770551      -1.488020847      -4.702816343      
                  -1.488020847      -4.702816343      -0.2722236289     -0.1852072854     
5950002700        0.03529310822     0.004796820898    -3.385654414      3.349296775       
                  -3.385654414      3.349296775       -0.08273635942    0.3329007445      
6035002610        -0.01865936752    -0.03807005083    4.735357302       1.300464494       
                  4.735357302       1.300464494       0.2983450468      -0.09735240379    
6120002520        -0.1438125636     0.07322993525     -1.370429945      -4.446357553      
                  -1.370429945      -4.446357553      -0.3585948741     -0.04543998757    
6205002430        0.07055109554     0.08748213249     -3.273633043      3.143404394       
                  -3.273633043      3.143404394       0.1017446097      0.3375214982      
6290002340        0.05969950664     -0.08966687907    4.509303633       1.163786882       
                  4.509303633       1.163786882       0.1949461128      -0.2479031223     
6375002250        -0.2140984685     0.008387345567    -1.271003669      -4.154503233      
                  -1.271003669      -4.154503233      -0.3761155591     0.1300861897      
6460002160        0.02924325778     0.2057650099      -3.029812609      2.94513359        
                  -3.029812609      2.94513359        0.270749086       0.2723474383      
6545002070        0.1756136854      -0.05912327173    4.107414911       1.066782869       
                  4.107414911       1.066782869       0.02846473977     -0.3199400919     
6630001980        -0.2061840366     -0.1102924898     -1.126801595      -3.847828765      
                  -1.126801595      -3.847828765      -0.2987465306     0.3021421273      
6715001890        -0.07165722361    0.2739257247      -2.72885557       2.628021557       
                  -2.72885557       2.628021557       0.3839247642      0.1560622769      
6800001800        0.264952052       0.05569955911     3.623926146       1.126334353       
                  3.623926146       1.126334353       -0.1314813942     -0.3087488764     
6885001710        -0.1024092456     -0.2399717915     -0.8143409268     -3.501091493      
                  -0.8143409268     -3.501091493      -0.1874068421     0.3879678573      
6970001620        -0.2093816767     0.2326755581      -2.639184685      2.220771579       
                  -2.639184685      2.220771579       0.4237170814      0.02256566547     
7055001530        0.2622857386      0.207311271       3.219864436       1.243237525       
                  3.219864436       1.243237525       -0.256827366      -0.2718025142     
7140001440        0.08194347948     -0.2990563086     -0.5373455676     -3.228431808      
                  -0.5373455676     -3.228431808      -0.06354712121    0.4539255781      
7225001350        -0.2964551136     0.0958581899      -2.579314886      1.895394341       
                  -2.579314886      1.895394341       0.4526603992      -0.1035336594     
7310001260        0.1693871795      0.3468077192      2.862979311       1.16323053        
                  2.862979311       1.16323053        -0.358638347      -0.1850625461     
7395001170        0.2851750139      -0.2269254176     -0.2442162387     -2.964862488      
                  -0.2442162387     -2.964862488      0.07787484489     0.4821309298      
7480001080        -0.2984063822     -0.1112631869     -2.415622231      1.609005583       
                  -2.415622231      1.609005583       0.3948916446      -0.2374034348     
7565000990        -0.03122729432    0.3996044924      2.613596835       1.165911092       
                  2.613596835       1.165911092       -0.4245428259     -0.08347178914    
7650000900        0.4007602036      -0.05607613573    -0.0524407905     -2.609889054      
                  -0.0524407905     -2.609889054      0.2132603801      0.4388861644      
7735000810        -0.160887185      -0.3063256616     -2.297932156      1.34479788        
                  -2.297932156      1.34479788        0.3175130356      -0.3464245183     
7820000720        -0.2073012504     0.3168749371      2.27603367        1.242613449       
                  2.27603367        1.242613449       -0.4056113303     0.02501072186     
7905000630        0.4141044634      0.1388969433      0.09805603776     -2.300086447      
                  0.09805603776     -2.300086447      0.3247080393      0.3623152142      
7990000540        0.06664891517     -0.3904658636     -2.215707992      0.9236243727      
                  -2.215707992      0.9236243727      0.2216983076      -0.407302425      
8075000450        -0.3503313237     0.1200206693      1.905635759       1.434664317       
                  1.905635759       1.434664317       -0.3878834639     0.1194234779      
8160000360        0.2968360455      0.3135457239      0.2535535973      -2.190054143      
                  0.2535535973      -2.190054143      0.3993644983      0.2803034893      
8245000270        0.2574587748      -0.3370044112     -2.04018659       0.6146196621      
                  -2.04018659       0.6146196621      0.114284952       -0.4441229042     
8330000180        -0.3661838608     -0.1323625471     1.635927342       1.50052626        
                  1.635927342       1.50052626        -0.343149027      0.1943753164      
8415000090        0.07800623097     0.3930023339      0.3856331997      -1.997102439      
                  0.3856331997      -1.997102439      0.4358452633      0.1676977062      
8500000000        0.3829586013      -0.1853106296     -1.832100663      0.445371967       
                  -1.832100663      0.445371967       -0.004728683356   -0.4600746205     
