! RsaToolbox (C) 2013 Rohde & Schwarz America
! 
! Number of points: 101
! Number of ports: 2
! Balanced ports?: 0
! 
! 
# Hz S RI R 50
9000              1.014011378       -0.01942747474    6.06475864e-05    -6.974582748e-07  
                  6.06475864e-05    -6.974582748e-07  1.020009189       -0.0240829382     
85008910          0.002495742144    0.1589068451      3.195045377       5.512030365       
                  3.195045377       5.512030365       -0.09208348762    -0.115349289      
170008820         0.1422087968      -0.04433806549    3.189834831       -5.2269925        
                  3.189834831       -5.2269925        -0.02041836136    0.1714435855      
255008730         -0.1760028445     -0.07584378834    -6.059580389      -0.1662672758     
                  -6.059580389      -0.1662672758     0.07772922865     -0.02654201571    
340008640         -0.06348183795    0.1698990298      2.65350259        5.355248061       
                  2.65350259        5.355248061       -0.1263693668     -0.05356143557    
425008550         0.1593810543      -0.0464116413     3.388150433       -4.870407574      
                  3.388150433       -4.870407574      0.01682085455     0.1028449955      
510008460         -0.1016612775     -0.1633444047     -5.905581441      -0.6439774706     
                  -5.905581441      -0.6439774706     0.07086882298     -0.0796578646     
595008370         -0.107344559      0.1398405924      2.230309648       5.427036062       
                  2.230309648       5.427036062       -0.08387506931    -0.01232017467    
680008280         0.204359276       0.033708228       3.661827999       -4.577526209      
                  3.661827999       -4.577526209      0.09216605013     0.07537723431     
765008190         0.009503848475    -0.1636993853     -5.732430009      -1.101469359      
                  -5.732430009      -1.101469359      0.06004255354     -0.06062876561    
850008100         -0.1817281109     0.1116686178      1.872316881       5.523028962       
                  1.872316881       5.523028962       -0.07155930497    0.06511584416     
935008010         0.1456468256      0.1235132412      3.945973592       -4.2325513        
                  3.945973592       -4.2325513        0.102123183       0.038936339       
1020007920        0.07543113663     -0.1539281392     -5.590627389      -1.447296975      
                  -5.590627389      -1.447296975      -0.004595029489   -0.07574485382    
1105007830        -0.2254116189     -0.008453008769   1.483523874       5.617673164       
                  1.483523874       5.617673164       -0.06306441926    0.07524377415     
1190007740        0.07140176915     0.1402657612      4.19474556        -3.861367182      
                  4.19474556        -3.861367182      0.1242640196      -0.04269885354    
1275007650        0.1644310556      -0.1087204702     -5.469907134      -1.828436278      
                  -5.469907134      -1.828436278      -0.03002928475    -0.08923470682    
1360007560        -0.1636516029     -0.1004691123     1.045801567       5.644161485       
                  1.045801567       5.644161485       -0.005517572047   0.1019002257      
1445007470        0.0006166548756   0.1418881983      4.409608817       -3.545441463      
                  4.409608817       -3.545441463      0.1469650455      -0.08843854257    
1530007380        0.184529982       -0.01137840812    -5.307807309      -2.185278663      
                  -5.307807309      -2.185278663      -0.06922330555    -0.06434566156    
1615007290        -0.09422430847    -0.1239556058     0.6203543357      5.601174431       
                  0.6203543357      5.601174431       0.02347680592     0.1422101821      
1700007200        -0.08844578909    0.09734507904     4.667891051       -3.24520624       
                  4.667891051       -3.24520624       0.1108234148      -0.1334240757     
1785007110        0.128256661       0.03172151968     -5.065474469      -2.526878248      
                  -5.065474469      -2.526878248      -0.1315864191     -0.06397356944    
1870007020        -0.02182769479    -0.1359996039     0.2274644321      5.607208221       
                  0.2274644321      5.607208221       0.06586537234     0.1320663531      
1955006930        -0.1069484089     0.02136184773     4.87503856        -2.890076459      
                  4.87503856        -2.890076459      0.08907377775     -0.193811246      
2040006840        0.08305620278     0.03912704967     -4.829747001      -2.810824988      
                  -4.829747001      -2.810824988      -0.15481705       -0.04145753474    
2125006750        0.03616741631     -0.0931107876     -0.1892942613     5.636503271       
                  -0.1892942613     5.636503271       0.1312006867      0.1367091615      
2210006660        -0.09247811914    -0.0008866344283  4.970705187       -2.53463297       
                  4.970705187       -2.53463297       0.04796812258     -0.2179955246     
2295006570        0.02941758217     0.03644677248     -4.597067103      -3.141430939      
                  -4.597067103      -3.141430939      -0.1860499665     0.01542170883     
2380006480        0.02887008494     -0.0527752729     -0.5553922336     5.573323431       
                  -0.5553922336     5.573323431       0.1668904738      0.1140342981      
2465006390        -0.08779698944    -0.01650724608    5.049002292       -2.216202086      
                  5.049002292       -2.216202086      -0.019634181      -0.2595641149     
2550006300        0.0118273962      0.001072217332    -4.288366003      -3.479994767      
                  -4.288366003      -3.479994767      -0.1909005185     0.0606964496      
2635006210        0.02554775964     -0.04500847884    -0.8933437078     5.515822009       
                  -0.8933437078     5.515822009       0.2134923147      0.06397603765     
2720006120        -0.0824680045     -0.01071531566    5.124824843       -1.844903414      
                  5.124824843       -1.844903414      -0.09040380456    -0.2643068667     
2805006030        0.01787731244     0.0001838337224   -4.003182452      -3.727597715      
                  -4.003182452      -3.727597715      -0.1631122159     0.1235552847      
2890005940        0.02120839838     -0.03667701866    -1.232169025      5.391169065       
                  -1.232169025      5.391169065       0.2320420516      0.008944149189    
2975005850        -0.09511296224    -0.008000964399   5.15625406        -1.387567692      
                  5.15625406        -1.387567692      -0.162106541      -0.2472399409     
3060005760        0.01858269285     0.009935664591    -3.703101283      -4.07035918       
                  -3.703101283      -4.07035918       -0.1189475288     0.1686440687      
3145005670        0.03602861881     -0.04497036836    -1.629173518      5.238946528       
                  -1.629173518      5.238946528       0.2315365815      -0.07134245995    
3230005580        -0.1018346693     -0.03288697144    5.264542095       -0.9852150524     
                  5.264542095       -0.9852150524     -0.2269616294     -0.2079392949     
3315005490        0.01191936019     0.03192867634     -3.43044657       -4.296234278      
                  -3.43044657       -4.296234278      -0.04612054349    0.2028135239      
3400005400        0.06131741126     -0.0294123602     -1.984926439      5.070092627       
                  -1.984926439      5.070092627       0.2014921787      -0.1448390237     
3485005310        -0.09809635603    -0.06357572568    5.3650203         -0.6197113791     
                  5.3650203         -0.6197113791     -0.2821338021     -0.1296297614     
3570005220        -0.01971895559    0.04954774628     -3.250113257      -4.484902885      
                  -3.250113257      -4.484902885      0.03343683795     0.2104274748      
3655005130        0.069125546       0.003190362618    -2.180044616      4.936753474       
                  -2.180044616      4.936753474       0.1348406513      -0.2086329208     
3740005040        -0.07764200891    -0.09332659972    5.354056327       -0.2641673504     
                  5.354056327       -0.2641673504     -0.3121013769     -0.03938829671    
3825004950        -0.0587641742     0.03757289318     -2.977463969      -4.617238798      
                  -2.977463969      -4.617238798      0.1132441054      0.1757965384      
3910004860        0.06434630484     0.03732603947     -2.598645923      4.714254019       
                  -2.598645923      4.714254019       0.05037912015     -0.2592511501     
3995004770        -0.03155268726    -0.1114951287     5.385125223       0.05882327954     
                  5.385125223       0.05882327954     -0.3054566949     0.06547447068     
4080004680        -0.08492889568    0.008652773717    -2.702741947      -4.789882782      
                  -2.702741947      -4.789882782      0.1907106854      0.1281160885      
4165004590        0.04022985057     0.07000182434     -2.864518836      4.57495774        
                  -2.864518836      4.57495774        -0.04663246352    -0.2716589778     
4250004500        0.01123363666     -0.08879396121    5.473025895       0.3062143501      
                  5.473025895       0.3062143501      -0.2657290335     0.1755028826      
4335004410        -0.101854503      -0.01919709819    -2.445000223      -4.900036628      
                  -2.445000223      -4.900036628      0.2297504875      0.0444783603      
4420004320        -0.006773433047   0.08381878431     -3.065473602      4.460960579       
                  -3.065473602      4.460960579       -0.1636446981     -0.2505390306     
4505004230        0.03804880139     -0.05795649448    5.421935333       0.4843878141      
                  5.421935333       0.4843878141      -0.1964886533     0.2590374013      
4590004140        -0.1009881155     -0.05152304605    -2.180572331      -4.933142027      
                  -2.180572331      -4.933142027      0.2293139474      -0.0577101557     
4675004050        -0.04434522682    0.07117751042     -3.161563679      4.34215696        
                  -3.161563679      4.34215696        -0.2552975356     -0.1909172356     
4760003960        0.05760441077     -0.01687903707    5.271043549       0.7185806604      
                  5.271043549       0.7185806604      -0.08650109939    0.3111087835      
4845003870        -0.07754511274    -0.06868036593    -1.931255196      -4.982455433      
                  -1.931255196      -4.982455433      0.2001829066      -0.1551177732     
4930003780        -0.07643352254    0.04149301457     -3.342612371      4.158072056       
                  -3.342612371      4.158072056       -0.3195590677     -0.09970633956    
5015003690        0.05083844662     0.03697115524     5.142578487       0.9584672382      
                  5.142578487       0.9584672382      0.03530988146     0.3343601263      
5100003600        -0.05256562453    -0.05691802442    -1.758730419      -5.051827049      
                  -1.758730419      -5.051827049      0.1194888278      -0.2292443607     
5185003510        -0.09132007435    0.005081235065    -3.396942312      3.935015885       
                  -3.396942312      3.935015885       -0.3495323642     0.01146729194     
5270003420        0.01549565057     0.0714748803      5.006066904       1.191327703       
                  5.006066904       1.191327703       0.1498393405      0.2996466259      
5355003330        -0.04261700614    -0.02368222239    -1.644512378      -5.110132207      
                  -1.644512378      -5.110132207      -0.002068807741   -0.2788840332     
5440003240        -0.07243349756    -0.03832879151    -3.343161005      3.769127882       
                  -3.343161005      3.769127882       -0.3193798212     0.1320218611      
5525003150        -0.01716912039    0.06133996603     4.988039414       1.305645363       
                  4.988039414       1.305645363       0.2687436355      0.2014469824      
5610003060        -0.03842403878    0.02623781311     -1.587698956      -4.952057429      
                  -1.587698956      -4.952057429      -0.136804262      -0.2675719515     
5695002970        -0.0151502664     -0.04259270644    -3.34281969       3.551065828       
                  -3.34281969       3.551065828       -0.2212149548     0.2528680079      
5780002880        -0.02519701083    0.0246575979      4.937902203       1.399187896       
                  4.937902203       1.399187896       0.3293061433      0.05792166962     
5865002790        -0.07595979028    0.07459349038     -1.486094003      -4.691380169      
                  -1.486094003      -4.691380169      -0.2723402229     -0.185185388      
5950002700        0.03456449392     0.004847024339    -3.377141089      3.342989223       
                  -3.377141089      3.342989223       -0.08280091848    0.332892741       
6035002610        -0.01833717709    -0.03749749799    4.722946383       1.295987264       
                  4.722946383       1.295987264       0.2984573332      -0.09764259895    
6120002520        -0.1433979691     0.07278386832     -1.368315227      -4.436204009      
                  -1.368315227      -4.436204009      -0.358512522      -0.04542312032    
6205002430        0.06981942596     0.08728202127     -3.266448448      3.138343512       
                  -3.266448448      3.138343512       0.1020498175      0.3373086775      
6290002340        0.0599411724      -0.08918197384    4.499453931       1.161245808       
                  4.499453931       1.161245808       0.1948724417      -0.2481884863     
6375002250        -0.2134184871     0.008245626065    -1.267987353      -4.145304165      
                  -1.267987353      -4.145304165      -0.3762635802     0.1300775033      
6460002160        0.02884061501     0.204830167       -3.025225605      2.939367738       
                  -3.025225605      2.939367738       0.2707267263      0.2721831307      
6545002070        0.1752172537      -0.05860944749    4.09837046        1.065211123       
                  4.09837046        1.065211123       0.02863638869     -0.3200475889     
6630001980        -0.205561609      -0.1101871162     -1.123481913      -3.840791776      
                  -1.123481913      -3.840791776      -0.2983815693     0.3020800791      
6715001890        -0.07192858664    0.2734193928      -2.724904813      2.623738894       
                  -2.724904813      2.623738894       0.3838817655      0.155988549       
6800001800        0.2645274303      0.05601721738     3.617031409       1.124918619       
                  3.617031409       1.124918619       -0.1315483524     -0.3088717616     
6885001710        -0.1020490464     -0.2395717523     -0.8126710371     -3.495415764      
                  -0.8126710371     -3.495415764      -0.1879912256     0.388070132       
6970001620        -0.209094067      0.2324077466      -2.63608335       2.217264004       
                  -2.63608335       2.217264004       0.4231686762      0.02338379879     
7055001530        0.261820769       0.2074913499      3.215056702       1.243172908       
                  3.215056702       1.243172908       -0.257013354      -0.2712739858     
7140001440        0.08206076744     -0.2986324878     -0.5360059354     -3.225136541      
                  -0.5360059354     -3.225136541      -0.06345249381    0.4536464509      
7225001350        -0.2960223574     0.09550955662     -2.57740209       1.892413724       
                  -2.57740209       1.892413724       0.4525603177      -0.103677098      
7310001260        0.1691620579      0.3470384456      2.860181688       1.16305395        
                  2.860181688       1.16305395        -0.3586037979     -0.1851002337     
7395001170        0.2851386804      -0.2265779723     -0.2434179462     -2.962547462      
                  -0.2434179462     -2.962547462      0.07747401697     0.4820207993      
7480001080        -0.29802406       -0.1114618977     -2.413249379      1.606725855       
                  -2.413249379      1.606725855       0.3947502065      -0.237197748      
7565000990        -0.03183425105    0.3992977868      2.610824981       1.16589371        
                  2.610824981       1.16589371        -0.424817338      -0.08425643307    
7650000900        0.4002735228      -0.05580263336    -0.05114505002    -2.607725289      
                  -0.05114505002    -2.607725289      0.2133901208      0.4387108146      
7735000810        -0.1604618652     -0.3063697562     -2.296165601      1.342817744       
                  -2.296165601      1.342817744       0.3172427958      -0.3462347485     
7820000720        -0.2074833587     0.3167002839      2.273700868       1.242900114       
                  2.273700868       1.242900114       -0.4057176954     0.02518799579     
7905000630        0.4140593941      0.1391237043      0.09913241499     -2.298910592      
                  0.09913241499     -2.298910592      0.324284026       0.3626192262      
7990000540        0.0668217916      -0.3904566952     -2.214748353      0.9219392464      
                  -2.214748353      0.9219392464      0.2213532597      -0.4072182006     
8075000450        -0.3501057215     0.1195401195      1.90427358        1.434731016       
                  1.90427358        1.434731016       -0.3880982841     0.1190886627      
8160000360        0.2966056429      0.3133928225      0.2539637778      -2.188575267      
                  0.2539637778      -2.188575267      0.3995038458      0.2801934957      
8245000270        0.2576598432      -0.3367282819     -2.039696849      0.612969312       
                  -2.039696849      0.612969312       0.1142936587      -0.444178098      
8330000180        -0.3659495549     -0.1329435862     1.63509537        1.500934165       
                  1.63509537        1.500934165       -0.343321512      0.1933484622      
8415000090        0.07819819947     0.3927435252      0.3861654403      -1.996003605      
                  0.3861654403      -1.996003605      0.4358783152      0.1674077695      
8500000000        0.3830339024      -0.1855659411     -1.831790305      0.4443991067      
                  -1.831790305      0.4443991067      -0.005153978625   -0.4601485343     
