! RsaToolbox (C) 2013 Rohde & Schwarz America
! 
! Number of points: 101
! Number of ports: 2
! Balanced ports?: 0
! 
! 
# Hz S RI R 50
9000              1.009120003       -0.0180179668     5.133634808e-05   -1.766722801e-05  
                  5.133634808e-05   -1.766722801e-05  1.0153931         -0.02417020942    
85008910          0.00185930424     0.1580207049      3.192721504       5.492857988       
                  3.192721504       5.492857988       -0.0922831129     -0.1155210808     
170008820         0.1416116725      -0.0434583592     3.179744287       -5.220311674      
                  3.179744287       -5.220311674      -0.02051203321    0.1715916464      
255008730         -0.1753185199     -0.07549843828    -6.052197738      -0.1611282212     
                  -6.052197738      -0.1611282212     0.07753580648     -0.02659237729    
340008640         -0.06364970187    0.168884444       2.654248977       5.346547324       
                  2.654248977       5.346547324       -0.1265639913     -0.05365492265    
425008550         0.1585352802      -0.04616046387    3.37978441        -4.867210146      
                  3.37978441        -4.867210146      0.01670089424     0.1028805457      
510008460         -0.1011767389     -0.1628263681     -5.901222291      -0.6369261817     
                  -5.901222291      -0.6369261817     0.07076212895     -0.079783478      
595008370         -0.1069941808     0.1389779067      2.232854251       5.417739936       
                  2.232854251       5.417739936       -0.08381577316    -0.01210873527    
680008280         0.2036020521      0.03374879145     3.652940406       -4.576688571      
                  3.652940406       -4.576688571      0.09209341831     0.07555280388     
765008190         0.009964909642    -0.1629489608     -5.725259942      -1.101110988      
                  -5.725259942      -1.101110988      0.06015894315     -0.06054542735    
850008100         -0.1811334118     0.1109526653      1.87793199        5.514711928       
                  1.87793199        5.514711928       -0.07166818822    0.06502468665     
935008010         0.1448615676      0.1230852899      3.935747556       -4.232918416      
                  3.935747556       -4.232918416      0.1021683353      0.03895792495     
1020007920        0.07530313336     -0.1530566775     -5.585729809      -1.438663985      
                  -5.585729809      -1.438663985      -0.004784368471   -0.07558029711    
1105007830        -0.2245478241     -0.008392175587   1.489534999       5.608291061       
                  1.489534999       5.608291061       -0.06283832958    0.07525191511     
1190007740        0.0708679808      0.1394729216      4.183024698       -3.861362139      
                  4.183024698       -3.861362139      0.1243980178      -0.04256733208    
1275007650        0.1638023051      -0.1079885593     -5.464721809      -1.817003776      
                  -5.464721809      -1.817003776      -0.03012408045    -0.08917072483    
1360007560        -0.1626205052     -0.1003722537     1.054812541       5.632269819       
                  1.054812541       5.632269819       -0.005511411892   0.1017338696      
1445007470        0.0005696760678   0.1408451943      4.397687143       -3.544807828      
                  4.397687143       -3.544807828      0.1470687897      -0.08842685773    
1530007380        0.1836385272      -0.01090549951    -5.304603152      -2.171981676      
                  -5.304603152      -2.171981676      -0.06933249389    -0.06455202646    
1615007290        -0.09346640386    -0.1229667274     0.6310770286      5.59104817        
                  0.6310770286      5.59104817        0.02321242993     0.1421860082      
1700007200        -0.08794193792    0.09619891195     4.653129142       -3.249018397      
                  4.653129142       -3.249018397      0.1108860029      -0.1335627077     
1785007110        0.1267675339      0.03160995965     -5.061342572      -2.512622221      
                  -5.061342572      -2.512622221      -0.1319446975     -0.06407938534    
1870007020        -0.02162047916    -0.1345371286     0.2382436538      5.596159686       
                  0.2382436538      5.596159686       0.06579326221     0.132131942       
1955006930        -0.105731548      0.02079982947     4.859941639       -2.896081495      
                  4.859941639       -2.896081495      0.08932282058     -0.1939479277     
2040006840        0.08159498921     0.03813311464     -4.825210582      -2.794452637      
                  -4.825210582      -2.794452637      -0.1547886187     -0.04170234995    
2125006750        0.03568773513     -0.09157505316    -0.1757300348     5.624643943       
                  -0.1757300348     5.624643943       0.1310113776      0.1369410799      
2210006660        -0.09061263829    -0.0007730933508  4.952911314       -2.542013571      
                  4.952911314       -2.542013571      0.04812355526     -0.218086159      
2295006570        0.02870667539     0.03486316385     -4.592321123      -3.122387219      
                  -4.592321123      -3.122387219      -0.1861399216     0.01535405818     
2380006480        0.02754169979     -0.05142581596    -0.5382352385     5.559952883       
                  -0.5382352385     5.559952883       0.1668794178      0.1140424033      
2465006390        -0.08606132491    -0.01577892744    5.028050669       -2.224687122      
                  5.028050669       -2.224687122      -0.01954263283    -0.2595504125     
2550006300        0.01166949014     -0.000833533545   -4.283229548      -3.458745005      
                  -4.283229548      -3.458745005      -0.1909554538     0.06052979077     
2635006210        0.02356351359     -0.04438698521    -0.8727759697     5.499689041       
                  -0.8727759697     5.499689041       0.2136197892      0.0642433019      
2720006120        -0.08111350164    -0.009167627135   5.101810494       -1.853168417      
                  5.101810494       -1.853168417      -0.09064458736    -0.2646191361     
2805006030        0.01873827318     -0.001820161853   -3.996831435      -3.704717153      
                  -3.996831435      -3.704717153      -0.163098297      0.1235838422      
2890005940        0.01907494917     -0.03722317456    -1.208890188      5.373881314       
                  -1.208890188      5.373881314       0.2322070724      0.009021778509    
2975005850        -0.09447147278    -0.005947702772   5.133359532       -1.396185243      
                  5.133359532       -1.396185243      -0.1623526984     -0.2477976523     
3060005760        0.0205048063      0.008792429634    -3.699807204      -4.044100932      
                  -3.699807204      -4.044100932      -0.1189855032     0.1687106509      
3145005670        0.03415865765     -0.04612159154    -1.605232446      5.219620007       
                  -1.605232446      5.219620007       0.2316285999      -0.07144659325    
3230005580        -0.1025271284     -0.0306023188     5.239149594       -0.9941934873     
                  5.239149594       -0.9941934873     -0.226826445      -0.2082581819     
3315005490        0.01399604316     0.0317244109      -3.428926053      -4.266691282      
                  -3.428926053      -4.266691282      -0.0458863617     0.2027695914      
3400005400        0.06010450327     -0.03176439655    -1.954670672      5.051908676       
                  -1.954670672      5.051908676       0.2016373278      -0.1447730086     
3485005310        -0.09980281956    -0.06170429629    5.337083477       -0.6323935996     
                  5.337083477       -0.6323935996     -0.2820531553     -0.1298709533     
3570005220        -0.0177051262     0.05058873547     -3.251063683      -4.449509254      
                  -3.251063683      -4.449509254      0.03358420516     0.2108938103      
3655005130        0.06920356133     0.0006095972367   -2.145606739      4.918247597       
                  -2.145606739      4.918247597       0.1349108411      -0.208698142      
3740005040        -0.08017470171    -0.09250186776    5.322765009       -0.2833345196     
                  5.322765009       -0.2833345196     -0.3118784048     -0.04000003699    
3825004950        -0.05700491388    0.04004526712     -2.984288226      -4.572112245      
                  -2.984288226      -4.572112245      0.1134723529      0.1767670838      
3910004860        0.06621624358     0.03454653546     -2.557513277      4.69672815        
                  -2.557513277      4.69672815        0.0506840974      -0.2590042865     
3995004770        -0.03441985211    -0.1122448787     5.348400541       0.02978565645     
                  5.348400541       0.02978565645     -0.3054502846     0.06527886031     
4080004680        -0.08462060413    0.01215103783     -2.708006264      -4.739859892      
                  -2.708006264      -4.739859892      0.1907312811      0.128286038       
4165004590        0.04341625015     0.06848377316     -2.82335242       4.552341743       
                  -2.82335242       4.552341743       -0.04627807065    -0.2717599507     
4250004500        0.008455682453    -0.09124585365    5.429434357       0.2767112105      
                  5.429434357       0.2767112105      -0.2658217152     0.175524339       
4335004410        -0.1035399066     -0.01554338196    -2.45246475       -4.842876722      
                  -2.45246475       -4.842876722      0.2300430822      0.04478890078     
4420004320        -0.002520050031   0.08387792957     -3.013565376      4.437867077       
                  -3.013565376      4.437867077       -0.1638795228     -0.2507567669     
4505004230        0.03635092423     -0.061774288      5.371478856       0.445396066       
                  5.371478856       0.445396066       -0.1967219784     0.259030827       
4590004140        -0.1043449118     -0.04858342279    -2.190908914      -4.869527685      
                  -2.190908914      -4.869527685      0.229541829       -0.05749426848    
4675004050        -0.04010945621    0.07337773969     -3.097741356      4.318200328       
                  -3.097741356      4.318200328       -0.255475851      -0.1912794141     
4760003960        0.05799674568     -0.02207889574    5.217191728       0.673888404       
                  5.217191728       0.673888404       -0.08642966828    0.3111018909      
4845003870        -0.08263984083    -0.06717051892    -1.945463559      -4.90926503       
                  -1.945463559      -4.90926503       0.200380522       -0.1550101114     
4930003780        -0.0730643028     0.04632303328     -3.269352233      4.131981802       
                  -3.269352233      4.131981802       -0.3195696075     -0.09974198141    
5015003690        0.05366139152     0.03197945837     5.086419216       0.9105147193      
                  5.086419216       0.9105147193      0.03559989948     0.3347091288      
5100003600        -0.05881350681    -0.05833795617    -1.77665587       -4.965931593      
                  -1.77665587       -4.965931593      0.1195087139      -0.2293546985     
5185003510        -0.09034037372    0.01158760728     -3.315593657      3.905662779       
                  -3.315593657      3.905662779       -0.3496454488     0.01141624629     
5270003420        0.0209472427      0.06777875933     4.946346075       1.135460501       
                  4.946346075       1.135460501       0.1496883289      0.29986389        
5355003330        -0.04813807167    -0.02804253292    -1.668086252      -5.007954592      
                  -1.668086252      -5.007954592      -0.002237072916   -0.2790199734     
5440003240        -0.07438717129    -0.03184533867    -3.262890663      3.736653435       
                  -3.262890663      3.736653435       -0.319592397      0.1318082655      
5525003150        -0.01084454721    0.06023902462     4.9210212         1.245498344       
                  4.9210212         1.245498344       0.2690783817      0.2013124859      
5610003060        -0.04145012786    0.0197546037      -1.603386768      -4.848941549      
                  -1.603386768      -4.848941549      -0.1366500024     -0.2677865025     
5695002970        -0.01976708146    -0.03728989277    -3.25957083       3.517798883       
                  -3.25957083       3.517798883       -0.2213656208     0.252865843       
5780002880        -0.0184888141     0.02676853        4.860938299       1.331353499       
                  4.860938299       1.331353499       0.3296224052      0.05808941026     
5865002790        -0.07565089488    0.06755929704     -1.499243367      -4.59100031       
                  -1.499243367      -4.59100031       -0.2722272783     -0.1855029801     
5950002700        0.0283399947      0.007822570808    -3.289888242      3.309161572       
                  -3.289888242      3.309161572       -0.08286673244    0.3330629093      
6035002610        -0.0131953692     -0.03230968483    4.641298269       1.230858043       
                  4.641298269       1.230858043       0.2986922572      -0.09741520296    
6120002520        -0.1399812519     0.06674575374     -1.374500197      -4.343110089      
                  -1.374500197      -4.343110089      -0.3584403831     -0.04553710453    
6205002430        0.06310965691     0.08704849126     -3.185061881      3.104153454       
                  -3.185061881      3.104153454       0.1022054579      0.3369732106      
6290002340        0.06200212099     -0.08246806326    4.417006428       1.106943516       
                  4.417006428       1.106943516       0.1954454147      -0.2477090026     
6375002250        -0.2082792872     0.004441130118    -1.266736651      -4.066948146      
                  -1.266736651      -4.066948146      -0.376157575      0.1298252336      
6460002160        0.02365404287     0.2018330355      -2.9585895        2.906174451       
                  -2.9585895        2.906174451       0.2708648977      0.2723307915      
6545002070        0.1740925457      -0.05233452681    4.027220983       1.025051794       
                  4.027220983       1.025051794       0.02883678233     -0.3200416315     
6630001980        -0.1997820927     -0.1114713094     -1.119316591      -3.775215647      
                  -1.119316591      -3.775215647      -0.2987665499     0.3022401043      
6715001890        -0.07487357532    0.2690634258      -2.674130487      2.593785225       
                  -2.674130487      2.593785225       0.3839757153      0.156408231       
6800001800        0.2611407775      0.0602433122      3.561594861       1.093235599       
                  3.561594861       1.093235599       -0.1313723412     -0.3088826762     
6885001710        -0.09696145235    -0.2380873606     -0.8091121208     -3.442351734      
                  -0.8091121208     -3.442351734      -0.1881695328     0.3880591149      
6970001620        -0.2097823394     0.2279203322      -2.597024344      2.194253757       
                  -2.597024344      2.194253757       0.4236892697      0.02304790531     
7055001530        0.2579598934      0.2094142403      3.176178412       1.219360284       
                  3.176178412       1.219360284       -0.2570550238     -0.2713813371     
7140001440        0.08465010725     -0.2959076444     -0.5329468423     -3.189377038      
                  -0.5329468423     -3.189377038      -0.06341723179    0.4539973035      
7225001350        -0.2949213488     0.09199365717     -2.54792297       1.874717765       
                  -2.54792297       1.874717765       0.4527775454      -0.103518521      
7310001260        0.1657542239      0.3467757636      2.833122157       1.150485298       
                  2.833122157       1.150485298       -0.3587220729     -0.1851097405     
7395001170        0.2858229122      -0.2235200074     -0.2415051332     -2.934725661      
                  -0.2415051332     -2.934725661      0.07708733768     0.4819763885      
7480001080        -0.295787357      -0.1137976746     -2.389105221      1.590984975       
                  -2.389105221      1.590984975       0.3949568488      -0.2372956974     
7565000990        -0.03443958312    0.3979177095      2.587560304       1.155059644       
                  2.587560304       1.155059644       -0.4251186815     -0.08432663632    
7650000900        0.3998669646      -0.05376804258    -0.05022895517    -2.589257737      
                  -0.05022895517    -2.589257737      0.2127483683      0.4389452237      
7735000810        -0.1585200096     -0.3071097283     -2.282449117      1.331872131       
                  -2.282449117      1.331872131       0.3175326399      -0.346271027      
7820000720        -0.2089213834     0.3149945747      2.25795514        1.236715185       
                  2.25795514        1.236715185       -0.4062897678     0.02403179163     
7905000630        0.4128651424      0.1404008575      0.101149843       -2.286918199      
                  0.101149843       -2.286918199      0.3240222892      0.362687399       
7990000540        0.06830243171     -0.3900510775     -2.203800546      0.9130119211      
                  -2.203800546      0.9130119211      0.2216480957      -0.4071583997     
8075000450        -0.3506352516     0.117755933       1.891142686       1.43008779        
                  1.891142686       1.43008779        -0.3881206034     0.1189004103      
8160000360        0.2954938416      0.3141018032      0.2562211927      -2.17840803       
                  0.2562211927      -2.17840803       0.39932905        0.2801514262      
8245000270        0.2587298382      -0.3357382541     -2.032303716      0.6080231237      
                  -2.032303716      0.6080231237      0.1143699124      -0.4441921968     
8330000180        -0.3654966615     -0.1341112275     1.626386736       1.496464217       
                  1.626386736       1.496464217       -0.3433369298     0.193408692       
8415000090        0.07691193309     0.3927092731      0.387672664       -1.988570116      
                  0.387672664       -1.988570116      0.4358235236      0.167277555       
8500000000        0.3832577866      -0.184822369      -1.827255347      0.4412318413      
                  -1.827255347      0.4412318413      -0.004478698004   -0.4605144472     
