! RsaToolbox (C) 2013 Rohde & Schwarz America
! 
! Number of points: 101
! Number of ports: 2
! Balanced ports?: 0
! 
! 
# Hz S RI R 50
9000              1.007601415       -0.01827310562    8.011399246e-05   -5.678002131e-05  
                  8.011399246e-05   -5.678002131e-05  1.014372825       -0.02227674101    
85008910          0.001671392406    0.1574683717      3.19166863        5.48428602        
                  3.19166863        5.48428602        -0.09229232008    -0.1157625534     
170008820         0.1411629101      -0.04301298699    3.176950979       -5.215504768      
                  3.176950979       -5.215504768      -0.02053875364    0.1717578453      
255008730         -0.1748616176     -0.07532803902    -6.04714901       -0.1589845519     
                  -6.04714901       -0.1589845519     0.07751934081     -0.0265261241     
340008640         -0.06350241836    0.1684369287      2.65365646        5.340953954       
                  2.65365646        5.340953954       -0.1266469081     -0.05393986698    
425008550         0.1581943868      -0.0460301696     3.375791473       -4.864910445      
                  3.375791473       -4.864910445      0.01659943464     0.1028749606      
510008460         -0.1009309639     -0.1625205194     -5.897031829      -0.6342410122     
                  -5.897031829      -0.6342410122     0.07074528089     -0.07970383699    
595008370         -0.1067874241     0.1385631714      2.234263877       5.412424248       
                  2.234263877       5.412424248       -0.08387401006    -0.01211722695    
680008280         0.2031883376      0.03368881498     3.647522334       -4.575357488      
                  3.647522334       -4.575357488      0.09217110912     0.07540792891     
765008190         0.009769075362    -0.1624282127     -5.723358024      -1.089562971      
                  -5.723358024      -1.089562971      0.06011580351     -0.0606544064     
850008100         -0.1808416845     0.1107291655      1.879841415       5.510117621       
                  1.879841415       5.510117621       -0.07162413189    0.06506611463     
935008010         0.1445186083      0.1228274416      3.931291078       -4.231976605      
                  3.931291078       -4.231976605      0.102172901       0.03889408108     
1020007920        0.07514632551     -0.152586917      -5.582554049      -1.434331315      
                  -5.582554049      -1.434331315      -0.004850656074   -0.07563080377    
1105007830        -0.2240877985     -0.00843656442    1.491820759       5.602334641       
                  1.491820759       5.602334641       -0.06306959719    0.07519276204     
1190007740        0.07064308134     0.139021034       4.177336022       -3.860212417      
                  4.177336022       -3.860212417      0.1242040506      -0.04250502747    
1275007650        0.1633663992      -0.1076647404     -5.461875874      -1.811598586      
                  -5.461875874      -1.811598586      -0.0301497499     -0.0892351437     
1360007560        -0.1622167344     -0.1000148465     1.057313188       5.628279714       
                  1.057313188       5.628279714       -0.005555495772   0.1018126828      
1445007470        0.0006235143529   0.1403139183      4.391533479       -3.545966235      
                  4.391533479       -3.545966235      0.1471236548      -0.08836757161    
1530007380        0.1830641032      -0.01087854089    -5.301543041      -2.166618938      
                  -5.301543041      -2.166618938      -0.06940251996    -0.06465982122    
1615007290        -0.093074415      -0.1223806677     0.6368183578      5.585418584       
                  0.6368183578      5.585418584       0.02311936479     0.1421666282      
1700007200        -0.08750872825    0.09549153146     4.646455418       -3.249515071      
                  4.646455418       -3.249515071      0.1108421029      -0.1334821857     
1785007110        0.1260817889      0.03135864795     -5.058410086      -2.504992709      
                  -5.058410086      -2.504992709      -0.1319595965     -0.06412470042    
1870007020        -0.02146911081    -0.1337264625     0.2428526435      5.590565689       
                  0.2428526435      5.590565689       0.0656839817      0.1322121161      
1955006930        -0.1049285689     0.02045943354     4.850774853       -2.898709487      
                  4.850774853       -2.898709487      0.08919520901     -0.1939933608     
2040006840        0.08090808692     0.03735668686     -4.822217771      -2.786085637      
                  -4.822217771      -2.786085637      -0.154846728      -0.04168674505    
2125006750        0.03537829305     -0.09072682297    -0.1683635905     5.617982117       
                  -0.1683635905     5.617982117       0.1310332193      0.136975604       
2210006660        -0.08968399579    -0.0008257699384  4.942703797       -2.546430482      
                  4.942703797       -2.546430482      0.04800275685     -0.2181823942     
2295006570        0.02831321896     0.03385634354     -4.589911419      -3.111291649      
                  -4.589911419      -3.111291649      -0.1862049178     0.01521523667     
2380006480        0.02668651629     -0.05058646943    -0.5304694428     5.552443061       
                  -0.5304694428     5.552443061       0.1668660004      0.1140000249      
2465006390        -0.08513907453    -0.01510931233    5.017780604       -2.227528535      
                  5.017780604       -2.227528535      -0.01960962756    -0.2596889095     
2550006300        0.01171532224     -0.002053760191   -4.280109065      -3.44796008       
                  -4.280109065      -3.44796008       -0.1911227784     0.06068149948     
2635006210        0.02231272533     -0.04410450508    -0.8625255639     5.492028477       
                  -0.8625255639     5.492028477       0.2135941714      0.0641223867      
2720006120        -0.08051831886    -0.008052810089   5.090309716       -1.857887284      
                  5.090309716       -1.857887284      -0.09056266554    -0.2647778333     
2805006030        0.01934189764     -0.002960266788   -3.99596154       -3.690731185      
                  -3.99596154       -3.690731185      -0.1630579165     0.1233338421      
2890005940        0.01760420329     -0.03776351436    -1.195919395      5.365307287       
                  -1.195919395      5.365307287       0.2322090468      0.009071790358    
2975005850        -0.09407684972    -0.004265747042   5.119454879       -1.40099148       
                  5.119454879       -1.40099148       -0.1622528765     -0.2477665937     
3060005760        0.02151360301     0.007830727157    -3.699072208      -4.029379528      
                  -3.699072208      -4.029379528      -0.1189689689     0.168726927       
3145005670        0.03288832507     -0.04720066867    -1.590781841      5.211527607       
                  -1.590781841      5.211527607       0.2319737455      -0.07151013006    
3230005580        -0.1027270887     -0.02936453502    5.22621362        -1.001139827      
                  5.22621362        -1.001139827      -0.2269190715     -0.208372655      
3315005490        0.01544559127     0.03148063773     -3.431555473      -4.247958991      
                  -3.431555473      -4.247958991      -0.0460751138     0.2026460272      
3400005400        0.05953906865     -0.03340495363    -1.935902896      5.044904986       
                  -1.935902896      5.044904986       0.2017736028      -0.1449571348     
3485005310        -0.1011642327     -0.06059105568    5.321663182       -0.6453943109     
                  5.321663182       -0.6453943109     -0.2821203443     -0.129822765      
3570005220        -0.01581612336    0.05133427543     -3.256856074      -4.425912261      
                  -3.256856074      -4.425912261      0.03350773232     0.2108951271      
3655005130        0.06933802574     -0.001536891309   -2.121817143      4.90925025        
                  -2.121817143      4.90925025        0.1348403555      -0.2086322203     
3740005040        -0.08200147093    -0.09207142888    5.305172455       -0.2986035728     
                  5.305172455       -0.2986035728     -0.312001216      -0.03969807557    
3825004950        -0.05584216318    0.04192844257     -2.992061391      -4.543112656      
                  -2.992061391      -4.543112656      0.113586709       0.1762381093      
3910004860        0.06760001135     0.03257087064     -2.52724576       4.690016739       
                  -2.52724576       4.690016739       0.05071768565     -0.259153165      
3995004770        -0.03686745264    -0.1130212562     5.326299944       0.007232077161    
                  5.326299944       0.007232077161    -0.3053536921     0.06522261662     
4080004680        -0.08448556926    0.01498659645     -2.716318778      -4.707155407      
                  -2.716318778      -4.707155407      0.1908686582      0.1283676692      
4165004590        0.04591694705     0.06741658875     -2.796972954      4.54073412        
                  -2.796972954      4.54073412        -0.0461986141     -0.2718594094     
4250004500        0.006231374786    -0.09310678943    5.404140485       0.252114542       
                  5.404140485       0.252114542       -0.265730063      0.1756597714      
4335004410        -0.1046988552     -0.01236263185    -2.463257867      -4.805736141      
                  -2.463257867      -4.805736141      0.2300255149      0.04465706826     
4420004320        0.0008412364413   0.08370272318     -2.976701465      4.430429133       
                  -2.976701465      4.430429133       -0.1637822223     -0.2508602491     
4505004230        0.03492962872     -0.06509473674    5.342340534       0.4144209544      
                  5.342340534       0.4144209544      -0.1968791358     0.2590652867      
4590004140        -0.1070984855     -0.04591392298    -2.20440689       -4.827467552      
                  -2.20440689       -4.827467552      0.2296610444      -0.05759674157    
4675004050        -0.03671425202    0.0749288219      -3.054382854      4.30822007        
                  -3.054382854      4.30822007        -0.2554758082     -0.191385886      
4760003960        0.05805907743     -0.02601848846    5.185247462       0.638835446       
                  5.185247462       0.638835446       -0.08654629043    0.3112709007      
4845003870        -0.08665717406    -0.0658496415     -1.961235149      -4.860523715      
                  -1.961235149      -4.860523715      0.2003403933      -0.1548132285     
4930003780        -0.07026445357    0.04997920216     -3.21593935       4.119806083       
                  -3.21593935       4.119806083       -0.3196555614     -0.09977369709    
5015003690        0.055843972       0.02789690709     5.053004622       0.8713025364      
                  5.053004622       0.8713025364      0.03542060532     0.3347110632      
5100003600        -0.06385026997    -0.05880344803    -1.7979032        -4.905191457      
                  -1.7979032        -4.905191457      0.1198224886      -0.2292861406     
5185003510        -0.08896874531    0.01644982672     -3.257191703      3.891672469       
                  -3.257191703      3.891672469       -0.3497568353     0.01134419285     
5270003420        0.02493543775     0.06453651277     4.908735258       1.092139695       
                  4.908735258       1.092139695       0.149722423       0.299876333       
5355003330        -0.05293090941    -0.03125945483    -1.692197715      -4.93466979       
                  -1.692197715      -4.93466979       -0.00212303795    -0.279212559      
5440003240        -0.07537149102    -0.02668423672    -3.203447871      3.720387792       
                  -3.203447871      3.720387792       -0.3196152587     0.1320923932      
5525003150        -0.005496221487   0.05858617999     4.877367842       1.196664992       
                  4.877367842       1.196664992       0.2689584358      0.2014996512      
5610003060        -0.04444186499    0.01469628786     -1.628933427      -4.771522799      
                  -1.628933427      -4.771522799      -0.136698327      -0.2678370348     
5695002970        -0.0230098938     -0.03261451413    -3.196950468      3.500295236       
                  -3.196950468      3.500295236       -0.2214145934     0.2528309355      
5780002880        -0.01263674066    0.02785162859     4.809655521       1.275795439       
                  4.809655521       1.275795439       0.329575876       0.05810068677     
5865002790        -0.07609921251    0.06185616938     -1.515297684      -4.519370492      
                  -1.515297684      -4.519370492      -0.2721884531     -0.1854842424     
5950002700        0.02354841495     0.01071971609     -3.226049006      3.291416445       
                  -3.226049006      3.291416445       -0.08278158611    0.3331099981      
6035002610        -0.008474798871   -0.02857918589    4.583798481       1.178262008       
                  4.583798481       1.178262008       0.2988356527      -0.09736526981    
6120002520        -0.1380663154     0.06162298293     -1.385860846      -4.277257315      
                  -1.385860846      -4.277257315      -0.3583900329     -0.04565015056    
6205002430        0.05766168283     0.08756603749     -3.124147783      3.086047466       
                  -3.124147783      3.086047466       0.1020986971      0.3376818206      
6290002340        0.06440889109     -0.07752467821    4.361356693       1.062632707       
                  4.361356693       1.062632707       0.1953713891      -0.2478448726     
6375002250        -0.2048054575     0.0009015181769   -1.273041906      -4.010892109      
                  -1.273041906      -4.010892109      -0.3759851823     0.1296889315      
6460002160        0.01932595913     0.2000425841      -2.908993468      2.888201371       
                  -2.908993468      2.888201371       0.2709352456      0.2724174109      
6545002070        0.1738754804      -0.04749034497    3.979666976       0.9910660461      
                  3.979666976       0.9910660461      0.02897235292     -0.320199049      
6630001980        -0.195667858      -0.112950271      -1.121998894      -3.727137561      
                  -1.121998894      -3.727137561      -0.2986767635     0.3022625112      
6715001890        -0.07751487887    0.2660721592      -2.635547368      2.576715974       
                  -2.635547368      2.576715974       0.3840125738      0.1563118031      
6800001800        0.2593221322      0.06381102421     3.525167181       1.066014193       
                  3.525167181       1.066014193       -0.1313363027     -0.3089064746     
6885001710        -0.0932598108     -0.2376747633     -0.8117340794     -3.4048958        
                  -0.8117340794     -3.4048958        -0.1882536147     0.3881973423      
6970001620        -0.2108684949     0.2246033936      -2.566843186      2.181759799       
                  -2.566843186      2.181759799       0.4233155149      0.02359265375     
7055001530        0.2553750354      0.2113359047      3.151013875       1.199029068       
                  3.151013875       1.199029068       -0.257041974      -0.2714394561     
7140001440        0.08679109554     -0.294226881      -0.5346709329     -3.164430877      
                  -0.5346709329     -3.164430877      -0.06351526187    0.4539669343      
7225001350        -0.2945743608     0.08936929845     -2.526034901      1.866132342       
                  -2.526034901      1.866132342       0.4528306512      -0.1034281528     
7310001260        0.1638635952      0.3470842231      2.816794982       1.137844959       
                  2.816794982       1.137844959       -0.3587161895     -0.1851776213     
7395001170        0.2867961297      -0.2215771715     -0.2436892043     -2.915585564      
                  -0.2436892043     -2.915585564      0.07695525146     0.4822175186      
7480001080        -0.2943555103     -0.1157970595     -2.370503685      1.583561106       
                  -2.370503685      1.583561106       0.394950151       -0.2369620416     
7565000990        -0.03658105705    0.3973742227      2.571858259       1.144489049       
                  2.571858259       1.144489049       -0.4250910151     -0.08447968706    
7650000900        0.4000086555      -0.05190671831    -0.05156677149    -2.576728435      
                  -0.05156677149    -2.576728435      0.2129506531      0.4389816333      
7735000810        -0.1572800197     -0.3077585639     -2.271546012      1.326576881       
                  -2.271546012      1.326576881       0.3174036689      -0.3463005413     
7820000720        -0.210015161      0.3139716159      2.247637108       1.230684234       
                  2.247637108       1.230684234       -0.4063755269     0.0248278835      
7905000630        0.4124152276      0.1414298626      0.1007192159      -2.278573025      
                  0.1007192159      -2.278573025      0.3244267007      0.3626264158      
7990000540        0.06954495806     -0.3901313306     -2.194676746      0.9089817208      
                  -2.194676746      0.9089817208      0.222236283       -0.4073641069     
8075000450        -0.3513134527     0.116551463       1.883259458       1.424862142       
                  1.883259458       1.424862142       -0.3881259449     0.1187998998      
8160000360        0.2947519796      0.3146285562      0.2555806345      -2.171087877      
                  0.2555806345      -2.171087877      0.3995017409      0.2801266182      
8245000270        0.2594911714      -0.3352761677     -2.02599888       0.605690162       
                  -2.02599888       0.605690162       0.1145605405      -0.4442904445     
8330000180        -0.3652015856     -0.1350742567     1.620825366       1.491897228       
                  1.620825366       1.491897228       -0.3433507844     0.1935951329      
8415000090        0.07613875014     0.3927947192      0.3873939101      -1.982853152      
                  0.3873939101      -1.982853152      0.4361456832      0.1674603818      
8500000000        0.3831308344      -0.184633509      -1.823326516      0.4395356372      
                  -1.823326516      0.4395356372      -0.00429140524    -0.4607976931     
