! RsaToolbox (C) 2013 Rohde & Schwarz America
! 
! Number of points: 101
! Number of ports: 2
! Balanced ports?: 0
! 
! 
# Hz S RI R 50
9000              1.008612781       -0.0199013294     6.804630195e-05   -7.192507234e-05  
                  6.804630195e-05   -7.192507234e-05  1.02107696        -0.02776480963    
85008910          0.002569395823    0.1595057359      3.195415923       5.526249925       
                  3.195415923       5.526249925       -0.09191079946    -0.1156305269     
170008820         0.1427476546      -0.04440512952    3.198346546       -5.228451533      
                  3.198346546       -5.228451533      -0.0200195358     0.171053681       
255008730         -0.176504454      -0.07556723341    -6.065789555      -0.1693115955     
                  -6.065789555      -0.1693115955     0.07797683797     -0.02641908333    
340008640         -0.06353923392    0.1700729408      2.648667568       5.363680309       
                  2.648667568       5.363680309       -0.1266857053     -0.0538547395     
425008550         0.159613631       -0.04657189766    3.398295413       -4.870118644      
                  3.398295413       -4.870118644      0.01693253211     0.1028734029      
510008460         -0.1019335333     -0.1636313246     -5.910635581      -0.6525811769     
                  -5.910635581      -0.6525811769     0.07077259311     -0.07980902286    
595008370         -0.107749849      0.1398629744      2.224896426       5.435354811       
                  2.224896426       5.435354811       -0.08355754657    -0.01209507866    
680008280         0.2045231346      0.03383294966     3.673200273       -4.577972977      
                  3.673200273       -4.577972977      0.09240582622     0.07510182341     
765008190         0.009458020012    -0.1641977304     -5.737484796      -1.109886621      
                  -5.737484796      -1.109886621      0.06047947202     -0.06063688941    
850008100         -0.1820483581     0.111820926       1.866310442       5.528102502       
                  1.866310442       5.528102502       -0.0714254217     0.06520541315     
935008010         0.145741004       0.1235299683      3.95546739        -4.232648325      
                  3.95546739        -4.232648325      0.1018800955      0.03886314717     
1020007920        0.07542833659     -0.1543057357     -5.594655326      -1.4540381        
                  -5.594655326      -1.4540381        -0.00528700159    -0.07533390451    
1105007830        -0.2256557657     -0.008156205074   1.476266248       5.622960782       
                  1.476266248       5.622960782       -0.0628530714     0.07521104327     
1190007740        0.07126154478     0.1407487627      4.204169641       -3.85722163       
                  4.204169641       -3.85722163       0.1240756247      -0.04297156532    
1275007650        0.1646658571      -0.1089630623     -5.472390363      -1.835982725      
                  -5.472390363      -1.835982725      -0.02969286145    -0.08911774539    
1360007560        -0.1638167323     -0.100789737      1.042439114       5.650645602       
                  1.042439114       5.650645602       -0.005325538118   0.1011574044      
1445007470        0.0004941916721   0.1423184065      4.420533592       -3.545913142      
                  4.420533592       -3.545913142      0.1471147604      -0.08826010307    
1530007380        0.1848332466      -0.01125517969    -5.308131695      -2.197949333      
                  -5.308131695      -2.197949333      -0.06909795452    -0.06414709159    
1615007290        -0.09425823622    -0.1246450952     0.6135384262      5.605701827       
                  0.6135384262      5.605701827       0.02323930349     0.1422075025      
1700007200        -0.08902458043    0.09747296579     4.674935613       -3.241697466      
                  4.674935613       -3.241697466      0.1110841638      -0.1335397902     
1785007110        0.1288824616      0.0318299742      -5.065269249      -2.535588074      
                  -5.065269249      -2.535588074      -0.1317914262     -0.06388620114    
1870007020        -0.02153618899    -0.136696325      0.2204234766      5.613680741       
                  0.2204234766      5.613680741       0.06592370751     0.1321357889      
1955006930        -0.1073958745     0.02193239498     4.88425734        -2.887101663      
                  4.88425734        -2.887101663      0.08896203895     -0.1941086046     
2040006840        0.0830887192      0.03953890044     -4.829707465      -2.822897739      
                  -4.829707465      -2.822897739      -0.1544685984     -0.04162679796    
2125006750        0.03660047088     -0.0936679321     -0.1978963272     5.643307181       
                  -0.1978963272     5.643307181       0.1313555235      0.1368893718      
2210006660        -0.09331799368    -0.0006201146796  4.979426195       -2.532928655      
                  4.979426195       -2.532928655      0.0476912083      -0.217715403      
2295006570        0.02993890656     0.03699201307     -4.599396002      -3.1487781        
                  -4.599396002      -3.1487781        -0.1860353069     0.01525579307     
2380006480        0.02967272694     -0.0533613582     -0.5617170817     5.58182053        
                  -0.5617170817     5.58182053        0.1667782652      0.1141475858      
2465006390        -0.088313469      -0.01620185762    5.057806837       -2.214196918      
                  5.057806837       -2.214196918      -0.01991062718    -0.2592559271     
2550006300        0.0117853652      0.002236525267    -4.29104642       -3.491151581      
                  -4.29104642       -3.491151581      -0.1906878171     0.06114933208     
2635006210        0.02611406374     -0.04554315172    -0.9025065292     5.522890501       
                  -0.9025065292     5.522890501       0.2136664946      0.06411452284     
2720006120        -0.08281168333    -0.01076170388    5.134368198       -1.841013902      
                  5.134368198       -1.841013902      -0.09103496574    -0.2646268459     
2805006030        0.01743700173     0.0006640546801   -4.005301168      -3.738506106      
                  -4.005301168      -3.738506106      -0.1633238886     0.1234706778      
2890005940        0.02216632251     -0.03689571814    -1.242339697      5.397907624       
                  -1.242339697      5.397907624       0.2319504947      0.009088632772    
2975005850        -0.09530703452    -0.008979823241   5.170739735       -1.385407313      
                  5.170739735       -1.385407313      -0.1620420631     -0.2474066266     
3060005760        0.01830613001     0.01078985863     -3.708211858      -4.081866164      
                  -3.708211858      -4.081866164      -0.1189086277     0.1688990832      
3145005670        0.03675339089     -0.0447965649     -1.640117336      5.245707757       
                  -1.640117336      5.245707757       0.2312737448      -0.07140900335    
3230005580        -0.1018614304     -0.03366703646    5.27621825        -0.9814256616     
                  5.27621825        -0.9814256616     -0.226973623      -0.2079966886     
3315005490        0.01115699916     0.03214703132     -3.434344282      -4.310200134      
                  -3.434344282      -4.310200134      -0.04601761115    0.2029921285      
3400005400        0.06117750009     -0.02886079786    -1.995632109      5.079309572       
                  -1.995632109      5.079309572       0.2017965968      -0.1445069218     
3485005310        -0.09695695337    -0.06354262901    5.381862816       -0.613009938      
                  5.381862816       -0.613009938      -0.2817080945     -0.1301306027     
3570005220        -0.02034843849    0.04938042188     -3.253050216      -4.50399845       
                  -3.253050216      -4.50399845       0.03428860991     0.2106511796      
3655005130        0.06892520172     0.004065765209    -2.193988019      4.94907996        
                  -2.193988019      4.94907996        0.1339557792      -0.2088969777     
3740005040        -0.07766119017    -0.09359781532    5.370186107       -0.2555811296     
                  5.370186107       -0.2555811296     -0.3119163893     -0.03981917716    
3825004950        -0.0590790167     0.03684060579     -2.981303064      -4.637741401      
                  -2.981303064      -4.637741401      0.1132469645      0.1759906259      
3910004860        0.0636904152      0.03779903765     -2.615802902      4.726296863       
                  -2.615802902      4.726296863       0.04994454898     -0.2593423274     
3995004770        -0.03115419642    -0.1118467175     5.405648877       0.06680388276     
                  5.405648877       0.06680388276     -0.3053739726     0.06528199303     
4080004680        -0.08525181173    0.007054793898    -2.707610216      -4.808284481      
                  -2.707610216      -4.808284481      0.1905330657      0.1286777489      
4165004590        0.03898961265     0.07055127179     -2.875932397      4.589257892       
                  -2.875932397      4.589257892       -0.04631227931    -0.2714758511     
4250004500        0.01150305833     -0.08808249936    5.491980075       0.3096355979      
                  5.491980075       0.3096355979      -0.2655970652     0.1756683103      
4335004410        -0.1012029198     -0.02013260627    -2.453601744      -4.917638358      
                  -2.453601744      -4.917638358      0.2293652062      0.04471690374     
4420004320        -0.007980040033   0.08302964972     -3.080076423      4.475863012       
                  -3.080076423      4.475863012       -0.1637041383     -0.2508161773     
4505004230        0.03810782111     -0.05622611181    5.442537431       0.49172981        
                  5.442537431       0.49172981        -0.1966472951     0.2589575126      
4590004140        -0.09969524542    -0.05209606066    -2.185118098      -4.955892447      
                  -2.185118098      -4.955892447      0.2296430796      -0.05775998578    
4675004050        -0.04525613383    0.06991873745     -3.180533902      4.359154476       
                  -3.180533902      4.359154476       -0.2554632347     -0.1911316094     
4760003960        0.05731239561     -0.01612853958    5.295054112       0.7265313894      
                  5.295054112       0.7265313894      -0.08636500816    0.3110133515      
4845003870        -0.07612255538    -0.06844989652    -1.937258705      -5.007995069      
                  -1.937258705      -5.007995069      0.2003348916      -0.1551816708     
4930003780        -0.07668117642    0.0406355131      -3.360108267      4.17775791        
                  -3.360108267      4.17775791        -0.319235664      -0.09862810852    
5015003690        0.04996282431     0.03798180058     5.166416913       0.9651150599      
                  5.166416913       0.9651150599      0.03547126469     0.3347432479      
5100003600        -0.05176099749    -0.05632255154    -1.765085273      -5.080993207      
                  -1.765085273      -5.080993207      0.1192675448      -0.2287787611     
5185003510        -0.0907521833     0.003900358036    -3.418142046      3.953702936       
                  -3.418142046      3.953702936       -0.3495447691     0.01163934376     
5270003420        0.01439197019     0.07157570324     5.033672701       1.198511528       
                  5.033672701       1.198511528       0.1495483751      0.2995974205      
5355003330        -0.04194747601    -0.0220235068     -1.650810722      -5.142693167      
                  -1.650810722      -5.142693167      -0.002254031988   -0.2787888358     
5440003240        -0.07071061034    -0.03940400852    -3.363482668      3.789323318       
                  -3.363482668      3.789323318       -0.3190615456     0.1318488757      
5525003150        -0.01892276656    0.06073537869     5.018405937       1.315485686       
                  5.018405937       1.315485686       0.2691496174      0.2009906756      
5610003060        -0.03880720214    0.02872867266     -1.595216701      -4.985161164      
                  -1.595216701      -4.985161164      -0.1366805286     -0.2674949614     
5695002970        -0.01346028211    -0.04339177831    -3.364683634      3.571876636       
                  -3.364683634      3.571876636       -0.220965692      0.2528071078      
5780002880        -0.02600442722    0.02321227902     4.969709958       1.408084011       
                  4.969709958       1.408084011       0.3295819867      0.05742625472     
5865002790        -0.07729521015    0.07635093634     -1.495808149      -4.721448899      
                  -1.495808149      -4.721448899      -0.2720227772     -0.1852151909     
5950002700        0.03680272522     0.005125814491    -3.397391237      3.362926605       
                  -3.397391237      3.362926605       -0.08289565493    0.3330092167      
6035002610        -0.01856505291    -0.0394862597     4.757145878       1.304092353       
                  4.757145878       1.304092353       0.2981813963      -0.0977409764     
6120002520        -0.1450301536     0.07363293176     -1.379054925      -4.463153404      
                  -1.379054925      -4.463153404      -0.3584679026     -0.04551426677    
6205002430        0.07136694731     0.08870460794     -3.284713009      3.156966271       
                  -3.284713009      3.156966271       0.1020880833      0.3370088609      
6290002340        0.06067454541     -0.09125592124    4.529581388       1.163838957       
                  4.529581388       1.163838957       0.1945830757      -0.2474644176     
6375002250        -0.2158129574     0.008458286582    -1.279967354      -4.167337377      
                  -1.279967354      -4.167337377      -0.3759577222     0.1299720511      
6460002160        0.02972959245     0.2063673685      -3.037509699      2.956583101       
                  -3.037509699      2.956583101       0.2709365123      0.2722793081      
6545002070        0.1765762887      -0.06018083267    4.123306331       1.06494906        
                  4.123306331       1.06494906        0.02841153269     -0.3201834739     
6630001980        -0.2074520645     -0.1107962651     -1.134312854      -3.860019008      
                  -1.134312854      -3.860019008      -0.2985138096     0.3022376085      
6715001890        -0.07198234263    0.2752958923      -2.733922153      2.638385691       
                  -2.733922153      2.638385691       0.3841386323      0.1548026464      
6800001800        0.2659492087      0.05516761109     3.635734065       1.12574155        
                  3.635734065       1.12574155        -0.1317899475     -0.3088053838     
6885001710        -0.1032222416     -0.2409556786     -0.820951507      -3.509099186      
                  -0.820951507      -3.509099186      -0.1880438105     0.3876440013      
6970001620        -0.2099038079     0.2336090402      -2.644753861      2.229564167       
                  -2.644753861      2.229564167       0.4233222727      0.02313526973     
7055001530        0.2638982568      0.2074398678      3.228571066       1.240810146       
                  3.228571066       1.240810146       -0.2567505818     -0.2716231662     
7140001440        0.08193349691     -0.2999716692     -0.5431144504     -3.23327348       
                  -0.5431144504     -3.23327348       -0.06303984866    0.4534764796      
7225001350        -0.2968064886     0.09640493373     -2.583659287      1.901582109       
                  -2.583659287      1.901582109       0.4530127999      -0.1034922364     
7310001260        0.1705764939      0.3473333262      2.869023308       1.162002852       
                  2.869023308       1.162002852       -0.3584635964     -0.1852370969     
7395001170        0.2854517854      -0.2278688196     -0.2482556421     -2.970014044      
                  -0.2482556421     -2.970014044      0.07711315178     0.4819805893      
7480001080        -0.2989676866     -0.1103432913     -2.418626704      1.615058949       
                  -2.418626704      1.615058949       0.3945343479      -0.2370284036     
7565000990        -0.0304605518     0.4003495751      2.619123953       1.163869022       
                  2.619123953       1.163869022       -0.4246913076     -0.08401090519    
7650000900        0.4012524617      -0.05651271969    -0.05455204567    -2.612969815      
                  -0.05455204567    -2.612969815      0.2136127868      0.4383503083      
7735000810        -0.1614691857     -0.3063498837     -2.298822876      1.348001454       
                  -2.298822876      1.348001454       0.3173307276      -0.3462973999     
7820000720        -0.2065192014     0.3174958584      2.279969157       1.241782826       
                  2.279969157       1.241782826       -0.4055748134     0.02504276557     
7905000630        0.4134453916      0.1391258999      0.09601750219     -2.301266852      
                  0.09601750219     -2.301266852      0.3239961351      0.3627613854      
7990000540        0.06610906545     -0.3907090511     -2.216534946      0.926239363       
                  -2.216534946      0.926239363       0.2221816659      -0.4072962781     
8075000450        -0.3504300546     0.1211010648      1.909712116       1.433466332       
                  1.909712116       1.433466332       -0.3881051026     0.1188871862      
8160000360        0.2972387513      0.3138802043      0.2509297192      -2.191487008      
                  0.2509297192      -2.191487008      0.3999054482      0.2798896261      
8245000270        0.2580016743      -0.3370065303     -2.039691592      0.6159234392      
                  -2.039691592      0.6159234392      0.1148842968      -0.4445865954     
8330000180        -0.3668548088     -0.1323509889     1.638113277       1.500169145       
                  1.638113277       1.500169145       -0.3429803623     0.1931298744      
8415000090        0.07803698877     0.3929791658      0.3845638482      -1.99840713       
                  0.3845638482      -1.99840713       0.4365759712      0.1673965382      
8500000000        0.3827427161      -0.1864407662     -1.832610371      0.4473535243      
                  -1.832610371      0.4473535243      -0.003957264756   -0.4606258169     
