! RsaToolbox (C) 2013 Rohde & Schwarz America
! 
! Number of points: 101
! Number of ports: 2
! Balanced ports?: 0
! 
! 
# Hz S RI R 50
9000              1.016073519       -0.02890986867    2.901622975e-05   5.104530846e-06   
                  2.901622975e-05   5.104530846e-06   1.023488656       -0.02465551603    
85008910          0.002694020516    0.1593765384      3.193522217       5.525892804       
                  3.193522217       5.525892804       -0.09209345705    -0.1150616558     
170008820         0.1424682044      -0.04434964511    3.197517632       -5.228326966      
                  3.197517632       -5.228326966      -0.02020711043    0.1715430504      
255008730         -0.1766740746     -0.07559564239    -6.065140195      -0.1706233402     
                  -6.065140195      -0.1706233402     0.07792156825     -0.02629072073    
340008640         -0.06373734543    0.1700388722      2.651635742       5.36358548        
                  2.651635742       5.36358548        -0.1268354954     -0.05361823238    
425008550         0.1597524874      -0.04635980806    3.396179603       -4.871097095      
                  3.396179603       -4.871097095      0.01686527917     0.1028585433      
510008460         -0.1018745617     -0.1634636138     -5.912774396      -0.6505870039     
                  -5.912774396      -0.6505870039     0.07032342547     -0.08009166057    
595008370         -0.1076404552     0.1401250008      2.225976237       5.435555258       
                  2.225976237       5.435555258       -0.083442363      -0.01233471687    
680008280         0.2049219403      0.03333830079     3.668361646       -4.582201984      
                  3.668361646       -4.582201984      0.09249259247     0.07533745308     
765008190         0.00944378597     -0.1640019992     -5.735999948      -1.108103643      
                  -5.735999948      -1.108103643      0.05961564545     -0.06064523258    
850008100         -0.1821239968     0.1118614019      1.866580834       5.52981878        
                  1.866580834       5.52981878        -0.07160298287    0.06495229849     
935008010         0.1460616607      0.1237407022      3.953130219       -4.231262216      
                  3.953130219       -4.231262216      0.1021005795      0.03922307511     
1020007920        0.07545895228     -0.1542367711     -5.593726616      -1.452236186      
                  -5.593726616      -1.452236186      -0.004999709547   -0.07533429629    
1105007830        -0.2254862631     -0.008447273214   1.477060189       5.625053301       
                  1.477060189       5.625053301       -0.06308671266    0.07524194036     
1190007740        0.0717354776      0.1404507285      4.201696672       -3.86252728       
                  4.201696672       -3.86252728       0.1243568755      -0.04254876125    
1275007650        0.1644475047      -0.1089894778     -5.471047215      -1.835977151      
                  -5.471047215      -1.835977151      -0.02993111562    -0.08920967749    
1360007560        -0.1639752555     -0.1008012142     1.041207279       5.648307703       
                  1.041207279       5.648307703       -0.005243253129   0.101646143       
1445007470        0.0004828404127   0.1424771012      4.417800858       -3.543291008      
                  4.417800858       -3.543291008      0.1469312455      -0.08825121375    
1530007380        0.1849851315      -0.01135060003    -5.307397565      -2.1961295        
                  -5.307397565      -2.1961295        -0.06915058896    -0.06469906458    
1615007290        -0.09442679799    -0.1245291634     0.6158914462      5.607905399       
                  0.6158914462      5.607905399       0.02371215727     0.142172856       
1700007200        -0.08899826191    0.09780904339     4.676010883       -3.244440912      
                  4.676010883       -3.244440912      0.1113162008      -0.133163262      
1785007110        0.1290513404      0.03194656494     -5.067231372      -2.534610927      
                  -5.067231372      -2.534610927      -0.1316491673     -0.06411373757    
1870007020        -0.02172329331    -0.1367734313     0.2192567565      5.61234558        
                  0.2192567565      5.61234558        0.06601642408     0.1322406887      
1955006930        -0.1075522975     0.02188356144     4.884607563       -2.887788965      
                  4.884607563       -2.887788965      0.08925843929     -0.1941713533     
2040006840        0.08386021308     0.03963325405     -4.829688947      -2.82016515       
                  -4.829688947      -2.82016515       -0.1550438109     -0.04167152398    
2125006750        0.03637410477     -0.09350592402    -0.1997889311     5.642980444       
                  -0.1997889311     5.642980444       0.1311725753      0.1368225146      
2210006660        -0.09301360484    -0.0005087134878  4.980023497       -2.531437381      
                  4.980023497       -2.531437381      0.04816856561     -0.2179844596     
2295006570        0.02948375814     0.03692298026     -4.595692885      -3.154100492      
                  -4.595692885      -3.154100492      -0.185919576      0.01557453823     
2380006480        0.02941010034     -0.05309627936    -0.5626458673     5.580085006       
                  -0.5626458673     5.580085006       0.1666285386      0.1137809758      
2465006390        -0.08873146003    -0.01659626394    5.055441639       -2.21503082       
                  5.055441639       -2.21503082       -0.01948323741    -0.2593095506     
2550006300        0.01179634183     0.001977235207    -4.285459172      -3.490299218      
                  -4.285459172      -3.490299218      -0.1908022621     0.06014743453     
2635006210        0.02637726936     -0.04517719934    -0.9026830271     5.522306669       
                  -0.9026830271     5.522306669       0.2136161729      0.06410324314     
2720006120        -0.08277402604    -0.01168349127    5.134089012       -1.843147458      
                  5.134089012       -1.843147458      -0.0903797668     -0.2643347366     
2805006030        0.01693763274     0.0009741173339   -4.006229349      -3.738294343      
                  -4.006229349      -3.738294343      -0.1635018378     0.1235393529      
2890005940        0.02202071434     -0.03653533314    -1.244903889      5.397386001       
                  -1.244903889      5.397386001       0.231971428       0.009164225359    
2975005850        -0.0950417808     -0.008618552477   5.1676819         -1.383940606      
                  5.1676819         -1.383940606      -0.1618815165     -0.247333511      
3060005760        0.01798653179     0.01046620061     -3.706318291      -4.081636323      
                  -3.706318291      -4.081636323      -0.1190459493     0.168239963       
3145005670        0.03662986238     -0.04414545943    -1.634683884      5.246319247       
                  -1.634683884      5.246319247       0.2316311557      -0.07162942997    
3230005580        -0.1021597632     -0.03342172921    5.273671399       -0.9825277022     
                  5.273671399       -0.9825277022     -0.2267437556     -0.2081609192     
3315005490        0.01149089128     0.03175684085     -3.432830502      -4.308114057      
                  -3.432830502      -4.308114057      -0.04537187289    0.2026420325      
3400005400        0.0618239573      -0.02849966972    -1.997153053      5.078819066       
                  -1.997153053      5.078819066       0.2018425887      -0.1455895409     
3485005310        -0.09770215603    -0.06444926599    5.376693315       -0.612610114      
                  5.376693315       -0.612610114      -0.2825609741     -0.1294616934     
3570005220        -0.0201805111     0.04963299773     -3.253492522      -4.500599191      
                  -3.253492522      -4.500599191      0.03315478933     0.210553162       
3655005130        0.06903763626     0.004692109965    -2.193861704      4.946069524       
                  -2.193861704      4.946069524       0.1346473659      -0.2088926515     
3740005040        -0.07690117002    -0.09367760162    5.370537606       -0.2568559094     
                  5.370537606       -0.2568559094     -0.3119605813     -0.03961950184    
3825004950        -0.05923686517    0.0367522874      -2.979117961      -4.636956685      
                  -2.979117961      -4.636956685      0.1134767029      0.1760681105      
3910004860        0.06376423225     0.03767627426     -2.616013476      4.724681175       
                  -2.616013476      4.724681175       0.05054584315     -0.2589834847     
3995004770        -0.03091506838    -0.1111370463     5.404071512       0.0663026799      
                  5.404071512       0.0663026799      -0.3051190371     0.06499581342     
4080004680        -0.08464566594    0.007431586053    -2.708652716      -4.805644526      
                  -2.708652716      -4.805644526      0.1903723901      0.128275823       
4165004590        0.03906458422     0.07056718195     -2.87353776       4.588166247       
                  -2.87353776       4.588166247       -0.04687554869    -0.2716387794     
4250004500        0.01152137057     -0.08824222466    5.492296824       0.309831729       
                  5.492296824       0.309831729       -0.2653458519     0.175438237       
4335004410        -0.1009674227     -0.02010510973    -2.448756825      -4.918488678      
                  -2.448756825      -4.918488678      0.2297498258      0.04476564859     
4420004320        -0.007326315613   0.08359227868     -3.078437755      4.475563237       
                  -3.078437755      4.475563237       -0.1642377761     -0.251023806      
4505004230        0.0381199452      -0.05656787914    5.442337372       0.4907981174      
                  5.442337372       0.4907981174      -0.1967258532     0.2592323609      
4590004140        -0.09959366432    -0.05196176771    -2.18435273       -4.954128425      
                  -2.18435273       -4.954128425      0.2296148775      -0.05782119763    
4675004050        -0.04507140458    0.07004065764     -3.177985995      4.358379969       
                  -3.177985995      4.358379969       -0.2553372429     -0.1909658305     
4760003960        0.05702003916     -0.0156785985     5.290899657       0.7240728246      
                  5.290899657       0.7240728246      -0.08644764305    0.3113930506      
4845003870        -0.07640420705    -0.06859970654    -1.936310549      -5.006662173      
                  -1.936310549      -5.006662173      0.1999843528      -0.1552161348     
4930003780        -0.07643981955    0.04030044522     -3.362566638      4.176661705       
                  -3.362566638      4.176661705       -0.3191745351     -0.09917250886    
5015003690        0.04946272248     0.03806963886     5.167202925       0.9671225952      
                  5.167202925       0.9671225952      0.03536458467     0.3344978423      
5100003600        -0.05178498707    -0.05614716524    -1.765379455      -5.079727514      
                  -1.765379455      -5.079727514      0.1198662681      -0.2288910492     
5185003510        -0.09093064767    0.003562710376    -3.416759838      3.953382164       
                  -3.416759838      3.953382164       -0.349390038      0.01174411435     
5270003420        0.01432615861     0.07152808095     5.032405612       1.194994931       
                  5.032405612       1.194994931       0.1499623349      0.2996366452      
5355003330        -0.04249909025    -0.02262634157    -1.648831559      -5.142614996      
                  -1.648831559      -5.142614996      -0.002431828492   -0.2788935184     
5440003240        -0.07108837956    -0.03923266614    -3.362663347      3.789475723       
                  -3.362663347      3.789475723       -0.3193774552     0.1320912221      
5525003150        -0.01868447733    0.06072179355     5.017106157       1.31363027        
                  5.017106157       1.31363027        0.268862782       0.2016900559      
5610003060        -0.03846817011    0.02804451473     -1.594449717      -4.982664778      
                  -1.594449717      -4.982664778      -0.1368848899     -0.2674512624     
5695002970        -0.01330773426    -0.0431914509     -3.360046338      3.570468269       
                  -3.360046338      3.570468269       -0.2211117102     0.2527460875      
5780002880        -0.02600723753    0.02321951413     4.968849655       1.407867551       
                  4.968849655       1.407867551       0.32926925        0.05754915426     
5865002790        -0.07708554685    0.07619758956     -1.488563309      -4.722657371      
                  -1.488563309      -4.722657371      -0.2722652628     -0.1851789554     
5950002700        0.03651486323     0.004976234526    -3.398394818      3.363403278       
                  -3.398394818      3.363403278       -0.08302382961    0.3331905629      
6035002610        -0.01910938505    -0.03984429802    4.753931048       1.303925405       
                  4.753931048       1.303925405       0.2986042105      -0.09778492471    
6120002520        -0.1452663144     0.07387127898     -1.378362081      -4.462323653      
                  -1.378362081      -4.462323653      -0.3581822877     -0.04543260678    
6205002430        0.0716309191      0.08932179012     -3.285163644      3.157484948       
                  -3.285163644      3.157484948       0.1020476154      0.3373377511      
6290002340        0.06081505304     -0.09134655983    4.528363941       1.164295474       
                  4.528363941       1.164295474       0.1938645324      -0.2488914965     
6375002250        -0.2153414631     0.008746073311    -1.278860968      -4.166836896      
                  -1.278860968      -4.166836896      -0.3763901716     0.1299688616      
6460002160        0.02962265054     0.2064701109      -3.038308759      2.957156004       
                  -3.038308759      2.957156004       0.270625067       0.2719785604      
6545002070        0.1767737867      -0.0602884927     4.124137988       1.067411661       
                  4.124137988       1.067411661       0.02814081606     -0.3199845531     
6630001980        -0.2072529296     -0.1108871698     -1.134127955      -3.858963892      
                  -1.134127955      -3.858963892      -0.2985486322     0.3022609911      
6715001890        -0.07197266936    0.2754581069      -2.73464443       2.63916501        
                  -2.73464443       2.63916501        0.3841567158      0.1556588835      
6800001800        0.2662878515      0.05481313706     3.635231171       1.124734063       
                  3.635231171       1.124734063       -0.131619461      -0.3086373392     
6885001710        -0.1031928857     -0.2410618841     -0.8191371626     -3.508722973      
                  -0.8191371626     -3.508722973      -0.1882868052     0.3879586086      
6970001620        -0.2094534131     0.2338356386      -2.643902217      2.229910742       
                  -2.643902217      2.229910742       0.4237484499      0.0228475458      
7055001530        0.2631036205      0.2078112503      3.228955769       1.244251917       
                  3.228955769       1.244251917       -0.2571792234     -0.2716071422     
7140001440        0.0817966734      -0.3002517654     -0.5419943054     -3.233294347      
                  -0.5419943054     -3.233294347      -0.06329731646    0.4536392903      
7225001350        -0.2968227456     0.09640100059     -2.581907485      1.901361553       
                  -2.581907485      1.901361553       0.4525322709      -0.1036077479     
7310001260        0.1702046808      0.3473077108      2.868575968       1.161480349       
                  2.868575968       1.161480349       -0.3588232236     -0.1850079089     
7395001170        0.2857496372      -0.2274394336     -0.2472032037     -2.969694161      
                  -0.2472032037     -2.969694161      0.07711409999     0.48196059        
7480001080        -0.299197721      -0.1108658663     -2.418200961      1.614835093       
                  -2.418200961      1.614835093       0.3944214087      -0.2375457916     
7565000990        -0.03096559732    0.4004116139      2.618960407       1.164456471       
                  2.618960407       1.164456471       -0.4256109943     -0.084849426      
7650000900        0.4010553034      -0.05680817377    -0.05511119335    -2.61232967       
                  -0.05511119335    -2.61232967       0.2127233174      0.4385310234      
7735000810        -0.1613136442     -0.3070846056     -2.299078116      1.349045036       
                  -2.299078116      1.349045036       0.3172221721      -0.3461103255     
7820000720        -0.2061332574     0.3185847719      2.279054094       1.24116198        
                  2.279054094       1.24116198        -0.405857735      0.02499045302     
7905000630        0.4144464991      0.139249639       0.09590030251     -2.301496195      
                  0.09590030251     -2.301496195      0.3245858574      0.362494917       
7990000540        0.06624766956     -0.3905338087     -2.216463992      0.9266120883      
                  -2.216463992      0.9266120883      0.2200178926      -0.4071652421     
8075000450        -0.3505204707     0.1209812376      1.909121624       1.433195745       
                  1.909121624       1.433195745       -0.3880749135     0.1198344904      
8160000360        0.2977949118      0.3127578981      0.2509827153      -2.191421174      
                  0.2509827153      -2.191421174      0.3998535657      0.2798759071      
8245000270        0.257535419       -0.3374201428     -2.040737144      0.6159481011      
                  -2.040737144      0.6159481011      0.1146829998      -0.4441736768     
8330000180        -0.3668372252     -0.1322076758     1.639154401       1.500362507       
                  1.639154401       1.500362507       -0.3433728763     0.1932649115      
8415000090        0.07887238658     0.3930359823      0.3840171834      -1.998300099      
                  0.3840171834      -1.998300099      0.4358773024      0.1668621173      
8500000000        0.3829529528      -0.1855838056     -1.83179768       0.4469756311      
                  -1.83179768       0.4469756311      -0.004793488757   -0.4601095134     
