! RsaToolbox (C) 2013 Rohde & Schwarz America
! 
! Number of points: 101
! Number of ports: 2
! Balanced ports?: 0
! 
! 
# Hz S RI R 50
9000              1.013690125       -0.0209961402     7.471414338e-05   -3.87226569e-05   
                  7.471414338e-05   -3.87226569e-05   1.016073373       -0.02489207869    
85008910          0.002310442398    0.158799369       3.194994851       5.508348983       
                  3.194994851       5.508348983       -0.09205669459    -0.1155213413     
170008820         0.1421559879      -0.04415422797    3.189064737       -5.22549265       
                  3.189064737       -5.22549265       -0.02041548932    0.1715722944      
255008730         -0.1759599348     -0.07569392629    -6.058324398      -0.1644178972     
                  -6.058324398      -0.1644178972     0.07770230643     -0.02657742893    
340008640         -0.06344155351    0.1696238081      2.654681662       5.354105034       
                  2.654681662       5.354105034       -0.1264114354     -0.05371960778    
425008550         0.1592774815      -0.0464062755     3.387739775       -4.871537451      
                  3.387739775       -4.871537451      0.01677040459     0.102845512       
510008460         -0.1016745335     -0.1631687908     -5.906924562      -0.6467872646     
                  -5.906924562      -0.6467872646     0.07089964479     -0.07958169803    
595008370         -0.1074138154     0.1395341948      2.23128589        5.425376395       
                  2.23128589        5.425376395       -0.08374945479    -0.01213007805    
680008280         0.2042790343      0.03389495625     3.661046186       -4.578622022      
                  3.661046186       -4.578622022      0.09208280015     0.07539529944     
765008190         0.009377124153    -0.1635983692     -5.732445076      -1.099138739      
                  -5.732445076      -1.099138739      0.06020653008     -0.06061065926    
850008100         -0.1816585852     0.1113621459      1.873486231       5.522453747       
                  1.873486231       5.522453747       -0.07162949416    0.0651048847      
935008010         0.1454251228      0.1235160971      3.94341181        -4.234168816      
                  3.94341181        -4.234168816      0.1021198029      0.03894915044     
1020007920        0.07553655659     -0.1537189607     -5.589384899      -1.444787454      
                  -5.589384899      -1.444787454      -0.004704299582   -0.07556807181    
1105007830        -0.2250158066     -0.00834071105    1.483618394       5.615306916       
                  1.483618394       5.615306916       -0.06289029826    0.07504746435     
1190007740        0.07129518233     0.1401471542      4.18995214        -3.861345608      
                  4.18995214        -3.861345608      0.1244834289      -0.04269477867    
1275007650        0.1642221649      -0.1086064483     -5.46866698       -1.825745385      
                  -5.46866698       -1.825745385      -0.02993866632    -0.08911720559    
1360007560        -0.1634702903     -0.1004075173     1.04823951        5.640880071       
                  1.04823951        5.640880071       -0.005432115016   0.101890553       
1445007470        0.0005000122159   0.1418049632      4.407291909       -3.545212163      
                  4.407291909       -3.545212163      0.1471068836      -0.08835660219    
1530007380        0.1845235241      -0.01119443714    -5.307136506      -2.181919208      
                  -5.307136506      -2.181919208      -0.06932341398    -0.06452897422    
1615007290        -0.09410682561    -0.1237578707     0.6235171154      5.599387193       
                  0.6235171154      5.599387193       0.02310757068     0.1421610247      
1700007200        -0.08833394663    0.09699236095     4.664364543       -3.245094837      
                  4.664364543       -3.245094837      0.1108068102      -0.1334957673     
1785007110        0.1278915483      0.03169107929     -5.063462652      -2.523391909      
                  -5.063462652      -2.523391909      -0.1317886613     -0.06390265707    
1870007020        -0.02177329888    -0.1356778341     0.228399942       5.605465173       
                  0.228399942       5.605465173       0.06592139578     0.1320304716      
1955006930        -0.1067058633     0.02141840077     4.871229466       -2.890800288      
                  4.871229466       -2.890800288      0.08908477584     -0.193988442      
2040006840        0.08282622041     0.03893104588     -4.827253056      -2.808764756      
                  -4.827253056      -2.808764756      -0.1548182952     -0.04169620653    
2125006750        0.03614631415     -0.092767484      -0.186612644      5.633683232       
                  -0.186612644      5.633683232       0.1310040691      0.1368860013      
2210006660        -0.09214316896    -0.0008107641602  4.967353263       -2.536573599      
                  4.967353263       -2.536573599      0.04791948448     -0.218213799      
2295006570        0.02917194824     0.03633785625     -4.596166646      -3.137557938      
                  -4.596166646      -3.137557938      -0.1861305374     0.01536375196     
2380006480        0.02855370072     -0.05242481122    -0.5504642498     5.570470485       
                  -0.5504642498     5.570470485       0.1669079098      0.1141116033      
2465006390        -0.08753261278    -0.01621688145    5.044570605       -2.218007998      
                  5.044570605       -2.218007998      -0.01967276464    -0.2595643469     
2550006300        0.01174146832     0.0007996010546   -4.287120256      -3.475885771      
                  -4.287120256      -3.475885771      -0.1909107492     0.06075028576     
2635006210        0.02520348003     -0.04497192336    -0.8892602445     5.512553526       
                  -0.8892602445     5.512553526       0.213496934       0.06401230155     
2720006120        -0.08241178026    -0.01051566179    5.120416795       -1.846245034      
                  5.120416795       -1.846245034      -0.09055041734    -0.264500221      
2805006030        0.01786850304     -0.0001965590765  -4.001691175      -3.722484443      
                  -4.001691175      -3.722484443      -0.1630904476     0.1234394392      
2890005940        0.02094475821     -0.03693391321    -1.231406204      5.387262847       
                  -1.231406204      5.387262847       0.2319910482      0.009072681369    
2975005850        -0.09483143026    -0.007624633243   5.151921893       -1.388158008      
                  5.151921893       -1.388158008      -0.1622000363     -0.2476409896     
3060005760        0.01890863018     0.009701722576    -3.703225234      -4.066645782      
                  -3.703225234      -4.066645782      -0.1190044763     0.1687975513      
3145005670        0.03574049782     -0.04499856871    -1.625521244      5.233956418       
                  -1.625521244      5.233956418       0.2317321149      -0.07172306352    
3230005580        -0.1018377973     -0.03255968177    5.260158876       -0.9865278178     
                  5.260158876       -0.9865278178     -0.2270562411     -0.2078408344     
3315005490        0.0120319529      0.03164037185     -3.429718046      -4.290525555      
                  -3.429718046      -4.290525555      -0.04609567527    0.2026836956      
3400005400        0.06102959012     -0.02978375676    -1.979135433      5.067772912       
                  -1.979135433      5.067772912       0.2015326911      -0.1448792855     
3485005310        -0.09851273878    -0.06332102386    5.360135061       -0.6226676624     
                  5.360135061       -0.6226676624     -0.2818358836     -0.1296735638     
3570005220        -0.01928092698    0.0497587725      -3.251032434      -4.478245485      
                  -3.251032434      -4.478245485      0.03345289009     0.2109134736      
3655005130        0.06922103058     0.002887399486    -2.173898555      4.933898729       
                  -2.173898555      4.933898729       0.1347486476      -0.2087791903     
3740005040        -0.07816341865    -0.09347005656    5.348703494       -0.2671790976     
                  5.348703494       -0.2671790976     -0.3120464839     -0.03955880228    
3825004950        -0.05841732805    0.037819849       -2.980908307      -4.610684404      
                  -2.980908307      -4.610684404      0.1133268599      0.1767730915      
3910004860        0.06468671321     0.03672023272     -2.592120003      4.711725727       
                  -2.592120003      4.711725727       0.05043795124     -0.2589806015     
3995004770        -0.03183177577    -0.1118593234     5.379303411       0.05298960018     
                  5.379303411       0.05298960018     -0.3053914379     0.06542617201     
4080004680        -0.08492879288    0.009111381518    -2.702701033      -4.781523618      
                  -2.702701033      -4.781523618      0.1906619936      0.1283957686      
4165004590        0.04056424975     0.07015438131     -2.858267181      4.570131458       
                  -2.858267181      4.570131458       -0.04650563346    -0.271512884      
4250004500        0.0108304651      -0.08927486135    5.465238844       0.3016854735      
                  5.465238844       0.3016854735      -0.2658149056     0.1756356385      
4335004410        -0.1021961194     -0.01880083586    -2.445400588      -4.889432462      
                  -2.445400588      -4.889432462      0.2298898661      0.04469029723     
4420004320        -0.006137661568   0.08402367097     -3.057719107      4.456081496       
                  -3.057719107      4.456081496       -0.1638857854     -0.2508276587     
4505004230        0.03786723071     -0.05843884117    5.412558509       0.4791217665      
                  5.412558509       0.4791217665      -0.1966506005     0.2588957431      
4590004140        -0.1013312487     -0.05129029711    -2.180845312      -4.923590925      
                  -2.180845312      -4.923590925      0.2294118147      -0.05757315992    
4675004050        -0.04405999981    0.07145691574     -3.151444674      4.337832033       
                  -3.151444674      4.337832033       -0.2553007196     -0.1912551794     
4760003960        0.05758468176     -0.01758913341    5.261771078       0.7124945329      
                  5.261771078       0.7124945329      -0.08638565948    0.3111942082      
4845003870        -0.07817883193    -0.06859668607    -1.932914489      -4.970782244      
                  -1.932914489      -4.970782244      0.2001744442      -0.154883058      
4930003780        -0.07589395117    0.04237429384     -3.332502934      4.152916424       
                  -3.332502934      4.152916424       -0.3194778478     -0.09968685685    
5015003690        0.05111727044     0.03637771781     5.132893561       0.9533245171      
                  5.132893561       0.9533245171      0.03587675022     0.3345667392      
5100003600        -0.05353088654    -0.05751675836    -1.755983984      -5.041338255      
                  -1.755983984      -5.041338255      0.1195654375      -0.2293956719     
5185003510        -0.09124819882    0.0061575911      -3.38514827       3.929119477       
                  -3.38514827       3.929119477       -0.349601361      0.01160157129     
5270003420        0.01630928233     0.07114318199     4.995717858       1.183584018       
                  4.995717858       1.183584018       0.1497341381      0.2997575786      
5355003330        -0.04325354797    -0.02443530864    -1.644877224      -5.094748435      
                  -1.644877224      -5.094748435      -0.002304024125   -0.279038753      
5440003240        -0.07290711507    -0.03751366795    -3.331442745      3.762095407       
                  -3.331442745      3.762095407       -0.3194883842     0.1322159106      
5525003150        -0.01644149364    0.06141773105     4.97708668        1.297779552       
                  4.97708668        1.297779552       0.2689739408      0.2014823568      
5610003060        -0.03868181678    0.02550797424     -1.592086821      -4.934966255      
                  -1.592086821      -4.934966255      -0.1366540454     -0.2678169935     
5695002970        -0.01596815737    -0.04203249969    -3.330565268      3.544098709       
                  -3.330565268      3.544098709       -0.221252169      0.2528390388      
5780002880        -0.02440908887    0.02511336467     4.925188586       1.390783301       
                  4.925188586       1.390783301       0.3293796144      0.05801221058     
5865002790        -0.07553357399    0.07349139328     -1.486771756      -4.676592312      
                  -1.486771756      -4.676592312      -0.2722532091     -0.1851695722     
5950002700        0.03378614847     0.005017971873    -3.36492461       3.336681134       
                  -3.36492461       3.336681134       -0.08288011294    0.3329558562      
6035002610        -0.01766363125    -0.03594295387    4.708793058       1.287649498       
                  4.708793058       1.287649498       0.2984582104      -0.09750911389    
6120002520        -0.1426236753     0.07199207913     -1.367080323      -4.422397868      
                  -1.367080323      -4.422397868      -0.3585742031     -0.04548236716    
6205002430        0.06890747939     0.08691841281     -3.255283369      3.131152595       
                  -3.255283369      3.131152595       0.1018819887      0.3376003559      
6290002340        0.06002410279     -0.08814902125    4.486000525       1.154867891       
                  4.486000525       1.154867891       0.1949834982      -0.2479567574     
6375002250        -0.212552716      0.007806606643    -1.267066185      -4.133536997      
                  -1.267066185      -4.133536997      -0.376207216      0.1299359001      
6460002160        0.02826723131     0.2042161125      -3.015210972      2.932783533       
                  -3.015210972      2.932783533       0.27089196        0.2723483919      
6545002070        0.1748830294      -0.05768962987    4.087017001       1.060694032       
                  4.087017001       1.060694032       0.02855391732     -0.3202096565     
6630001980        -0.2047080217     -0.1102834063     -1.122485308      -3.831801111      
                  -1.122485308      -3.831801111      -0.2985328198     0.3022470587      
6715001890        -0.07218253049    0.2726229619      -2.718245239      2.618214028       
                  -2.718245239      2.618214028       0.3839073014      0.1561356324      
6800001800        0.2638234179      0.05643106147     3.608350844       1.121475978       
                  3.608350844       1.121475978       -0.1315042803     -0.3088680984     
6885001710        -0.1012581674     -0.2392640641     -0.8148179272     -3.486349818      
                  -0.8148179272     -3.486349818      -0.1880863078     0.3878780391      
6970001620        -0.2090650666     0.2315655967      -2.631607532      2.213396974       
                  -2.631607532      2.213396974       0.4232999637      0.02330986619     
7055001530        0.261223994       0.2077202482      3.20888163        1.240285242       
                  3.20888163        1.240285242       -0.257025602      -0.27128993       
7140001440        0.08228767368     -0.2980417309     -0.533957781      -3.220121264      
                  -0.533957781      -3.220121264      -0.06336713851    0.4540011641      
7225001350        -0.2956076894     0.09510952975     -2.573345703      1.889043911       
                  -2.573345703      1.889043911       0.4527048817      -0.1035616714     
7310001260        0.1687787447      0.3469727547      2.856040641       1.162123506       
                  2.856040641       1.162123506       -0.3587193749     -0.1849977125     
7395001170        0.2850314388      -0.2260260989     -0.2418536599     -2.958378877      
                  -0.2418536599     -2.958378877      0.07711194625     0.4819794336      
7480001080        -0.2977202531     -0.1116069951     -2.410624084      1.603889804       
                  -2.410624084      1.603889804       0.3947761813      -0.2371210274     
7565000990        -0.03192773574    0.3990357329      2.607517615       1.164703615       
                  2.607517615       1.164703615       -0.4248145082     -0.08447783224    
7650000900        0.4003901827      -0.05549235433    -0.0510480687     -2.604921742      
                  -0.0510480687     -2.604921742      0.2130058914      0.4388395447      
7735000810        -0.1602174578     -0.3064573586     -2.294560386      1.341041707       
                  -2.294560386      1.341041707       0.31729055        -0.3462741756     
7820000720        -0.2076635562     0.3164205203      2.270929389       1.242431741       
                  2.270929389       1.242431741       -0.4061684253     0.02485774391     
7905000630        0.4137728765      0.139192603       0.09997846971     -2.297203433      
                  0.09997846971     -2.297203433      0.3244403355      0.362528101       
7990000540        0.06692317874     -0.3903713651     -2.213273089      0.9201411098      
                  -2.213273089      0.9201411098      0.2214499575      -0.4071268976     
8075000450        -0.3503989166     0.1193186479      1.901714233       1.434210097       
                  1.901714233       1.434210097       -0.3877358618     0.1189409519      
8160000360        0.2965139499      0.3133817743      0.2546724357      -2.187318364      
                  0.2546724357      -2.187318364      0.3995483655      0.2801066385      
8245000270        0.2579538944      -0.3364468129     -2.038346507      0.612043281       
                  -2.038346507      0.612043281       0.1150254556      -0.4439308698     
8330000180        -0.3662105323     -0.1324356347     1.633249427       1.500218617       
                  1.633249427       1.500218617       -0.3431635542     0.1935902267      
8415000090        0.07805307332     0.3927747804      0.3869472021      -1.995361973      
                  0.3869472021      -1.995361973      0.4361085617      0.1676951455      
8500000000        0.3829818962      -0.1854906652     -1.831168536      0.4436864375      
                  -1.831168536      0.4436864375      -0.004474383784   -0.4605289098     
