! RsaToolbox (C) 2013 Rohde & Schwarz America
! 
! Number of points: 101
! Number of ports: 2
! Balanced ports?: 0
! 
! 
# Hz S RI R 50
9000              0.9921703672      -0.01139298894    7.475561186e-05   -8.925686535e-06  
                  7.475561186e-05   -8.925686535e-06  1.004414625       -0.0196699751     
85008910          -0.01749774027    0.1150407233      2.924013692       4.916025321       
                  2.924013692       4.916025321       -0.09233946373    -0.1165345408     
170008820         0.1122225875      -0.01443805501    2.947672328       -4.891476532      
                  2.947672328       -4.891476532      -0.02100011738    0.1718352528      
255008730         -0.1498775868     -0.06857574218    -5.729018887      -0.07299129897    
                  -5.729018887      -0.07299129897    0.07781704275     -0.02666018437    
340008640         -0.06572308123    0.1384143576      2.578411142       5.010730992       
                  2.578411142       5.010730992       -0.1269952477     -0.05428266715    
425008550         0.1318218086      -0.03524257317    3.137719715       -4.667788067      
                  3.137719715       -4.667788067      0.0162973611      0.1029812173      
510008460         -0.08189024687    -0.1449990041     -5.60750761       -0.4842941258     
                  -5.60750761       -0.4842941258     0.07095334143     -0.07989842856    
595008370         -0.0929636332     0.1099373811      2.19009759        5.121457245       
                  2.19009759        5.121457245       -0.08415133753    -0.01238916447    
680008280         0.1796391257      0.03557941437     3.362779555       -4.446988529      
                  3.362779555       -4.446988529      0.09210770217     0.07570179757     
765008190         0.01794063728     -0.1311837759     -5.459351657      -0.9654583436     
                  -5.459351657      -0.9654583436     0.06044799715     -0.06078775468    
850008100         -0.1657922389     0.09357937091     1.949125193       5.192059284       
                  1.949125193       5.192059284       -0.07207487238    0.06493980305     
935008010         0.1216213713      0.1096419743      3.676247141       -4.125043334      
                  3.676247141       -4.125043334      0.102191899       0.03896822955     
1020007920        0.06869279856     -0.1245370042     -5.356346527      -1.288605618      
                  -5.356346527      -1.288605618      -0.004940105177   -0.07608667105    
1105007830        -0.205183735      -0.01793072187    1.644964649       5.223505169       
                  1.644964649       5.223505169       -0.06358642619    0.07525487813     
1190007740        0.05717971477     0.1118696668      3.948708521       -3.738669815      
                  3.948708521       -3.738669815      0.1243937701      -0.04230174245    
1275007650        0.1481480114      -0.08740064281    -5.267712509      -1.573749431      
                  -5.267712509      -1.573749431      -0.03026262905    -0.08932161372    
1360007560        -0.1383731308     -0.09195594668    1.191184516       5.335363546       
                  1.191184516       5.335363546       -0.00593024877    0.1021908567      
1445007470        0.002027193351    0.1074799544      4.13433008        -3.451235265      
                  4.13433008        -3.451235265      0.1474101258      -0.08813266203    
1530007380        0.1531542278      -0.0005327302253  -5.094885161      -1.824146022      
                  -5.094885161      -1.824146022      -0.06962072482    -0.06491514371    
1615007290        -0.06755768669    -0.08569078678    0.7876315705      5.219227625       
                  0.7876315705      5.219227625       0.02274998814     0.1425809379      
1700007200        -0.06365837584    0.06221761513     4.267793089       -3.224916183      
                  4.267793089       -3.224916183      0.1110716094      -0.1335566461     
1785007110        0.08194201216     0.01789827212     -4.845293225      -2.161528476      
                  -4.845293225      -2.161528476      -0.1324839591     -0.06442281211    
1870007020        -0.02050046207    -0.08267390967    0.4661976763      5.229426892       
                  0.4661976763      5.229426892       0.06538051828     0.1326230312      
1955006930        -0.05814917457    0.002787758808    4.420867303       -2.93925684       
                  4.420867303       -2.93925684       0.08949366715     -0.1941973831     
2040006840        0.0428774464      -0.004477126664   -4.631125395      -2.38803709       
                  -4.631125395      -2.38803709       -0.1554464224     -0.04195631251    
2125006750        0.006266391492    -0.0413085273     0.1369785531      5.2578857         
                  0.1369785531      5.2578857         0.1308372037      0.1373575945      
2210006660        -0.02795231844    0.008712141324    4.448804999       -2.652389918      
                  4.448804999       -2.652389918      0.04820887754     -0.2186465906     
2295006570        0.01365356623     -0.03061070866    -4.417875491      -2.619193343      
                  -4.417875491      -2.619193343      -0.186842089      0.01497050281     
2380006480        -0.03305563528    -0.01460856567    -0.1330727711     5.149593581       
                  -0.1330727711     5.149593581       0.1668829191      0.1142196352      
2465006390        -0.02427007253    0.03045220674     4.433730747       -2.411410791      
                  4.433730747       -2.411410791      -0.01947350809    -0.2604338274     
2550006300        0.02765599605     -0.07377887619    -4.121948306      -2.891728547      
                  -4.121948306      -2.891728547      -0.1915918104     0.06034883189     
2635006210        -0.06457109018    -0.03980033956    -0.2991750412     5.018241492       
                  -0.2991750412     5.018241492       0.2138257633      0.06419342615     
2720006120        -0.04088866789    0.06864326595     4.450405857       -2.102126329      
                  4.450405857       -2.102126329      -0.09053903215    -0.2655433348     
2805006030        0.07494847261     -0.06759419675    -3.888187435      -2.994764021      
                  -3.888187435      -2.994764021      -0.1635750166     0.1229905766      
2890005940        -0.07528809144    -0.08092638852    -0.4919772963     4.831783598       
                  -0.4919772963     4.831783598       0.2327082431      0.008894610147    
2975005850        -0.09175282987    0.09256888087     4.41839264        -1.692639021      
                  4.41839264        -1.692639021      -0.1622084272     -0.248790766      
3060005760        0.113629115       -0.02498140466    -3.653479872      -3.191409677      
                  -3.653479872      -3.191409677      -0.1193072896     0.168414521       
3145005670        -0.03500708114    -0.1286351913     -0.83998147       4.703474474       
                  -0.83998147       4.703474474       0.2326724131      -0.07179831753    
3230005580        -0.1455188089     0.06246717792     4.491077113       -1.358756413      
                  4.491077113       -1.358756413      -0.2267956137     -0.2089451687     
3315005490        0.1304123385      0.04803082685     -3.437978699      -3.218311822      
                  -3.437978699      -3.218311822      -0.0460229829     0.2028072246      
3400005400        0.02914169129     -0.1529550893     -1.035700315      4.4888591         
                  -1.035700315      4.4888591         0.2026919176      -0.1451531129     
3485005310        -0.1959735412     0.0126011491      4.43232668        -1.130603252      
                  4.43232668        -1.130603252      -0.2819375314     -0.1305483136     
3570005220        0.09698583806     0.1280573806      -3.269588589      -3.200583875      
                  -3.269588589      -3.200583875      0.03366870491     0.2114002143      
3655005130        0.09537911126     -0.1386881914     -1.101841848      4.28069107        
                  -1.101841848      4.28069107        0.1359579915      -0.2086727918     
3740005040        -0.2130177283     -0.06641345313    4.294043771       -0.9142424446     
                  4.294043771       -0.9142424446     -0.3117944477     -0.04014663138    
3825004950        0.02154071709     0.1778615643      -2.997849849      -3.128665955      
                  -2.997849849      -3.128665955      0.1140855103      0.1773920577      
3910004860        0.1635676537      -0.09273323368    -1.324787545      4.029479977       
                  -1.324787545      4.029479977       0.05206300839     -0.2588219115     
3995004770        -0.1857722173     -0.1532749893     4.119540901       -0.7346867629     
                  4.119540901       -0.7346867629     -0.3055678063     0.0654541656      
4080004680        -0.07240637558    0.1844378205      -2.709312359      -3.1662725        
                  -2.709312359      -3.1662725        0.1921112779      0.1289110265      
4165004590        0.1912878276      -0.01037600032    -1.529353834      3.860875969       
                  -1.529353834      3.860875969       -0.04577582609    -0.2731042224     
4250004500        -0.1196969137     -0.2002337212     4.074358522       -0.5254376559     
                  4.074358522       -0.5254376559     -0.265648175      0.176038634       
4335004410        -0.1659076521     0.1510103331      -2.458848807      -3.206766431      
                  -2.458848807      -3.206766431      0.2311958563      0.04501993886     
4420004320        0.1719832496      0.07473785046     -1.636314669      3.691057758       
                  -1.636314669      3.691057758       -0.1635427343     -0.2515842675     
4505004230        -0.03774220733    -0.2206331629     3.934965713       -0.3863646409     
                  3.934965713       -0.3863646409     -0.1971758068     0.2594658598      
4590004140        -0.2312456647     0.07951834552     -2.204731897      -3.180261983      
                  -2.204731897      -3.180261983      0.2303303189      -0.05733512422    
4675004050        0.1236284551      0.1416283984      -1.676506759      3.492913363       
                  -1.676506759      3.492913363       -0.2556978563     -0.1919473494     
4760003960        0.05891509587     -0.2008956367     3.776685849       -0.1901765333     
                  3.776685849       -0.1901765333     -0.08725457141    0.3117089506      
4845003870        -0.2493358712     -0.004508792209   -1.955664202      -3.165777106      
                  -1.955664202      -3.165777106      0.2008639874      -0.1547130992     
4930003780        0.0437640063      0.1826195019      -1.801297421      3.256984725       
                  -1.801297421      3.256984725       -0.3203301838     -0.1003296262     
5015003690        0.131205399       -0.1348812946     3.632866963       0.02693135054     
                  3.632866963       0.02693135054     0.03504587215     0.3355394309      
5100003600        -0.2351644306     -0.07685844858    -1.769549616      -3.125803499      
                  -1.769549616      -3.125803499      0.1199479895      -0.2295718792     
5185003510        -0.04339921372    0.1855314898      -1.864351321      3.00542642        
                  -1.864351321      3.00542642        -0.3506810061     0.01084235908     
5270003420        0.1597049568      -0.04980381809    3.50152901        0.260556915       
                  3.50152901        0.260556915       0.1491083907      0.3008267209      
5355003330        -0.1969589498     -0.1256658305     -1.625899694      -3.074951348      
                  -1.625899694      -3.074951348      -0.001926639929   -0.2798529114     
5440003240        -0.1037613163     0.1438256982      -1.891961959      2.844665472       
                  -1.891961959      2.844665472       -0.3206610058     0.1316508644      
5525003150        0.1583303911      0.01720040354     3.424097289       0.3746766415      
                  3.424097289       0.3746766415      0.2690380765      0.202392458       
5610003060        -0.1302751304     -0.1312918575     -1.514229395      -3.001688367      
                  -1.514229395      -3.001688367      -0.1362686404     -0.2687476284     
5695002970        -0.1187023016     0.1064077957      -1.922604437      2.642508104       
                  -1.922604437      2.642508104       -0.2222678398     0.2528062445      
5780002880        0.144993817       0.06615075559     3.31393827        0.473697972       
                  3.31393827        0.473697972       0.3301175324      0.05907677011     
5865002790        -0.08954835408    -0.1047966927     -1.347949681      -2.906872363      
                  -1.347949681      -2.906872363      -0.2718030358     -0.1863867863     
5950002700        -0.1162628626     0.09189676437     -1.961572354      2.460204318       
                  -1.961572354      2.460204318       -0.08346512548    0.3337254829      
6035002610        0.1106317187      0.07490871947     3.124235459       0.4904920787      
                  3.124235459       0.4904920787      0.299945454       -0.0964674752     
6120002520        -0.07733747049    -0.09085825292    -1.186495225      -2.798178568      
                  -1.186495225      -2.798178568      -0.3581749091     -0.04640930773    
6205002430        -0.0976809459     0.09643711819     -1.936608027      2.312695779       
                  -1.936608027      2.312695779       0.1024126261      0.3387661311      
6290002340        0.1218373214      0.06557463857     2.971458113       0.4934034834      
                  2.971458113       0.4934034834      0.1970133456      -0.2478380944     
6375002250        -0.09154988656    -0.1087332647     -1.063711594      -2.700732039      
                  -1.063711594      -2.700732039      -0.3763381764     0.1288400608      
6460002160        -0.1158993862     0.14487284        -1.866339578      2.17823411        
                  -1.866339578      2.17823411        0.2713956458      0.2732651349      
6545002070        0.163990986       0.0984566268      2.762454732       0.5078910425      
                  2.762454732       0.5078910425      0.02995497234     -0.3207324867     
6630001980        -0.05539922879    -0.1615101494     -0.9287662325     -2.565161969      
                  -0.9287662325     -2.565161969      -0.2992451689     0.3025442534      
6715001890        -0.170487327      0.1664796705      -1.757601513      1.957096311       
                  -1.757601513      1.957096311       0.384375084       0.1572812091      
6800001800        0.1947400509      0.1802613789      2.516689974       0.6009610033      
                  2.516689974       0.6009610033      -0.1310340611     -0.3092573927     
6885001710        0.04173537527     -0.2214860127     -0.6935151261     -2.403753332      
                  -0.6935151261     -2.403753332      -0.1889042627     0.3887553338      
6970001620        -0.2500168799     0.1055028703      -1.790980172      1.693116498       
                  -1.790980172      1.693116498       0.4239302362      0.0245849086      
7055001530        0.1622084136      0.2810022144      2.344418849       0.7406974662      
                  2.344418849       0.7406974662      -0.2573543324     -0.2717800606     
7140001440        0.1791881324      -0.2343753069     -0.5061431192     -2.364637913      
                  -0.5061431192     -2.364637913      -0.06416718656    0.4550637675      
7225001350        -0.2839003318     -0.01937519561    -1.846491912      1.50073317        
                  -1.846491912      1.50073317        0.4532115321      -0.1026079584     
7310001260        0.07341112188     0.3659828045      2.203516704       0.7684287617      
                  2.203516704       0.7684287617      -0.3594307833     -0.1854701261     
7395001170        0.3341727629      -0.1399796647     -0.2790888946     -2.242249179      
                  -0.2790888946     -2.242249179      0.07643676983     0.4830260954      
7480001080        -0.2399063101     -0.2012910638     -1.771520586      1.275318523       
                  -1.771520586      1.275318523       0.3953298217      -0.2368649433     
7565000990        -0.1236488214     0.3769135698      2.011671419       0.811430208       
                  2.011671419       0.811430208       -0.4260334795     -0.08506350985    
7650000900        0.4079263038      0.02274520415     -0.1127960309     -2.075525881      
                  -0.1127960309     -2.075525881      0.212110606       0.4399092149      
7735000810        -0.09563502976    -0.3443192391     -1.827619731      1.122932144       
                  -1.827619731      1.122932144       0.3179498381      -0.3465960112     
7820000720        -0.2664571089     0.2733579238      1.853194367       0.9604741149      
                  1.853194367       0.9604741149      -0.4074758869     0.02433841557     
7905000630        0.3949498353      0.1949962561      0.03930014719     -1.918898026      
                  0.03930014719     -1.918898026      0.3240704822      0.3635522159      
7990000540        0.1289633485      -0.3952030133     -1.811154427      0.7811344305      
                  -1.811154427      0.7811344305      0.2221362144      -0.4082323066     
8075000450        -0.3798021209     0.06277121615     1.585670516       1.172828306       
                  1.585670516       1.172828306       -0.3893400058     0.1184479441      
8160000360        0.2597250388      0.3543983894      0.1860573927      -1.843928711      
                  0.1860573927      -1.843928711      0.3998292124      0.2805778678      
8245000270        0.3011151716      -0.3191139682     -1.743750515      0.554934688       
                  -1.743750515      0.554934688       0.1147048088      -0.4452303494     
8330000180        -0.3646061538     -0.1829949255     1.412762051       1.264728496       
                  1.412762051       1.264728496       -0.3439387813     0.1930925905      
8415000090        0.03606080028     0.4091121284      0.3122486708      -1.731961308      
                  0.3122486708      -1.731961308      0.4367983295      0.1675620189      
8500000000        0.4072768168      -0.1597027761     -1.621959534      0.4183387726      
                  -1.621959534      0.4183387726      -0.00380589163    -0.4619685701     
