! RsaToolbox (C) 2013 Rohde & Schwarz America
! 
! Number of points: 101
! Number of ports: 2
! Balanced ports?: 0
! 
! 
# Hz S RI R 50
9000              1.004353633       -0.01694918806    4.985398009e-05   -2.988154467e-05  
                  4.985398009e-05   -2.988154467e-05  1.013721004       -0.02256832414    
85008910          0.001022142727    0.1559104007      3.186838202       5.465254794       
                  3.186838202       5.465254794       -0.09229580165    -0.1158135456     
170008820         0.1400943147      -0.04198007539    3.166457087       -5.204353608      
                  3.166457087       -5.204353608      -0.02054846455    0.17169409        
255008730         -0.1737983142     -0.07496729143    -6.036266525      -0.1562756915     
                  -6.036266525      -0.1562756915     0.07770621341     -0.02647214659    
340008640         -0.06361657919    0.1670845917      2.650556036       5.329854727       
                  2.650556036       5.329854727       -0.1267083675     -0.05398131757    
425008550         0.1569741257      -0.04568319706    3.36619025        -4.858267491      
                  3.36619025        -4.858267491      0.01659552483     0.1029208425      
510008460         -0.1002215522     -0.1614900619     -5.88739023       -0.6282476936     
                  -5.88739023       -0.6282476936     0.07080241873     -0.07972649235    
595008370         -0.1061293592     0.1373661974      2.233601188       5.400551278       
                  2.233601188       5.400551278       -0.08380102234    -0.01218345089    
680008280         0.2019392187      0.03361647877     3.636639767       -4.572041178      
                  3.636639767       -4.572041178      0.09215144658     0.07541475475     
765008190         0.01010409346     -0.1611686318     -5.714750968      -1.082048263      
                  -5.714750968      -1.082048263      0.06021383951     -0.06062061497    
850008100         -0.1799393321     0.1100643848      1.884973384       5.498181749       
                  1.884973384       5.498181749       -0.07174917957    0.06500250147     
935008010         0.1434626016      0.1221418043      3.919153194       -4.230665973      
                  3.919153194       -4.230665973      0.1020950739      0.03896281626     
1020007920        0.07501114249     -0.1515092752     -5.571721397      -1.431392731      
                  -5.571721397      -1.431392731      -0.004877668909   -0.07575705582    
1105007830        -0.2228688396     -0.008619794625   1.500723512       5.589500922       
                  1.500723512       5.589500922       -0.06313039393    0.07522417517     
1190007740        0.07001306057     0.1377863687      4.16650553        -3.857434187      
                  4.16650553        -3.857434187      0.1242970934      -0.04241730605    
1275007650        0.1625192575      -0.1066828311     -5.455923328      -1.799657685      
                  -5.455923328      -1.799657685      -0.0300250143     -0.08917241778    
1360007560        -0.1609818216     -0.09952736896    1.065458072       5.616164408       
                  1.065458072       5.616164408       -0.00558110948    0.1018194275      
1445007470        0.0005788064281   0.1388740308      4.378703367       -3.544827114      
                  4.378703367       -3.544827114      0.1470934148      -0.08829705161    
1530007380        0.1815729724      -0.01044028017    -5.296368994      -2.150106567      
                  -5.296368994      -2.150106567      -0.06936347832    -0.06461772717    
1615007290        -0.09200495742    -0.1208119281     0.6485064895      5.570353622       
                  0.6485064895      5.570353622       0.02307386593     0.1422646186      
1700007200        -0.08654406584    0.09411963256     4.628225917       -3.25373709       
                  4.628225917       -3.25373709       0.1108519146      -0.1335833962     
1785007110        0.1242136047      0.03087865611     -5.053063272      -2.485590256      
                  -5.053063272      -2.485590256      -0.131984494      -0.0642103148     
1870007020        -0.02138250972    -0.1316654867     0.2585289311      5.575626586       
                  0.2585289311      5.575626586       0.06572514805     0.1322736108      
1955006930        -0.1031710647     0.01952482922     4.831053361       -2.905338655      
                  4.831053361       -2.905338655      0.0893285675      -0.193908031      
2040006840        0.07911420126     0.0358022503      -4.817342077      -2.763196966      
                  -4.817342077      -2.763196966      -0.1548918775     -0.04153365483    
2125006750        0.03444830184     -0.08852530251    -0.1498209352     5.603284181       
                  -0.1498209352     5.603284181       0.1309806637      0.1369959795      
2210006660        -0.08710272062    -0.000822259629   4.918475433       -2.5547398        
                  4.918475433       -2.5547398        0.04802146035     -0.2182061813     
2295006570        0.0274772549      0.03127847203     -4.58504651       -3.084637823      
                  -4.58504651       -3.084637823      -0.1863755281     0.01528763244     
2380006480        0.02449865727     -0.04886927309    -0.5078663509     5.534786837       
                  -0.5078663509     5.534786837       0.1668994106      0.1139495961      
2465006390        -0.08239842571    -0.01363761891    4.98886057        -2.240754359      
                  4.98886057        -2.240754359      -0.01963471162    -0.2597652829     
2550006300        0.01211466585     -0.005242921618   -4.273261139      -3.418360448      
                  -4.273261139      -3.418360448      -0.1912395087     0.06050339449     
2635006210        0.01919310861     -0.04349015431    -0.8332905431     5.471353814       
                  -0.8332905431     5.471353814       0.2136024613      0.06427114506     
2720006120        -0.07852425089    -0.005175608191   5.059581955       -1.871826456      
                  5.059581955       -1.871826456      -0.0905011112     -0.2648040668     
2805006030        0.02122455378     -0.005897799818   -3.991740806      -3.655931447      
                  -3.991740806      -3.655931447      -0.163228569      0.1231221742      
2890005940        0.01379391991     -0.03881616699    -1.15908323       5.341917859       
                  -1.15908323       5.341917859       0.2322617409      0.009044003732    
2975005850        -0.09372062712    -0.0003692919556  5.086262626       -1.417291012      
                  5.086262626       -1.417291012      -0.1622567992     -0.2480122078     
3060005760        0.02485818559     0.006124063069    -3.69957561       -3.989294917      
                  -3.69957561       -3.989294917      -0.1190010692     0.1685941         
3145005670        0.02985510658     -0.05002123403    -1.55034216       5.190085919       
                  -1.55034216       5.190085919       0.2319637717      -0.07156143994    
3230005580        -0.1039322458     -0.02541824776    5.191247367       -1.02068069       
                  5.191247367       -1.02068069       -0.2269964548     -0.2082367288     
3315005490        0.01977470239     0.0316317734      -3.437603941      -4.200941889      
                  -3.437603941      -4.200941889      -0.04602959622    0.2027389156      
3400005400        0.05782689262     -0.03805339819    -1.884604735      5.023005974       
                  -1.884604735      5.023005974       0.2017313515      -0.1450406319     
3485005310        -0.1045806033     -0.05731254123    5.281291392       -0.6734576632     
                  5.281291392       -0.6734576632     -0.2824030882     -0.1296930468     
3570005220        -0.01122557697    0.05400413805     -3.267340703      -4.367775401      
                  -3.267340703      -4.367775401      0.03350726107     0.2108769648      
3655005130        0.07021465135     -0.00715135053    -2.062550081      4.886625501       
                  -2.062550081      4.886625501       0.1348819966      -0.2086575214     
3740005040        -0.08730691159    -0.09070445778    5.261084902       -0.3373214158     
                  5.261084902       -0.3373214158     -0.3119461814     -0.0397650355     
3825004950        -0.05222730962    0.04779410024     -3.012929085      -4.466660029      
                  -3.012929085      -4.466660029      0.1135683257      0.1763718115      
3910004860        0.07225287505     0.026640543       -2.450102562      4.669525123       
                  -2.450102562      4.669525123       0.05080107558     -0.2589948736     
3995004770        -0.04417723494    -0.1148825821     5.268376875       -0.05255364904    
                  5.268376875       -0.05255364904    -0.3053642543     0.06530931013     
4080004680        -0.0837021467     0.02373745404     -2.743616154      -4.615817078      
                  -2.743616154      -4.615817078      0.1911452871      0.1285122519      
4165004590        0.05392483638     0.06328071499     -2.70947526       4.519871215       
                  -2.70947526       4.519871215       -0.0461312911     -0.2720115963     
4250004500        -0.0007894683316  -0.0995140263     5.334414497       0.1793593419      
                  5.334414497       0.1793593419      -0.2658136478     0.1756385069      
4335004410        -0.1086450189     -0.002503281146   -2.496718422      -4.697838311      
                  -2.496718422      -4.697838311      0.2301846162      0.04482878214     
4420004320        0.01151048834     0.08350396095     -2.868126845      4.406890156       
                  -2.868126845      4.406890156       -0.1637028394     -0.2510591014     
4505004230        0.03037303072     -0.07570724082    5.256842531       0.3216947857      
                  5.256842531       0.3216947857      -0.1969513075     0.2590932346      
4590004140        -0.116336198      -0.03728501526    -2.245802283      -4.701078161      
                  -2.245802283      -4.701078161      0.2297578386      -0.05747219555    
4675004050        -0.02512849827    0.08024059301     -2.921013668      4.279175213       
                  -2.921013668      4.279175213       -0.2554218676     -0.1915345293     
4760003960        0.05868022233     -0.03932886679    5.092341064       0.5332495819      
                  5.092341064       0.5332495819      -0.08670447497    0.3113497586      
4845003870        -0.100232208      -0.06113731049    -2.01042769       -4.711906172      
                  -2.01042769       -4.711906172      0.2004981836      -0.1548389845     
4930003780        -0.06062569615    0.06172016034     -3.055147965      4.083033594       
                  -3.055147965      4.083033594       -0.319827052      -0.09988551786    
5015003690        0.06268105808     0.01387637202     4.946874044       0.7564988232      
                  4.946874044       0.7564988232      0.03546432923     0.3348384286      
5100003600        -0.08081365399    -0.06078614304    -1.856139231      -4.717759901      
                  -1.856139231      -4.717759901      0.1197890453      -0.2293837088     
5185003510        -0.08493953432    0.03280385123     -3.081056999      3.845660745       
                  -3.081056999      3.845660745       -0.3498881196     0.01091946223     
5270003420        0.03805781272     0.05365646164     4.793367081       0.9611696395      
                  4.793367081       0.9611696395      0.1496661986      0.3000742208      
5355003330        -0.06938939358    -0.04189736313    -1.756485359      -4.705907585      
                  -1.756485359      -4.705907585      -0.002103553303   -0.2792874953     
5440003240        -0.07839387671    -0.009362148169   -3.028808762      3.66647004        
                  -3.028808762      3.66647004        -0.3197147604     0.1323868168      
5525003150        0.01177059109     0.05394896929     4.74390492        1.05321463        
                  4.74390492        1.05321463        0.2690055478      0.2016157789      
5610003060        -0.05453719048    -0.001906852827   -1.682712164      -4.543416147      
                  -1.682712164      -4.543416147      -0.1365793257     -0.2679742193     
5695002970        -0.03334676369    -0.01756415923    -3.016796081      3.441860652       
                  -3.016796081      3.441860652       -0.2215487867     0.2529577832      
5780002880        0.006430765024    0.0314711801      4.65041719        1.117579414       
                  4.65041719        1.117579414       0.3296467104      0.05824585812     
5865002790        -0.07808269227    0.04318698965     -1.553834553      -4.305867402      
                  -1.553834553      -4.305867402      -0.2721845781     -0.1856910905     
5950002700        0.007979441775    0.02036430238     -3.039189412      3.231304631       
                  -3.039189412      3.231304631       -0.08300800273    0.333257429       
6035002610        0.006844598137    -0.01690962191    4.413643619       1.030566177       
                  4.413643619       1.030566177       0.2989485792      -0.09710702531    
6120002520        -0.1320806129     0.04512243021     -1.411977483      -4.082869065      
                  -1.411977483      -4.082869065      -0.3583962257     -0.04572987203    
6205002430        0.04043051398     0.08914888944     -2.948864909      3.027613376       
                  -2.948864909      3.027613376       0.1020958371      0.3377967436      
6290002340        0.07228222028     -0.06124398847    4.193484736       0.9383865584      
                  4.193484736       0.9383865584      0.1955292027      -0.2478035881     
6375002250        -0.1939839171     -0.01063796688    -1.28729318       -3.846625739      
                  -1.28729318       -3.846625739      -0.3762217929     0.1296576455      
6460002160        0.005268770744    0.1949000263      -2.762860988      2.833086479       
                  -2.762860988      2.833086479       0.270972244       0.2725353441      
6545002070        0.1738402246      -0.03192004089    3.839383649       0.8947593353      
                  3.839383649       0.8947593353      0.02905000729     -0.3202317988     
6630001980        -0.1825615426     -0.1181753906     -1.12993526       -3.588878896      
                  -1.12993526       -3.588878896      -0.2988653014     0.3023572473      
6715001890        -0.0863730301     0.2571811271      -2.522032242      2.529221663       
                  -2.522032242      2.529221663       0.3840227014      0.1563633322      
6800001800        0.253536258       0.0755410349      3.418797594       0.986674686       
                  3.418797594       0.986674686       -0.1312899185     -0.308960465      
6885001710        -0.08133428995    -0.2364849992     -0.8208355002     -3.294079922      
                  -0.8208355002     -3.294079922      -0.1883097491     0.3882187302      
6970001620        -0.2145540948     0.2147068689      -2.476842965      2.147207156       
                  -2.476842965      2.147207156       0.4234869048      0.02370199191     
7055001530        0.2477111908      0.2174588799      3.077571303       1.138290791       
                  3.077571303       1.138290791       -0.2571328714     -0.2715543071     
7140001440        0.09359306888     -0.2898196109     -0.5431840408     -3.091468858      
                  -0.5431840408     -3.091468858      -0.06348873721    0.4541648011      
7225001350        -0.2938902601     0.08139060287     -2.46061018       1.842812545       
                  -2.46061018       1.842812545       0.4529632123      -0.1032441558     
7310001260        0.1576218143      0.3483593861      2.768559486       1.099630839       
                  2.768559486       1.099630839       -0.3588110963     -0.1854823069     
7395001170        0.2899839557      -0.2159292189     -0.2529594387     -2.859684953      
                  -0.2529594387     -2.859684953      0.07697317339     0.482493402       
7480001080        -0.290622284      -0.1220307692     -2.315061626      1.563769114       
                  -2.315061626      1.563769114       0.3949931367      -0.2370283608     
7565000990        -0.04250922565    0.3960533922      2.528382759       1.111151019       
                  2.528382759       1.111151019       -0.4252461491     -0.08458305032    
7650000900        0.4002260389      -0.04737908514    -0.05851288619    -2.540415349      
                  -0.05851288619    -2.540415349      0.2125753502      0.4392103304      
7735000810        -0.153610326      -0.3098533943     -2.239588377      1.313662451       
                  -2.239588377      1.313662451       0.3175553466      -0.3462535656     
7820000720        -0.2132976076     0.3117377513      2.221054571       1.209903161       
                  2.221054571       1.209903161       -0.406448235      0.02478069136     
7905000630        0.4113486206      0.1443374688      0.09681278261     -2.255533258      
                  0.09681278261     -2.255533258      0.3243903383      0.3628862464      
7990000540        0.07289720906     -0.3901861845     -2.168402228      0.9005831746      
                  -2.168402228      0.9005831746      0.2217864571      -0.4074486683     
8075000450        -0.3527575975     0.1135275876      1.863049701       1.407838852       
                  1.863049701       1.407838852       -0.3882634633     0.1187733852      
8160000360        0.2926151746      0.3167729127      0.2513881461      -2.150384737      
                  0.2513881461      -2.150384737      0.3994499398      0.2802490954      
8245000270        0.261567997       -0.3341863165     -2.008609313      0.6024288447      
                  -2.008609313      0.6024288447      0.1144396935      -0.4443709484     
8330000180        -0.3650993789     -0.1376653052     1.607396035       1.478036531       
                  1.607396035       1.478036531       -0.343478596      0.1933853358      
8415000090        0.07386814429     0.3935095206      0.383494582       -1.967777694      
                  0.383494582       -1.967777694      0.4362168539      0.1674647943      
8500000000        0.3848851045      -0.1826334412     -1.811978468      0.4371682575      
                  -1.811978468      0.4371682575      -0.00432127579    -0.4608340886     
