! RsaToolbox (C) 2013 Rohde & Schwarz America
! 
! Number of points: 101
! Number of ports: 2
! Balanced ports?: 0
! 
! 
# Hz S RI R 50
9000              1.016825523       -0.02335083986    9.59065434e-05    -2.152551539e-05  
                  9.59065434e-05    -2.152551539e-05  1.018425477       -0.02765038187    
85008910          0.002629731822    0.1593135397      3.195717073       5.517538728       
                  3.195717073       5.517538728       -0.0917840732     -0.1152345754     
170008820         0.1425151257      -0.04428939628    3.193335069       -5.226521107      
                  3.193335069       -5.226521107      -0.02034412163    0.1716819295      
255008730         -0.1761207034     -0.07579947026    -6.061630776      -0.1682242259     
                  -6.061630776      -0.1682242259     0.077421465       -0.02636264455    
340008640         -0.06323951723    0.1703624938      2.653649349       5.358484545       
                  2.653649349       5.358484545       -0.1264924316     -0.0536921772     
425008550         0.1595641184      -0.04667276393    3.391170847       -4.87285194       
                  3.391170847       -4.87285194       0.01684081853     0.10283939        
510008460         -0.1020087447     -0.1636127485     -5.909564096      -0.6474777446     
                  -5.909564096      -0.6474777446     0.07052762628     -0.07975683321    
595008370         -0.107630227      0.1398588726      2.227877924       5.430030748       
                  2.227877924       5.430030748       -0.08346094252    -0.01193007487    
680008280         0.2044839369      0.03393301839     3.666412984       -4.576630877      
                  3.666412984       -4.576630877      0.09193139788     0.07492505894     
765008190         0.009311450424    -0.1640322832     -5.735145788      -1.105797826      
                  -5.735145788      -1.105797826      0.06034307178     -0.06078800775    
850008100         -0.1819506005     0.1117195089      1.870634412       5.527622508       
                  1.870634412       5.527622508       -0.0711751825     0.06521655839     
935008010         0.1460314035      0.1236890704      3.949273218       -4.233329878      
                  3.949273218       -4.233329878      0.1022225635      0.03879812578     
1020007920        0.07560305556     -0.1540199739     -5.591963747      -1.448922819      
                  -5.591963747      -1.448922819      -0.004910326349   -0.07558422723    
1105007830        -0.2257081911     -0.008379066476   1.478581972       5.621158385       
                  1.478581972       5.621158385       -0.06279109023    0.075046216       
1190007740        0.07176466262     0.1407381304      4.197973937       -3.863842578      
                  4.197973937       -3.863842578      0.1242072867      -0.04281954001    
1275007650        0.1643806952      -0.1089173077     -5.470317938      -1.832800094      
                  -5.470317938      -1.832800094      -0.02992232259    -0.08893360961    
1360007560        -0.1637163012     -0.1011188265     1.042867366       5.647826946       
                  1.042867366       5.647826946       -0.005271166166   0.1017211118      
1445007470        0.0006791900265   0.1423921402      4.414096373       -3.543659692      
                  4.414096373       -3.543659692      0.1470094587      -0.08864246492    
1530007380        0.1849826257      -0.01135553677    -5.310412506      -2.191087199      
                  -5.310412506      -2.191087199      -0.06917943051    -0.06458413548    
1615007290        -0.09459879888    -0.1242980747     0.6180793013      5.607093655       
                  0.6180793013      5.607093655       0.02303461649     0.1421163239      
1700007200        -0.08873785408    0.09754867857     4.671895749       -3.244168343      
                  4.671895749       -3.244168343      0.1108062157      -0.1336088177     
1785007110        0.1284333368      0.03179614592     -5.066208259      -2.53086055       
                  -5.066208259      -2.53086055       -0.1318484026     -0.06409185788    
1870007020        -0.02176167333    -0.1364597219     0.2239222542      5.610203367       
                  0.2239222542      5.610203367       0.06586745478     0.1321749019      
1955006930        -0.1072922762     0.0215943361      4.879461018       -2.888775706      
                  4.879461018       -2.888775706      0.08930974567     -0.1940420482     
2040006840        0.0832784833      0.0393836897      -4.829445004      -2.815501166      
                  -4.829445004      -2.815501166      -0.1545889253     -0.04142905549    
2125006750        0.03620936291     -0.09350419019    -0.1966375713     5.639050463       
                  -0.1966375713     5.639050463       0.1307817372      0.1369906226      
2210006660        -0.09267671185    -0.0007937001637  4.975249653       -2.532970592      
                  4.975249653       -2.532970592      0.04790412633     -0.2181655058     
2295006570        0.02969389903     0.03702407318     -4.596992474      -3.146301851      
                  -4.596992474      -3.146301851      -0.1861080062     0.0155069864      
2380006480        0.02926761093     -0.05291437692    -0.5585194177     5.576655352       
                  -0.5585194177     5.576655352       0.1667726079      0.1138773222      
2465006390        -0.08846387744    -0.01661432166    5.053555432       -2.216033581      
                  5.053555432       -2.216033581      -0.0197963603     -0.259429903      
2550006300        0.01180706209     0.001682417138    -4.288727964      -3.485375421      
                  -4.288727964      -3.485375421      -0.1909780592     0.06088844879     
2635006210        0.02607905754     -0.04502914702    -0.8978602681     5.519332159       
                  -0.8978602681     5.519332159       0.2135311118      0.06431738737     
2720006120        -0.08271333211    -0.01106630566    5.130243639       -1.841849229      
                  5.130243639       -1.841849229      -0.0904313562     -0.264124113      
2805006030        0.01738721954     0.0001114495384   -4.002870178      -3.734618658      
                  -4.002870178      -3.734618658      -0.1627663651     0.1234633612      
2890005940        0.02206651547     -0.03667941386    -1.238577011      5.393039739       
                  -1.238577011      5.393039739       0.2323676484      0.008974577796    
2975005850        -0.09522227603    -0.008541396816   5.162518391       -1.385584325      
                  5.162518391       -1.385584325      -0.1621806616     -0.2475853221     
3060005760        0.01822350507     0.0101145667      -3.702928625      -4.076915128      
                  -3.702928625      -4.076915128      -0.1188803769     0.1688102244      
3145005670        0.03654642165     -0.04472614093    -1.636137492      5.243085952       
                  -1.636137492      5.243085952       0.2318373549      -0.07162926706    
3230005580        -0.1017684707     -0.03346577773    5.270910381       -0.9821301042     
                  5.270910381       -0.9821301042     -0.2270770432     -0.2079055524     
3315005490        0.01122902708     0.03204467303     -3.431904608      -4.302859719      
                  -3.431904608      -4.302859719      -0.04632262677    0.2029764372      
3400005400        0.06115877423     -0.02915752505    -1.991277549      5.076537274       
                  -1.991277549      5.076537274       0.2010989105      -0.1450491077     
3485005310        -0.09798706121    -0.06360230631    5.371043713       -0.6165617659     
                  5.371043713       -0.6165617659     -0.2819067188     -0.1298266629     
3570005220        -0.02034629616    0.04917556129     -3.249567779      -4.493693372      
                  -3.249567779      -4.493693372      0.03358479223     0.210619034       
3655005130        0.0690939648      0.003953857473    -2.189944185      4.942526518       
                  -2.189944185      4.942526518       0.1340074698      -0.2088441054     
3740005040        -0.07735930458    -0.09328749587    5.362448168       -0.2577229401     
                  5.362448168       -0.2577229401     -0.3118742961     -0.03943943388    
3825004950        -0.05876503229    0.03747704246     -2.97738032       -4.628699878      
                  -2.97738032       -4.628699878      0.1136226983      0.176088278       
3910004860        0.06405016946     0.03758108575     -2.609580773      4.719658683       
                  -2.609580773      4.719658683       0.05064194629     -0.258870358      
3995004770        -0.03116244891    -0.1113609847     5.395185644       0.06478928339     
                  5.395185644       0.06478928339     -0.3055367451     0.06550711492     
4080004680        -0.08487669075    0.00785452353     -2.705053709      -4.800608699      
                  -2.705053709      -4.800608699      0.190750291       0.1278506615      
4165004590        0.03942863874     0.07034870449     -2.871922315      4.58291237        
                  -2.871922315      4.58291237        -0.04635917238    -0.2714465377     
4250004500        0.01153911711     -0.08852432058    5.484394747       0.3087756205      
                  5.484394747       0.3087756205      -0.2656403648     0.1755245631      
4335004410        -0.1013255771     -0.01982870238    -2.446695059      -4.911007656      
                  -2.446695059      -4.911007656      0.2297690847      0.04429539842     
4420004320        -0.007563193213   0.08372281412     -3.075124013      4.469819992       
                  -3.075124013      4.469819992       -0.1642702294     -0.2507041902     
4505004230        0.03837982551     -0.05692812693    5.433830807       0.4891044027      
                  5.433830807       0.4891044027      -0.1966837915     0.2591478988      
4590004140        -0.1001484016     -0.05199156       -2.181913495      -4.946385061      
                  -2.181913495      -4.946385061      0.22924503        -0.0575797263     
4675004050        -0.04480020597    0.07082265339     -3.169471934      4.353391922       
                  -3.169471934      4.353391922       -0.2554233345     -0.1908448528     
4760003960        0.05731592218     -0.01606480004    5.284733369       0.7245487497      
                  5.284733369       0.7245487497      -0.08644179036    0.3111408146      
4845003870        -0.07650965063    -0.06862467796    -1.93374094       -4.998192618      
                  -1.93374094       -4.998192618      0.200067568       -0.1550457541     
4930003780        -0.07654483845    0.04066345705     -3.35653558       4.169079287       
                  -3.35653558       4.169079287       -0.3194920135     -0.0993614121     
5015003690        0.04987409037     0.03752564865     5.157521124       0.9645204116      
                  5.157521124       0.9645204116      0.0357480974      0.3348435694      
5100003600        -0.05188129015    -0.05680603964    -1.760430693      -5.070454213      
                  -1.760430693      -5.070454213      0.1196120117      -0.2291787429     
5185003510        -0.09104115079    0.00426024617     -3.410829825      3.945587587       
                  -3.410829825      3.945587587       -0.349404719      0.01148863612     
5270003420        0.01471196236     0.07166177998     5.021687337       1.197984388       
                  5.021687337       1.197984388       0.1496751039      0.2996993988      
5355003330        -0.04215066576    -0.02289357728    -1.645611553      -5.131647072      
                  -1.645611553      -5.131647072      -0.002098374282   -0.2792104673     
5440003240        -0.0719306635     -0.03940424755    -3.35693901       3.779996291       
                  -3.35693901       3.779996291       -0.3195120842     0.1319981921      
5525003150        -0.01809289927    0.06105442783     5.006162265       1.312640396       
                  5.006162265       1.312640396       0.268945096       0.2012726871      
5610003060        -0.0385081927     0.02742286531     -1.591011236      -4.972251236      
                  -1.591011236      -4.972251236      -0.1368886787     -0.2675485038     
5695002970        -0.01401524615    -0.04323620701    -3.356231134      3.562211178       
                  -3.356231134      3.562211178       -0.2209317765     0.2527160194      
5780002880        -0.02608949019    0.02378087072     4.957040379       1.406750984       
                  4.957040379       1.406750984       0.3294918424      0.05780740158     
5865002790        -0.07634315024    0.07571286865     -1.491110566      -4.711308972      
                  -1.491110566      -4.711308972      -0.2724061225     -0.1852048043     
5950002700        0.03577510231     0.004768654405    -3.391461393      3.354778582       
                  -3.391461393      3.354778582       -0.08292408819    0.3331305967      
6035002610        -0.01876994637    -0.0384643779     4.742568518       1.303450162       
                  4.742568518       1.303450162       0.2985054025      -0.09762141692    
6120002520        -0.1444615749     0.07333524174     -1.373362959      -4.453725833      
                  -1.373362959      -4.453725833      -0.3585442352     -0.04545429988    
6205002430        0.07088051609     0.08777067757     -3.279629801      3.148495068       
                  -3.279629801      3.148495068       0.1017902082      0.3373529521      
6290002340        0.06006976522     -0.09024882627    4.518766039       1.164827045       
                  4.518766039       1.164827045       0.1952038486      -0.2471703334     
6375002250        -0.2146397742     0.008466269871    -1.273502674      -4.160334434      
                  -1.273502674      -4.160334434      -0.3761314422     0.130015383       
6460002160        0.02945879742     0.2054936512      -3.034532431      2.950139377       
                  -3.034532431      2.950139377       0.2706306741      0.2722512902      
6545002070        0.1759282697      -0.05957464645    4.114971539       1.067229091       
                  4.114971539       1.067229091       0.02866247568     -0.320115374      
6630001980        -0.2062568906     -0.1107583698     -1.129419036      -3.853265589      
                  -1.129419036      -3.853265589      -0.2984274211     0.3021521846      
6715001890        -0.07170048985    0.2743784202      -2.732310523      2.632145728       
                  -2.732310523      2.632145728       0.3839846029      0.1561395554      
6800001800        0.265409468       0.05541504281     3.628885675       1.126804783       
                  3.628885675       1.126804783       -0.1315803896     -0.3090488245     
6885001710        -0.1029656704     -0.2404613435     -0.8171523324     -3.504577449      
                  -0.8171523324     -3.504577449      -0.1880270782     0.3879313933      
6970001620        -0.2093745374     0.2332832233      -2.641583412      2.22531766        
                  -2.641583412      2.22531766        0.423699529       0.02317198661     
7055001530        0.2625832518      0.207560226       3.223714227       1.244321062       
                  3.223714227       1.244321062       -0.2568974734     -0.2713021205     
7140001440        0.08166886707     -0.2996158519     -0.5398300459     -3.230982301      
                  -0.5398300459     -3.230982301      -0.06320019359    0.4539234819      
7225001350        -0.2965322294     0.09628045193     -2.581487422      1.897638263       
                  -2.581487422      1.897638263       0.4530501996      -0.1038279161     
7310001260        0.1698833953      0.3468989197      2.865305462       1.163244475       
                  2.865305462       1.163244475       -0.3587455238     -0.1850211587     
7395001170        0.285301687       -0.227368973      -0.2453841775     -2.967249342      
                  -0.2453841775     -2.967249342      0.07757998254     0.482163073       
7480001080        -0.2986071829     -0.110971659      -2.417645534      1.611512242       
                  -2.417645534      1.611512242       0.3946431811      -0.2370286977     
7565000990        -0.03112734669    0.3996798848      2.616220899       1.165250633       
                  2.616220899       1.165250633       -0.4244425739     -0.08446212553    
7650000900        0.400740626       -0.05629884375    -0.05310465264    -2.611616729      
                  -0.05310465264    -2.611616729      0.2132485407      0.4385510956      
7735000810        -0.1610295713     -0.3066576522     -2.298384995      1.346635406       
                  -2.298384995      1.346635406       0.3170772185      -0.3460012479     
7820000720        -0.2068515404     0.3173592653      2.27756381        1.242609302       
                  2.27756381        1.242609302       -0.4059639161     0.02507842276     
7905000630        0.4142504394      0.1389462463      0.09759696289     -2.300519214      
                  0.09759696289     -2.300519214      0.3243753309      0.3627827537      
7990000540        0.06634817358     -0.3906263407     -2.21626614       0.9249758981      
                  -2.21626614       0.9249758981      0.2215809681      -0.4069622527     
8075000450        -0.3503004322     0.1198252543      1.907290549       1.43456026        
                  1.907290549       1.43456026        -0.3877913151     0.1190170936      
8160000360        0.2969417933      0.3130774722      0.252204818       -2.190837914      
                  0.252204818       -2.190837914      0.3994516862      0.2799550603      
8245000270        0.257214979       -0.3371754955     -2.040506185      0.6154659356      
                  -2.040506185      0.6154659356      0.1141614507      -0.4443031376     
8330000180        -0.3659810827     -0.132510573      1.637672888       1.501156226       
                  1.637672888       1.501156226       -0.3434016845     0.1932347544      
8415000090        0.07801125453     0.3929805725      0.3849291752      -1.997650368      
                  0.3849291752      -1.997650368      0.4358222629      0.1669182785      
8500000000        0.3829133697      -0.1858373943     -1.83234566       0.4461805455      
                  -1.83234566       0.4461805455      -0.004780211977   -0.4601692093     
