! RsaToolbox (C) 2013 Rohde & Schwarz America
! 
! Number of points: 101
! Number of ports: 2
! Balanced ports?: 0
! 
! 
# Hz S RI R 50
9000              1.010596624       -0.01586620921    5.179248807e-05   -4.475915769e-05  
                  5.179248807e-05   -4.475915769e-05  1.016226477       -0.02484103946    
85008910          0.002117968483    0.1585717199      3.194854971       5.501307403       
                  3.194854971       5.501307403       -0.09223894662    -0.1157503481     
170008820         0.1420240117      -0.04377079873    3.184981245       -5.224445374      
                  3.184981245       -5.224445374      -0.02057209388    0.1715591709      
255008730         -0.175793311      -0.07557601404    -6.056483979      -0.1624526806     
                  -6.056483979      -0.1624526806     0.07774800745     -0.02643520613    
340008640         -0.06371513348    0.1693788697      2.654681921       5.351376298       
                  2.654681921       5.351376298       -0.1265580273     -0.05368446277    
425008550         0.1589949974      -0.04642232746    3.384255036       -4.87049656       
                  3.384255036       -4.87049656       0.01686225937     0.1029556893      
510008460         -0.1014760543     -0.1631276325     -5.904964127      -0.6398011918     
                  -5.904964127      -0.6398011918     0.07083731168     -0.07970200622    
595008370         -0.1074210422     0.1392911482      2.232199106       5.421958584       
                  2.232199106       5.421958584       -0.08371542019    -0.01206297109    
680008280         0.2039957606      0.03371941734     3.656920164       -4.577841597      
                  3.656920164       -4.577841597      0.09220517424     0.0753652313      
765008190         0.009540440334    -0.1632756245     -5.73072692       -1.096203748      
                  -5.73072692       -1.096203748      0.06016886998     -0.06056734995    
850008100         -0.1816485825     0.1112264399      1.875118227       5.520101637       
                  1.875118227       5.520101637       -0.07174609069    0.06495531535     
935008010         0.1452305384      0.1233882873      3.941536044       -4.232994085      
                  3.941536044       -4.232994085      0.1020367905      0.03880641472     
1020007920        0.07535517878     -0.1535974174     -5.587358116      -1.441336625      
                  -5.587358116      -1.441336625      -0.004650304266   -0.07550786027    
1105007830        -0.2249708717     -0.008241355387   1.486410234       5.611950559       
                  1.486410234       5.611950559       -0.06298198144    0.07518355427     
1190007740        0.07115534195     0.139976009       4.188444844       -3.86183381       
                  4.188444844       -3.86183381       0.1242574441      -0.04253752723    
1275007650        0.1640511148      -0.1084515443     -5.465405103      -1.825297795      
                  -5.465405103      -1.825297795      -0.03006169389    -0.08919694346    
1360007560        -0.1631142567     -0.100437221      1.050591983       5.637569444       
                  1.050591983       5.637569444       -0.005367077733   0.1017885765      
1445007470        0.0003624424091   0.1413789031      4.405953319       -3.540545165      
                  4.405953319       -3.540545165      0.1470340951      -0.0883023943     
1530007380        0.1841359648      -0.01116963033    -5.305879114      -2.179400579      
                  -5.305879114      -2.179400579      -0.0693578618     -0.06463738493    
1615007290        -0.09375519212    -0.1234782332     0.6271359267      5.595806097       
                  0.6271359267      5.595806097       0.02314642756     0.1419600019      
1700007200        -0.08836334992    0.09672192739     4.660743668       -3.246429991      
                  4.660743668       -3.246429991      0.110857498       -0.1334143022     
1785007110        0.1275993733      0.031662187       -5.062591663      -2.520245992      
                  -5.062591663      -2.520245992      -0.1318275057     -0.06405208246    
1870007020        -0.02170260975    -0.1353255806     0.2328781428      5.603001054       
                  0.2328781428      5.603001054       0.06578370438     0.1320365606      
1955006930        -0.1062469119     0.02116834352     4.86766008        -2.892967297      
                  4.86766008        -2.892967297      0.08908604783     -0.1940365079     
2040006840        0.08233940557     0.03863106247     -4.827164466      -2.803403543      
                  -4.827164466      -2.803403543      -0.1548141553     -0.04160126817    
2125006750        0.03603835852     -0.09236046289    -0.1830428935     5.630763412       
                  -0.1830428935     5.630763412       0.1310051353      0.1369436846      
2210006660        -0.09156555881    -0.0008652969577  4.962947031       -2.538668206      
                  4.962947031       -2.538668206      0.04794286381     -0.2180801889     
2295006570        0.02908422262     0.03576392497     -4.595102606      -3.132937698      
                  -4.595102606      -3.132937698      -0.1860259793     0.01539510119     
2380006480        0.02829846561     -0.05204055685    -0.5462370099     5.567524003       
                  -0.5462370099     5.567524003       0.1669147581      0.1139431912      
2465006390        -0.08695556303    -0.016145331      5.039816282       -2.220173947      
                  5.039816282       -2.220173947      -0.01952349025    -0.2594916976     
2550006300        0.01168234428     0.000302648124    -4.286049447      -3.471035992      
                  -4.286049447      -3.471035992      -0.190860027      0.06067981274     
2635006210        0.02462703993     -0.04469977584    -0.8845942947     5.509380483       
                  -0.8845942947     5.509380483       0.2135168164      0.06432706733     
2720006120        -0.08189462183    -0.009877912407   5.114640731       -1.849038526      
                  5.114640731       -1.849038526      -0.09058513373    -0.2645423925     
2805006030        0.01816430627     -0.0008475156347  -4.001012555      -3.717947992      
                  -4.001012555      -3.717947992      -0.1629144974     0.1233609441      
2890005940        0.02023308506     -0.0370315957     -1.222402751      5.383425473       
                  -1.222402751      5.383425473       0.2322330241      0.008995054622    
2975005850        -0.09474474811    -0.007137482921   5.146912125       -1.391684482      
                  5.146912125       -1.391684482      -0.1621820083     -0.2474410754     
3060005760        0.01955598358     0.00941958533     -3.700313021      -4.058610858      
                  -3.700313021      -4.058610858      -0.1190037936     0.1687954189      
3145005670        0.03529092749     -0.04543595337    -1.620209646      5.228947352       
                  -1.620209646      5.228947352       0.2317349269      -0.07153606882    
3230005580        -0.102162158      -0.03190749299    5.253113667       -0.9874684941     
                  5.253113667       -0.9874684941     -0.2268263383     -0.2079363973     
3315005490        0.01270141617     0.03192767322     -3.428765089      -4.283208145      
                  -3.428765089      -4.283208145      -0.04601665682    0.2027799975      
3400005400        0.06064008369     -0.03056716951    -1.970718067      5.061936268       
                  -1.970718067      5.061936268       0.2015781816      -0.1450485674     
3485005310        -0.0988911612     -0.06279098977    5.351426704       -0.6253697541     
                  5.351426704       -0.6253697541     -0.2818341822     -0.1299834339     
3570005220        -0.0188236081     0.0500964663      -3.249319007      -4.46865127       
                  -3.249319007      -4.46865127       0.03348299846     0.2108618114      
3655005130        0.06924630983     0.002290070629    -2.165580491      4.9267235         
                  -2.165580491      4.9267235         0.1344077705      -0.2086778082     
3740005040        -0.07883472408    -0.09298054184    5.339749685       -0.270212678      
                  5.339749685       -0.270212678      -0.3121155415     -0.03955106628    
3825004950        -0.05798661616    0.03857031484     -2.979267341      -4.597659947      
                  -2.979267341      -4.597659947      0.1133315192      0.1758754232      
3910004860        0.06506871241     0.03596116035     -2.581692911      4.704643706       
                  -2.581692911      4.704643706       0.05038547267     -0.2589396372     
3995004770        -0.03275534421    -0.1119558531     5.367890868       0.04783168153     
                  5.367890868       0.04783168153     -0.3053140209     0.06537047322     
4080004680        -0.08484876225    0.009955010057    -2.702356002      -4.767384882      
                  -2.702356002      -4.767384882      0.1907090612      0.1282491151      
4165004590        0.04164923573     0.06951230343     -2.847217968      4.562472682       
                  -2.847217968      4.562472682       -0.04649329642    -0.2718715603     
4250004500        0.01013999237     -0.08976469563    5.451028322       0.2950276866      
                  5.451028322       0.2950276866      -0.2656846476     0.1756471483      
4335004410        -0.1026079179     -0.01775617562    -2.445870604      -4.872922871      
                  -2.445870604      -4.872922871      0.2299766683      0.04462203697     
4420004320        -0.00508714978    0.08400091108     -3.04309783       4.448566615       
                  -3.04309783       4.448566615       -0.16387893       -0.2506794559     
4505004230        0.03755236367     -0.05918839294    5.397284341       0.4695329611      
                  5.397284341       0.4695329611      -0.1967558661     0.2590187827      
4590004140        -0.1022507655     -0.05051583736    -2.18239828       -4.904544217      
                  -2.18239828       -4.904544217      0.2294941809      -0.05786059828    
4675004050        -0.04285293257    0.07208912858     -3.134448812      4.329401692       
                  -3.134448812      4.329401692       -0.2551983092     -0.1912276679     
4760003960        0.05781761034     -0.01898150106    5.245084015       0.701172856       
                  5.245084015       0.701172856       -0.0864279328     0.3111981118      
4845003870        -0.07954518853    -0.06813999763    -1.934974952      -4.950264339      
                  -1.934974952      -4.950264339      0.2003679833      -0.1548805454     
4930003780        -0.07521124965    0.0434231978      -3.312158304      4.144342213       
                  -3.312158304      4.144342213       -0.3194206814     -0.0996001718     
5015003690        0.05199433183     0.03501210036     5.116007857       0.9398459409      
                  5.116007857       0.9398459409      0.03601013775     0.3347553255      
5100003600        -0.05512271272    -0.05765497743    -1.76311457       -5.014712083      
                  -1.76311457       -5.014712083      0.1195401376      -0.2291699329     
5185003510        -0.0910066232     0.007834771805    -3.362427353      3.919929886       
                  -3.362427353      3.919929886       -0.3495653035     0.01143108211     
5270003420        0.01781866833     0.07016022507     4.978613368       1.16935655        
                  4.978613368       1.16935655        0.1497977255      0.299780605       
5355003330        -0.04457427484    -0.0257186731     -1.651285936      -5.065221423      
                  -1.651285936      -5.065221423      -0.002040696293   -0.279197864      
5440003240        -0.07351152175    -0.03596609636    -3.308902904      3.752042943       
                  -3.308902904      3.752042943       -0.319480237      0.1321158963      
5525003150        -0.0146888606     0.06102022639     4.957238314       1.282171683       
                  4.957238314       1.282171683       0.2689521098      0.2013113258      
5610003060        -0.03936432199    0.02367833241     -1.592581635      -4.906602872      
                  -1.592581635      -4.906602872      -0.1367906345     -0.2677245709     
5695002970        -0.01726812768    -0.04063954196    -3.307801418      3.534129812       
                  -3.307801418      3.534129812       -0.2212649388     0.2529806476      
5780002880        -0.022618664      0.0257499063      4.902428479       1.372649717       
                  4.902428479       1.372649717       0.3294628388      0.05793585186     
5865002790        -0.07548235025    0.07173087578     -1.488883464      -4.648126154      
                  -1.488883464      -4.648126154      -0.2728484002     -0.1852232423     
5950002700        0.03207720025     0.005799699736    -3.34004336       3.325351119       
                  -3.34004336       3.325351119       -0.08286064578    0.3330297113      
6035002610        -0.01655711939    -0.03515744146    4.686238459       1.270828144       
                  4.686238459       1.270828144       0.2986747562      -0.09745981268    
6120002520        -0.1415905039     0.0704288744      -1.367310206      -4.396202292      
                  -1.367310206      -4.396202292      -0.3585690843     -0.04553569165    
6205002430        0.06721148986     0.08697595845     -3.23237236       3.120673891       
                  -3.23237236       3.120673891       0.1020211025      0.3376300065      
6290002340        0.06050918813     -0.08629341102    4.463312272       1.141173096       
                  4.463312272       1.141173096       0.1950489881      -0.2479295577     
6375002250        -0.2110689399     0.006905596506    -1.264464578      -4.110992248      
                  -1.264464578      -4.110992248      -0.3760865996     0.12993244        
6460002160        0.02664396296     0.2032651404      -2.99788306       2.923097227       
                  -2.99788306       2.923097227       0.2709003938      0.2722527324      
6545002070        0.1743953786      -0.05594061845    4.066702907       1.050523617       
                  4.066702907       1.050523617       0.02876113109     -0.3201711622     
6630001980        -0.2029676846     -0.1105947763     -1.119145664      -3.813120589      
                  -1.119145664      -3.813120589      -0.2986110234     0.3023479441      
6715001890        -0.07290740374    0.271546447       -2.704542634      2.60893039        
                  -2.704542634      2.60893039        0.383976556       0.1562106323      
6800001800        0.2628750341      0.05754248323     3.592299694       1.11307339        
                  3.592299694       1.11307339        -0.131486917      -0.3090207422     
6885001710        -0.09999908306    -0.2387460266     -0.8091090745     -3.473313459      
                  -0.8091090745     -3.473313459      -0.1880729849     0.3881578673      
6970001620        -0.2093219904     0.2303709932      -2.620627012      2.20615215        
                  -2.620627012      2.20615215        0.4232392146      0.02356865039     
7055001530        0.2599836471      0.2082787123      3.197915027       1.234741912       
                  3.197915027       1.234741912       -0.2570550542     -0.2712593771     
7140001440        0.08304429142     -0.29735132       -0.5333935718     -3.20980349       
                  -0.5333935718     -3.20980349       -0.0633885393     0.4539564582      
7225001350        -0.2955039943     0.09407050347     -2.565661685      1.883174789       
                  -2.565661685      1.883174789       0.4526119486      -0.1034802255     
7310001260        0.1678999534      0.3465892689      2.848643597       1.158332648       
                  2.848643597       1.158332648       -0.3585139363     -0.18501326       
7395001170        0.2852618212      -0.2251931579     -0.2409306419     -2.951030086      
                  -0.2409306419     -2.951030086      0.07716318096     0.4823401577      
7480001080        -0.2971242234     -0.1123035817     -2.403656501      1.598998067       
                  -2.403656501      1.598998067       0.3950930634      -0.2370965002     
7565000990        -0.03287584099    0.3986283212      2.600409607       1.162407202       
                  2.600409607       1.162407202       -0.424861318      -0.08446154996    
7650000900        0.3999750923      -0.05493330337    -0.04969709046    -2.599785523      
                  -0.04969709046    -2.599785523      0.2129102753      0.4387176537      
7735000810        -0.1596020905     -0.3067624415     -2.291305067      1.337702319       
                  -2.291305067      1.337702319       0.3173078915      -0.3463012631     
7820000720        -0.2080090444     0.3158119343      2.266308268       1.240962265       
                  2.266308268       1.240962265       -0.4060885511     0.02498882967     
7905000630        0.4133594608      0.1396690878      0.1008675467      -2.294008093      
                  0.1008675467      -2.294008093      0.3245513665      0.3626943059      
7990000540        0.06742496685     -0.390039137      -2.21048283       0.9171800623      
                  -2.21048283       0.9171800623      0.221636017       -0.4071879566     
8075000450        -0.350571309      0.1187537579      1.897839703       1.433634901       
                  1.897839703       1.433634901       -0.3879439897     0.1188788047      
8160000360        0.2962924971      0.3136827123      0.2557369536      -2.18447396       
                  0.2557369536      -2.18447396       0.3994473646      0.2802486806      
8245000270        0.2582347609      -0.336051555      -2.036470032      0.6105310756      
                  -2.036470032      0.6105310756      0.1143989625      -0.4441877468     
8330000180        -0.3660360803     -0.1332945612     1.631308867       1.499393206       
                  1.631308867       1.499393206       -0.3436079072     0.1932507934      
8415000090        0.07760951856     0.3927707187      0.3875750709      -1.99305178       
                  0.3875750709      -1.99305178       0.4357557053      0.1669877408      
8500000000        0.3829980157      -0.1851757017     -1.830078216      0.4428040267      
                  -1.830078216      0.4428040267      -0.004299469768   -0.4606488593     
