! RsaToolbox (C) 2013 Rohde & Schwarz America
! 
! Number of points: 101
! Number of ports: 2
! Balanced ports?: 0
! 
! 
# Hz S RI R 50
9000              1.007753909       -0.01905562167    9.074197028e-05   -4.637038229e-06  
                  9.074197028e-05   -4.637038229e-06  1.015661379       -0.02615839548    
85008910          0.001789061831    0.157934524       3.192359319       5.49046491        
                  3.192359319       5.49046491        -0.09206646745    -0.1154320722     
170008820         0.1415789787      -0.04336198688    3.179212148       -5.219380447      
                  3.179212148       -5.219380447      -0.02036832089    0.1715559965      
255008730         -0.1752153117     -0.07555553441    -6.050333153      -0.1593068796     
                  -6.050333153      -0.1593068796     0.07775151127     -0.02642737268    
340008640         -0.06355280891    0.1687704845      2.654477609       5.343697752       
                  2.654477609       5.343697752       -0.1264959263     -0.05384349542    
425008550         0.1583897951      -0.04610911442    3.378592292       -4.86725389       
                  3.378592292       -4.86725389       0.01666108507     0.1028538766      
510008460         -0.101202669      -0.1628310093     -5.899601947      -0.636005066      
                  -5.899601947      -0.636005066      0.0705857193      -0.07953849678    
595008370         -0.1069413181     0.1389001145      2.233144388       5.415854676       
                  2.233144388       5.415854676       -0.08385629323    -0.01224003715    
680008280         0.2035174131      0.03374279637     3.651626631       -4.576807769      
                  3.651626631       -4.576807769      0.09210324438     0.07545176342     
765008190         0.009743537468    -0.1627532122     -5.726280588      -1.092130871      
                  -5.726280588      -1.092130871      0.06023765409     -0.06065527925    
850008100         -0.1811423157     0.1109296855      1.877898536       5.514145553       
                  1.877898536       5.514145553       -0.07178856424    0.06509593711     
935008010         0.144791989       0.1229726893      3.934652964       -4.232516011      
                  3.934652964       -4.232516011      0.1021410049      0.03892617949     
1020007920        0.07538365215     -0.1529580219     -5.58423515       -1.436410094      
                  -5.58423515       -1.436410094      -0.004761175136   -0.07568439792    
1105007830        -0.2245197096     -0.008422335923   1.489733307       5.606682479       
                  1.489733307       5.606682479       -0.06302132891    0.07522974175     
1190007740        0.07078973867     0.1393403985      4.18287533        -3.860738883      
                  4.18287533        -3.860738883      0.1241699152      -0.0424460947     
1275007650        0.1636566597      -0.1079263029     -5.464550129      -1.816580934      
                  -5.464550129      -1.816580934      -0.03007508253    -0.08913391275    
1360007560        -0.1625567098     -0.100365628      1.054186809       5.632783841       
                  1.054186809       5.632783841       -0.005421840346   0.1019328571      
1445007470        0.0004721465257   0.1408065372      4.398182688       -3.5451184        
                  4.398182688       -3.5451184        0.1470441127      -0.08825012972    
1530007380        0.1835209104      -0.01093512942    -5.30406366       -2.171811728      
                  -5.30406366       -2.171811728      -0.06930519217    -0.06468730497    
1615007290        -0.0933685415     -0.1228741281     0.6336007216      5.589596485       
                  0.6336007216      5.589596485       0.02328647656     0.1422719359      
1700007200        -0.08785408035    0.09598671463     4.652609628       -3.247654179      
                  4.652609628       -3.247654179      0.1108979742      -0.1335542287     
1785007110        0.1266786603      0.03160408084     -5.060924728      -2.511560132      
                  -5.060924728      -2.511560132      -0.1318332159     -0.06419746018    
1870007020        -0.02152866307    -0.1343881558     0.2380879098      5.594815256       
                  0.2380879098      5.594815256       0.06590497698     0.1322489238      
1955006930        -0.1056089843     0.02065458305     4.85945447        -2.894652476      
                  4.85945447        -2.894652476      0.08931379108     -0.1939345178     
2040006840        0.08137676235     0.03788746335     -4.822946057      -2.794777459      
                  -4.822946057      -2.794777459      -0.1547671566     -0.04177693492    
2125006750        0.03564642077     -0.09145681458    -0.1770103215     5.623300343       
                  -0.1770103215     5.623300343       0.1311352851      0.1369105442      
2210006660        -0.09044229663    -0.0009537890615  4.952338643       -2.541341657      
                  4.952338643       -2.541341657      0.04795607635     -0.2180858287     
2295006570        0.02873127086     0.03472146335     -4.590150045      -3.122310692      
                  -4.590150045      -3.122310692      -0.186198559      0.01523195049     
2380006480        0.02742312964     -0.05120477544    -0.5390419412     5.55912526        
                  -0.5390419412     5.55912526        0.1668510003      0.1140191958      
2465006390        -0.08599052949    -0.01560319619    5.027797971       -2.224241312      
                  5.027797971       -2.224241312      -0.01965606611    -0.2595927691     
2550006300        0.01170782101     -0.001084445516   -4.28119742       -3.456309043      
                  -4.28119742       -3.456309043      -0.1909354409     0.06059265625     
2635006210        0.02326737723     -0.0443021043     -0.8717694787     5.497560401       
                  -0.8717694787     5.497560401       0.21371245        0.06413806198     
2720006120        -0.08100913322    -0.00894139796    5.099653099       -1.853318996      
                  5.099653099       -1.853318996      -0.09066699473    -0.2647572364     
2805006030        0.01860536055     -0.00196390366    -3.996676971      -3.702252614      
                  -3.996676971      -3.702252614      -0.1631461183     0.1233244605      
2890005940        0.0188355836      -0.0372786633     -1.207884373      5.37169753        
                  -1.207884373      5.37169753        0.2321166304      0.009004962343    
2975005850        -0.09442740122    -0.00565277583    5.130377763       -1.395776283      
                  5.130377763       -1.395776283      -0.1622569607     -0.2477293002     
3060005760        0.0205230475      0.008586837194    -3.699801034      -4.042233083      
                  -3.699801034      -4.042233083      -0.1190901099     0.1687467799      
3145005670        0.0339685972      -0.04637208565    -1.603131669      5.218021964       
                  -1.603131669      5.218021964       0.2321867015      -0.07155512511    
3230005580        -0.1023818858     -0.03040532722    5.237134712       -0.9943502933     
                  5.237134712       -0.9943502933     -0.2268833942     -0.2081615993     
3315005490        0.01441977777     0.03174508058     -3.428712433      -4.263707907      
                  -3.428712433      -4.263707907      -0.04598147337    0.2029287253      
3400005400        0.06000757826     -0.03211000413    -1.951465459      5.050811682       
                  -1.951465459      5.050811682       0.2016428084      -0.1449549973     
3485005310        -0.09991590546    -0.06159567991    5.333915451       -0.6354602517     
                  5.333915451       -0.6354602517     -0.2821537814     -0.1299207057     
3570005220        -0.01732923616    0.05061078252     -3.252021752      -4.445652497      
                  -3.252021752      -4.445652497      0.03364214728     0.2109152811      
3655005130        0.06936888666     0.0002661349914   -2.141529199      4.916219693       
                  -2.141529199      4.916219693       0.1349097041      -0.2089190291     
3740005040        -0.08036080037    -0.0923791979     5.32013399        -0.2851232421     
                  5.32013399        -0.2851232421     -0.3120532345     -0.03974718698    
3825004950        -0.05668195598    0.04050283303     -2.985479598      -4.567952312      
                  -2.985479598      -4.567952312      0.1134396635      0.176547132       
3910004860        0.06657148589     0.03430145226     -2.55272846       4.695821311       
                  -2.55272846       4.695821311       0.0506974319      -0.259052218      
3995004770        -0.0347373911     -0.1125006961     5.343977488       0.02668328711     
                  5.343977488       0.02668328711     -0.3055005995     0.06545048222     
4080004680        -0.08465337959    0.0126554263      -2.708063096      -4.735003143      
                  -2.708063096      -4.735003143      0.190869354       0.1283917062      
4165004590        0.04385859583     0.06821099553     -2.820073456      4.550123819       
                  -2.820073456      4.550123819       -0.04621668983    -0.2718310623     
4250004500        0.008085051194    -0.09159303979    5.425642121       0.2730454831      
                  5.425642121       0.2730454831      -0.2656704613     0.1756845707      
4335004410        -0.1037115364     -0.01502530034    -2.453699214      -4.836457591      
                  -2.453699214      -4.836457591      0.2299754619      0.04465284759     
4420004320        -0.00207061064    0.08376795658     -3.007378772      4.436867652       
                  -3.007378772      4.436867652       -0.1638392487     -0.2509256054     
4505004230        0.03613477954     -0.06239845942    5.366502523       0.4409295952      
                  5.366502523       0.4409295952      -0.1964842005     0.2590255571      
4590004140        -0.1047888524     -0.04801940024    -2.192263455      -4.862918288      
                  -2.192263455      -4.862918288      0.2296314791      -0.05747642933    
4675004050        -0.03949565344    0.07357834645     -3.09121066       4.316767993       
                  -3.09121066       4.316767993       -0.2554237434     -0.1914664516     
4760003960        0.05814207345     -0.02262830712    5.212303543       0.6684983805      
                  5.212303543       0.6684983805      -0.08652314086    0.3112092712      
4845003870        -0.08323347301    -0.06696421182    -1.948201509      -4.901630633      
                  -1.948201509      -4.901630633      0.2003948624      -0.1548608858     
4930003780        -0.07262830121    0.04695946415     -3.261107023      4.129796979       
                  -3.261107023      4.129796979       -0.3196451499     -0.09975746905    
5015003690        0.05412949645     0.03124127785     5.080931043       0.9041195664      
                  5.080931043       0.9041195664      0.03563649135     0.3346230421      
5100003600        -0.05960717671    -0.05842550313    -1.7808085        -4.955867216      
                  -1.7808085        -4.955867216      0.1196721685      -0.2292849598     
5185003510        -0.090060093      0.0122956034      -3.306382508      3.903463331       
                  -3.306382508      3.903463331       -0.3498065531     0.01132027224     
5270003420        0.02147138405     0.06736783302     4.940905598       1.129713417       
                  4.940905598       1.129713417       0.1497939481      0.2997620219      
5355003330        -0.04885335371    -0.02852789145    -1.671871612      -4.995997476      
                  -1.671871612      -4.995997476      -0.002197400992   -0.2791390871     
5440003240        -0.07452917074    -0.0310610274     -3.253227837      3.734308564       
                  -3.253227837      3.734308564       -0.3196727647     0.1319604862      
5525003150        -0.01001340392    0.05997799002     4.914461273       1.238386088       
                  4.914461273       1.238386088       0.2689487414      0.2014289461      
5610003060        -0.04186509303    0.01891377553     -1.611215678      -4.834662359      
                  -1.611215678      -4.834662359      -0.1366663988     -0.2678121482     
5695002970        -0.0203533569     -0.03666795814    -3.248855617      3.515160562       
                  -3.248855617      3.515160562       -0.2213279826     0.2528514069      
5780002880        -0.01762254645    0.02694747328     4.85292522        1.323186087       
                  4.85292522        1.323186087       0.3296268016      0.05771630313     
5865002790        -0.07560706787    0.06665766651     -1.50193591       -4.579398952      
                  -1.50193591       -4.579398952      -0.272148406      -0.1854385673     
5950002700        0.02756956281     0.008226734379    -3.279183567      3.306140129       
                  -3.279183567      3.306140129       -0.08293194912    0.3330878368      
6035002610        -0.01242067072    -0.03171642638    4.632778573       1.22265885        
                  4.632778573       1.22265885        0.2987885097      -0.09738426435    
6120002520        -0.1396466984     0.06600593713     -1.376011004      -4.332906785      
                  -1.376011004      -4.332906785      -0.3584638174     -0.0455738568     
6205002430        0.06231326085     0.08704225158     -3.176197829      3.10163974        
                  -3.176197829      3.10163974        0.1019898314      0.3376346354      
6290002340        0.06234892878     -0.08163921961    4.408003559       1.100337925       
                  4.408003559       1.100337925       0.1952101694      -0.2477946875     
6375002250        -0.2077692534     0.003937833461    -1.267707607      -4.057723764      
                  -1.267707607      -4.057723764      -0.3761155278     0.1297764979      
6460002160        0.02300438936     0.2015544773      -2.951029063      2.903351832       
                  -2.951029063      2.903351832       0.2708926216      0.2723994185      
6545002070        0.1740978188      -0.05163669551    4.020009433       1.020378425       
                  4.020009433       1.020378425       0.02891128157     -0.3201527284     
6630001980        -0.1991069995     -0.1116381491     -1.119873738      -3.767164846      
                  -1.119873738      -3.767164846      -0.2986697381     0.3022949834      
6715001890        -0.07526519615    0.2686572252      -2.668892122      2.590943291       
                  -2.668892122      2.590943291       0.3839379626      0.156244527       
6800001800        0.2608801288      0.06081164203     3.555707052       1.088880593       
                  3.555707052       1.088880593       -0.1313490153     -0.3089188587     
6885001710        -0.09649482924    -0.2379753853     -0.8092917652     -3.436325607      
                  -0.8092917652     -3.436325607      -0.1881916846     0.3881163753      
6970001620        -0.2098935525     0.2272567009      -2.591902565      2.191760378       
                  -2.591902565      2.191760378       0.4233492068      0.02353709696     
7055001530        0.2575389366      0.2096009284      3.172179664       1.216819867       
                  3.172179664       1.216819867       -0.257096634      -0.271724158      
7140001440        0.08495399713     -0.2955969872     -0.533034925      -3.1848102        
                  -0.533034925      -3.1848102        -0.0635667813     0.4539237988      
7225001350        -0.2949300574     0.0915854923      -2.544907078      1.873340028       
                  -2.544907078      1.873340028       0.4526877658      -0.1032913893     
7310001260        0.1655916863      0.3466109514      2.830306668       1.148598778       
                  2.830306668       1.148598778       -0.3587581629     -0.1844735936     
7395001170        0.2860762183      -0.2231335958     -0.241633252      -2.932536983      
                  -0.241633252      -2.932536983      0.07714908314     0.4822311946      
7480001080        -0.2956161751     -0.1141903993     -2.385995905      1.589835033       
                  -2.385995905      1.589835033       0.3949198818      -0.2371729933     
7565000990        -0.03483635263    0.3978258883      2.584433268       1.153629177       
                  2.584433268       1.153629177       -0.4251219105     -0.08433607008    
7650000900        0.4000557296      -0.05325836199    -0.04995788864    -2.587684202      
                  -0.04995788864    -2.587684202      0.2128693183      0.4388843396      
7735000810        -0.1582455217     -0.3072560305     -2.280807922      1.331145757       
                  -2.280807922      1.331145757       0.317532927       -0.3462155375     
7820000720        -0.2089155607     0.3149150377      2.255965781       1.235930541       
                  2.255965781       1.235930541       -0.4061809487     0.02497504143     
7905000630        0.4128466405      0.1405768713      0.1012761075      -2.285812768      
                  0.1012761075      -2.285812768      0.3245180808      0.3625147107      
7990000540        0.06855361508     -0.3901786567     -2.202062145      0.9122266922      
                  -2.202062145      0.9122266922      0.2216783386      -0.4070636783     
8075000450        -0.3507638491     0.1177764833      1.889814159       1.429509097       
                  1.889814159       1.429509097       -0.38808409       0.1187156329      
8160000360        0.2957399535      0.3141921078      0.2560985967      -2.177267895      
                  0.2560985967      -2.177267895      0.3994837373      0.2802141302      
8245000270        0.2588627363      -0.335690676      -2.031179973      0.6074920721      
                  -2.031179973      0.6074920721      0.114457758       -0.4442499707     
8330000180        -0.3655014646     -0.1339634115     1.625443816       1.495890388       
                  1.625443816       1.495890388       -0.3432835212     0.1935366832      
8415000090        0.07681370021     0.3925616561      0.3879644791      -1.987516404      
                  0.3879644791      -1.987516404      0.4359705398      0.1673956059      
8500000000        0.3832682091      -0.1846663533     -1.826454652      0.4408603038      
                  -1.826454652      0.4408603038      -0.004320087621   -0.4605420355     
