! RsaToolbox (C) 2013 Rohde & Schwarz America
! 
! Number of points: 101
! Number of ports: 2
! Balanced ports?: 0
! 
! 
# Hz S RI R 50
9000              1.013663184       -0.01777520009    7.656508958e-05   1.10654686e-06    
                  7.656508958e-05   1.10654686e-06    1.019857734       -0.02460413662    
85008910          0.002510482872    0.1590045212      3.196099317       5.513626117       
                  3.196099317       5.513626117       -0.09222741787    -0.1156060917     
170008820         0.1422633502      -0.04422442754    3.190235274       -5.22672096       
                  3.190235274       -5.22672096       -0.02051439684    0.1714424975      
255008730         -0.1761620986     -0.07568119197    -6.060370828      -0.1661102762     
                  -6.060370828      -0.1661102762     0.07770603609     -0.0265804633     
340008640         -0.0634614833     0.1698375675      2.653731619       5.355472697       
                  2.653731619       5.355472697       -0.1267319605     -0.05373990973    
425008550         0.1593950128      -0.04633600455    3.389562813       -4.870041492      
                  3.389562813       -4.870041492      0.01666008271     0.1027735745      
510008460         -0.1017135212     -0.1632999978     -5.907003722      -0.6444222776     
                  -5.907003722      -0.6444222776     0.07089855494     -0.07972184717    
595008370         -0.1073197876     0.1400094038      2.23094764        5.427382914       
                  2.23094764        5.427382914       -0.08377186471    -0.01217556237    
680008280         0.2045757965      0.03378603907     3.662780108       -4.577976381      
                  3.662780108       -4.577976381      0.09196341713     0.07523533113     
765008190         0.009463374204    -0.1636797491     -5.734327643      -1.102023375      
                  -5.734327643      -1.102023375      0.05997505097     -0.06036624587    
850008100         -0.1819062546     0.1116660351      1.871254394       5.526505195       
                  1.871254394       5.526505195       -0.07162623366    0.06515903661     
935008010         0.1457774054      0.1235745906      3.947721632       -4.234884352      
                  3.947721632       -4.234884352      0.1021325268      0.0389461247      
1020007920        0.0755296482      -0.1539024177     -5.592109483      -1.446731349      
                  -5.592109483      -1.446731349      -0.004675185665   -0.07563248587    
1105007830        -0.2251294373     -0.007808268956   1.480817475       5.618514263       
                  1.480817475       5.618514263       -0.06280898654    0.07531304173     
1190007740        0.07144715541     0.1404253647      4.196292282       -3.862147885      
                  4.196292282       -3.862147885      0.1244852702      -0.04237084061    
1275007650        0.1643373087      -0.1087150716     -5.469725893      -1.829709813      
                  -5.469725893      -1.829709813      -0.03006223239    -0.08896956875    
1360007560        -0.1635303398     -0.10056901       1.045805454       5.643856145       
                  1.045805454       5.643856145       -0.005372401014   0.1017584591      
1445007470        0.0001684521808   0.1419060157      4.41140453        -3.545156383      
                  4.41140453        -3.545156383      0.1471251389      -0.08819765228    
1530007380        0.1846845813      -0.01135371927    -5.308643515      -2.188499925      
                  -5.308643515      -2.188499925      -0.06922153344    -0.06450654399    
1615007290        -0.09432646293    -0.1239970144     0.6221230859      5.603145309       
                  0.6221230859      5.603145309       0.02332111309     0.1421054155      
1700007200        -0.08853426089    0.09740948322     4.667879093       -3.245256839      
                  4.667879093       -3.245256839      0.1108632603      -0.1333816283     
1785007110        0.1282884485      0.03188080751     -5.065767373      -2.526600796      
                  -5.065767373      -2.526600796      -0.1319401186     -0.0638806547     
1870007020        -0.02175752688    -0.1360206474     0.2269947808      5.607935102       
                  0.2269947808      5.607935102       0.06583074583     0.1320828512      
1955006930        -0.1069405696     0.02159598183     4.875143267       -2.890499821      
                  4.875143267       -2.890499821      0.08903367555     -0.1938515151     
2040006840        0.08302466104     0.03904440463     -4.828726975      -2.812476485      
                  -4.828726975      -2.812476485      -0.154581782      -0.04146225196    
2125006750        0.0363621675      -0.09297201122    -0.1906847645     5.636741874       
                  -0.1906847645     5.636741874       0.1311474136      0.1369141413      
2210006660        -0.09248185193    -0.0009528682647  4.972209343       -2.53452944       
                  4.972209343       -2.53452944       0.04792262835     -0.2181182        
2295006570        0.02976624275     0.03672901822     -4.596032617      -3.142292301      
                  -4.596032617      -3.142292301      -0.1859793757     0.01572755414     
2380006480        0.0290087203      -0.05276700478    -0.5541479658     5.573960737       
                  -0.5541479658     5.573960737       0.1668785844      0.1140451539      
2465006390        -0.08816802137    -0.01660320581    5.050395324       -2.215274603      
                  5.050395324       -2.215274603      -0.01983730071    -0.2595349801     
2550006300        0.01193415234     0.001275955382    -4.28785844       -3.481584444      
                  -4.28785844       -3.481584444      -0.1908360354     0.06079476771     
2635006210        0.0256437236      -0.04507500246    -0.8949796376     5.517446148       
                  -0.8949796376     5.517446148       0.2133449818      0.06426657862     
2720006120        -0.08235625999    -0.01074469899    5.126547602       -1.842531285      
                  5.126547602       -1.842531285      -0.09017955071    -0.2644895085     
2805006030        0.01749923017     0.0001544895409   -4.002900271      -3.729716237      
                  -4.002900271      -3.729716237      -0.1629614922     0.123295383       
2890005940        0.02132448943     -0.03663915596    -1.23249945       5.392070531       
                  -1.23249945       5.392070531       0.2321459957      0.009049107913    
2975005850        -0.09500689051    -0.008028019557   5.157894172       -1.386373647      
                  5.157894172       -1.386373647      -0.1623004726     -0.2475030597     
3060005760        0.01861954587     0.00997170009     -3.704364499      -4.072965208      
                  -3.704364499      -4.072965208      -0.1190019686     0.1688489173      
3145005670        0.03604635068     -0.04492870794    -1.631169442      5.237655789       
                  -1.631169442      5.237655789       0.2316596059      -0.07149818004    
3230005580        -0.1019292622     -0.03276278562    5.265551584       -0.9842803587     
                  5.265551584       -0.9842803587     -0.2267698234     -0.208016781      
3315005490        0.0114197771      0.03210100217     -3.429563225      -4.297507503      
                  -3.429563225      -4.297507503      -0.04601741384    0.2028547222      
3400005400        0.06130299499     -0.02928394975    -1.987686985      5.070085548       
                  -1.987686985      5.070085548       0.2016369041      -0.1449846976     
3485005310        -0.0981953906     -0.06374566233    5.367258832       -0.6169495722     
                  5.367258832       -0.6169495722     -0.2824410284     -0.129436583      
3570005220        -0.02020846746    0.04938296324     -3.248847797      -4.487918962      
                  -3.248847797      -4.487918962      0.03371783963     0.2106737871      
3655005130        0.06907082124     0.003800533212    -2.183464024      4.937652226       
                  -2.183464024      4.937652226       0.1350084526      -0.2086856883     
3740005040        -0.07756281697    -0.09344873559    5.355712172       -0.260594618      
                  5.355712172       -0.260594618      -0.3116432563     -0.03960945648    
3825004950        -0.05883166855    0.03775629809     -2.975990886      -4.622509398      
                  -2.975990886      -4.622509398      0.11352038        0.1761798757      
3910004860        0.06416931814     0.03737976619     -2.60362217       4.715906193       
                  -2.60362217       4.715906193       0.05043278236     -0.2590291002     
3995004770        -0.03131476647    -0.1116265805     5.389355388       0.06127172218     
                  5.389355388       0.06127172218     -0.305359393      0.06544321176     
4080004680        -0.08500191088    0.008347929981    -2.702812553      -4.792494326      
                  -2.702812553      -4.792494326      0.1905130401      0.1280114517      
4165004590        0.03992966438     0.07034718306     -2.863675312      4.578214794       
                  -2.863675312      4.578214794       -0.04627428264    -0.2714869413     
4250004500        0.0114571118      -0.08842044547    5.475632784       0.306125858       
                  5.475632784       0.306125858       -0.2657674633     0.1756811032      
4335004410        -0.1017746717     -0.01967215217    -2.443953363      -4.903110964      
                  -2.443953363      -4.903110964      0.2298110577      0.04464411715     
4420004320        -0.006888402976   0.08405930754     -3.067583492      4.462898081       
                  -3.067583492      4.462898081       -0.1638882124     -0.2508505826     
4505004230        0.03814772873     -0.0573479253     5.424854959       0.4859442263      
                  5.424854959       0.4859442263      -0.1968981527     0.2589453978      
4590004140        -0.1005405261     -0.05188659713    -2.17644231       -4.938069189      
                  -2.17644231       -4.938069189      0.2295682724      -0.05753187482    
4675004050        -0.04464570363    0.07105539707     -3.164617323      4.345024629       
                  -3.164617323      4.345024629       -0.255290604      -0.1911000648     
4760003960        0.05752013243     -0.01654554121    5.273961345       0.7199639419      
                  5.273961345       0.7199639419      -0.08645645511    0.3112526124      
4845003870        -0.07737842383    -0.06872119066    -1.932709985      -4.986980613      
                  -1.932709985      -4.986980613      0.2003930877      -0.1548263955     
4930003780        -0.07641066985    0.04134848369     -3.346840444      4.161030155       
                  -3.346840444      4.161030155       -0.3195013398     -0.09972272363    
5015003690        0.05068388619     0.03737653155     5.147101062       0.9611387516      
                  5.147101062       0.9611387516      0.03581226321     0.3345913487      
5100003600        -0.05254063374    -0.05735419       -1.759411473      -5.057174763      
                  -1.759411473      -5.057174763      0.1198110561      -0.2292119617     
5185003510        -0.09142284221    0.005056320245    -3.400428017      3.937624777       
                  -3.400428017      3.937624777       -0.3494688408     0.01153796457     
5270003420        0.01548107354     0.07159164249     5.01020995        1.19335046        
                  5.01020995        1.19335046        0.1499511112      0.2997432065      
5355003330        -0.04268360463    -0.02358671451    -1.644285733      -5.116321445      
                  -1.644285733      -5.116321445      -0.002142336532   -0.2790592512     
5440003240        -0.07237676603    -0.03857647354    -3.347507048      3.772012137       
                  -3.347507048      3.772012137       -0.3193791481     0.1319164441      
5525003150        -0.01744221229    0.06124045974     4.99258003        1.307285813       
                  4.99258003        1.307285813       0.2688242584      0.2012857608      
5610003060        -0.03834498955    0.02649697745     -1.587115142      -4.958912559      
                  -1.587115142      -4.958912559      -0.1365453923     -0.2678887883     
5695002970        -0.01497571967    -0.04278322126    -3.346513287      3.554495959       
                  -3.346513287      3.554495959       -0.2211695636     0.2530045462      
5780002880        -0.02529739227    0.02467695118     4.942310993       1.400742967       
                  4.942310993       1.400742967       0.3293394752      0.05796372395     
5865002790        -0.07581958935    0.07478731286     -1.487281397      -4.696128032      
                  -1.487281397      -4.696128032      -0.272323594      -0.1852347501     
5950002700        0.03494984762     0.004736612923    -3.381334693      3.345983509       
                  -3.381334693      3.345983509       -0.08281149751    0.3330147755      
6035002610        -0.01875309857    -0.03773699513    4.728125151       1.29767309        
                  4.728125151       1.29767309        0.29853417        -0.09743213646    
6120002520        -0.1435118676     0.07287138766     -1.369550569      -4.440680488      
                  -1.369550569      -4.440680488      -0.3582953838     -0.04541518431    
6205002430        0.07028396888     0.08740175647     -3.270491043      3.140356251       
                  -3.270491043      3.140356251       0.101890285       0.3370920482      
6290002340        0.05984267945     -0.08939884727    4.50396783        1.162262921       
                  4.50396783        1.162262921       0.1948373995      -0.2480908789     
6375002250        -0.2137468775     0.008390695602    -1.269558195      -4.149233306      
                  -1.269558195      -4.149233306      -0.3759878409     0.1299379166      
6460002160        0.02894637294     0.2052019122      -3.027298326      2.941594914       
                  -3.027298326      2.941594914       0.2706226941      0.2724064529      
6545002070        0.1753843088      -0.05889515572    4.102838128       1.065593275       
                  4.102838128       1.065593275       0.02887122445     -0.3201363081     
6630001980        -0.2058468892     -0.1104628074     -1.124473405      -3.845178785      
                  -1.124473405      -3.845178785      -0.2984607773     0.3021901343      
6715001890        -0.07169894667    0.2736853056      -2.726909157      2.625506728       
                  -2.726909157      2.625506728       0.3839434821      0.1562193769      
6800001800        0.2645765379      0.05568780664     3.619633695       1.125305189       
                  3.619633695       1.125305189       -0.1315869453     -0.308725063      
6885001710        -0.1019954259     -0.2398291109     -0.8134849319     -3.497854484      
                  -0.8134849319     -3.497854484      -0.1879771938     0.3878705692      
6970001620        -0.2092828192     0.2326367836      -2.638314678      2.219237403       
                  -2.638314678      2.219237403       0.4233225938      0.02348180061     
7055001530        0.2622254357      0.2073767155      3.218369833       1.239367274       
                  3.218369833       1.239367274       -0.2571278852     -0.2713126043     
7140001440        0.08194969039     -0.2987610496     -0.5361034651     -3.226426146      
                  -0.5361034651     -3.226426146      -0.06319038675    0.4536739786      
7225001350        -0.2960929522     0.09568563017     -2.578691574      1.893586508       
                  -2.578691574      1.893586508       0.4527426461      -0.1037252789     
7310001260        0.1693218465      0.3469375642      2.861056384       1.163424198       
                  2.861056384       1.163424198       -0.3584960445     -0.1850012644     
7395001170        0.2851405818      -0.2266909028     -0.2429317245     -2.963700507      
                  -0.2429317245     -2.963700507      0.07638816256     0.4819978455      
7480001080        -0.2982746242     -0.1110619991     -2.414946499      1.607819892       
                  -2.414946499      1.607819892       0.3948283043      -0.2369478369     
7565000990        -0.03148703311    0.3994192865      2.612484447       1.165477617       
                  2.612484447       1.165477617       -0.4248974194     -0.08446569906    
7650000900        0.4006233052      -0.05594542446    -0.05161156404    -2.608726851      
                  -0.05161156404    -2.608726851      0.2136800894      0.4386116711      
7735000810        -0.160825382      -0.3064013615     -2.297067285      1.344083588       
                  -2.297067285      1.344083588       0.3174043632      -0.3465366658     
7820000720        -0.207284826      0.3164325814      2.274835096       1.242949461       
                  2.274835096       1.242949461       -0.4058949497     0.02493847736     
7905000630        0.4140486849      0.1388687018      0.09867679179     -2.299379605      
                  0.09867679179     -2.299379605      0.3244073241      0.3624444062      
7990000540        0.06655261789     -0.3905306044     -2.215485473      0.9228835112      
                  -2.215485473      0.9228835112      0.2214342073      -0.406939941      
8075000450        -0.3507567096     0.1193690734      1.905162771       1.435116596       
                  1.905162771       1.435116596       -0.3879405441     0.1183483359      
8160000360        0.2972468958      0.3134891541      0.2536420967      -2.18936266       
                  0.2536420967      -2.18936266       0.3997606529      0.2795998422      
8245000270        0.2577667679      -0.336627706      -2.039288335      0.6135653443      
                  -2.039288335      0.6135653443      0.1138466222      -0.444039803      
8330000180        -0.3665138194     -0.1326619156     1.635983824       1.500894791       
                  1.635983824       1.500894791       -0.3435797093     0.1933069199      
8415000090        0.07778303108     0.3930222238      0.3863269167      -1.997292069      
                  0.3863269167      -1.997292069      0.4359260489      0.1669897806      
8500000000        0.3828074923      -0.1858820208     -1.832017829      0.4447163358      
                  -1.832017829      0.4447163358      -0.004695370157   -0.4601065221     
