! RsaToolbox (C) 2013 Rohde & Schwarz America
! 
! Number of points: 101
! Number of ports: 2
! Balanced ports?: 0
! 
! 
# Hz S RI R 50
9000              1.008405365       -0.01847408532    6.73898339e-05    1.540675164e-05   
                  6.73898339e-05    1.540675164e-05   1.014500169       -0.02324277711    
85008910          0.001748461926    0.1575890392      3.19215875        5.485852103       
                  3.19215875        5.485852103       -0.09218738953    -0.1158482892     
170008820         0.1412547304      -0.04316583495    3.175195041       -5.216576602      
                  3.175195041       -5.216576602      -0.02062461307    0.1716199883      
255008730         -0.1749536851     -0.07536093953    -6.048181816      -0.1590860682     
                  -6.048181816      -0.1590860682     0.07766689334     -0.02656869082    
340008640         -0.06359428268    0.1685197131      2.654154506       5.342464457       
                  2.654154506       5.342464457       -0.1265745803     -0.05393604447    
425008550         0.1582275723      -0.04605789979    3.376331495       -4.865932532      
                  3.376331495       -4.865932532      0.0165863731      0.102781353       
510008460         -0.1010467035     -0.1625885861     -5.898518426      -0.6349541604     
                  -5.898518426      -0.6349541604     0.07089961195     -0.07965579968    
595008370         -0.1068947323     0.1386373019      2.234833285       5.414017764       
                  2.234833285       5.414017764       -0.08382653972    -0.01215873471    
680008280         0.203136882       0.03388578745     3.649445772       -4.575463514      
                  3.649445772       -4.575463514      0.09216370764     0.0754291668      
765008190         0.009763361801    -0.1625091334     -5.725131212      -1.090092796      
                  -5.725131212      -1.090092796      0.06028230265     -0.06067585108    
850008100         -0.1809054474     0.1107676736      1.879519303       5.511070289       
                  1.879519303       5.511070289       -0.07164608153    0.06511253323     
935008010         0.1445289694      0.1228379278      3.9320637         -4.232557368      
                  3.9320637         -4.232557368      0.1022168203      0.03895171495     
1020007920        0.07521594305     -0.152682395      -5.582832254      -1.434907206      
                  -5.582832254      -1.434907206      -0.004720295557   -0.07565291768    
1105007830        -0.2241997762     -0.00852619665    1.491620083       5.603503006       
                  1.491620083       5.603503006       -0.06304844292    0.07506294908     
1190007740        0.07064456177     0.139109295       4.179527077       -3.860530248      
                  4.179527077       -3.860530248      0.1243261944      -0.04255224802    
1275007650        0.163528559       -0.1076762052     -5.463212388      -1.81283516       
                  -5.463212388      -1.81283516       -0.03012767423    -0.08916140383    
1360007560        -0.16226553       -0.1000451383     1.056840331       5.629161103       
                  1.056840331       5.629161103       -0.005576339716   0.1017842942      
1445007470        0.0007415191921   0.1405859399      4.39454941        -3.545711611      
                  4.39454941        -3.545711611      0.1471259469      -0.08836181623    
1530007380        0.1832025487      -0.01096284878    -5.302313006      -2.166960681      
                  -5.302313006      -2.166960681      -0.06932200812    -0.06468086133    
1615007290        -0.09317728902    -0.1225770688     0.6352063468      5.587030325       
                  0.6352063468      5.587030325       0.02313883002     0.1421338506      
1700007200        -0.08759309966    0.09578194578     4.648043549       -3.249979361      
                  4.648043549       -3.249979361      0.1108492461      -0.1335392565     
1785007110        0.1263183408      0.03142194833     -5.059696456      -2.506370799      
                  -5.059696456      -2.506370799      -0.1319784586     -0.06407483403    
1870007020        -0.02152591564    -0.1339810957     0.2424700699      5.591899626       
                  0.2424700699      5.591899626       0.06579609114     0.1322063095      
1955006930        -0.1051510975     0.02061021562     4.85331664        -2.898581098      
                  4.85331664        -2.898581098      0.08923662523     -0.193999471      
2040006840        0.08110709387     0.03749339168     -4.822992755      -2.787841833      
                  -4.822992755      -2.787841833      -0.1548064291     -0.04154930141    
2125006750        0.03546064519     -0.09083877681    -0.17039565       5.61996528        
                  -0.17039565       5.61996528        0.1309503993      0.1369639246      
2210006660        -0.08983327155    -0.0008671278338  4.94548709        -2.545446803      
                  4.94548709        -2.545446803      0.04804081281     -0.218126209      
2295006570        0.02847940731     0.03411621177     -4.591046617      -3.114375379      
                  -4.591046617      -3.114375379      -0.186262342      0.01530370668     
2380006480        0.02685291453     -0.05081546493    -0.5313671682     5.554705349       
                  -0.5313671682     5.554705349       0.1668643069      0.1139846749      
2465006390        -0.08524931303    -0.01523968332    5.019849227       -2.227552437      
                  5.019849227       -2.227552437      -0.01951721094    -0.2596951188     
2550006300        0.01170670167     -0.001789100638   -4.280470452      -3.451391441      
                  -4.280470452      -3.451391441      -0.1910340641     0.06052627752     
2635006210        0.02271663713     -0.04411267684    -0.8663209226     5.494371023       
                  -0.8663209226     5.494371023       0.2135414292      0.06423027801     
2720006120        -0.08049461694    -0.008282676201   5.09377397        -1.856028981      
                  5.09377397        -1.856028981      -0.09082752904    -0.2646865616     
2805006030        0.01925022049     -0.002755586214   -3.996231416      -3.694993199      
                  -3.996231416      -3.694993199      -0.1631373132     0.1232849955      
2890005940        0.01804988208     -0.03766157662    -1.199831258      5.367631863       
                  -1.199831258      5.367631863       0.2321453906      0.00902609731     
2975005850        -0.09415683391    -0.004780643759   5.123266443       -1.398982778      
                  5.123266443       -1.398982778      -0.1623206812     -0.2478419158     
3060005760        0.02131210745     0.008056837992    -3.698080982      -4.032633138      
                  -3.698080982      -4.032633138      -0.1190692012     0.1688053089      
3145005670        0.0333354307      -0.0468521917     -1.595614593      5.213640826       
                  -1.595614593      5.213640826       0.2319552997      -0.07149650619    
3230005580        -0.1025896497     -0.02973917457    5.228505704       -0.9981622842     
                  5.228505704       -0.9981622842     -0.2266139329     -0.208578507      
3315005490        0.01504043481     0.03165403605     -3.428953946      -4.252530247      
                  -3.428953946      -4.252530247      -0.04599960272    0.2027262045      
3400005400        0.05970147574     -0.032945254      -1.941809675      5.045790371       
                  -1.941809675      5.045790371       0.2016556653      -0.1449235421     
3485005310        -0.1007738447     -0.06090341192    5.323946876       -0.6411231246     
                  5.323946876       -0.6411231246     -0.2822602427     -0.1298147343     
3570005220        -0.01608267438    0.05132999537     -3.253437658      -4.431191833      
                  -3.253437658      -4.431191833      0.03347849108     0.2107593732      
3655005130        0.06941233256     -0.0008872885322  -2.128131907      4.909359978       
                  -2.128131907      4.909359978       0.1346965779      -0.2087568233     
3740005040        -0.08151655396    -0.09218868795    5.308601027       -0.2930600221     
                  5.308601027       -0.2930600221     -0.3121503512     -0.03966224045    
3825004950        -0.05606314409    0.04147237762     -2.988869139      -4.550087806      
                  -2.988869139      -4.550087806      0.1134762684      0.176247625       
3910004860        0.06738646886     0.03318820448     -2.535615602      4.689236943       
                  -2.535615602      4.689236943       0.05055309371     -0.2589708065     
3995004770        -0.03629891089    -0.1128034706     5.331001148       0.01478900737     
                  5.331001148       0.01478900737     -0.305421727      0.06528809554     
4080004680        -0.08438378556    0.01419588903     -2.714015948      -4.714733144      
                  -2.714015948      -4.714733144      0.1908097467      0.1286593772      
4165004590        0.04539227401     0.06751809066     -2.802028391      4.544945034       
                  -2.802028391      4.544945034       -0.04632941454    -0.2717583657     
4250004500        0.006692694214    -0.0927926761     5.410050528       0.2585491343      
                  5.410050528       0.2585491343      -0.2659183038     0.1757679948      
4335004410        -0.1043118915     -0.01307323197    -2.460276744      -4.815229047      
                  -2.460276744      -4.815229047      0.230043469       0.04471930421     
4420004320        -5.361796571e-05  0.08380758057     -2.986365015      4.431581046       
                  -2.986365015      4.431581046       -0.163883812      -0.2509417945     
4505004230        0.03525330704     -0.06433506715    5.34930275        0.4222717564      
                  5.34930275        0.4222717564      -0.1967650972     0.2591146187      
4590004140        -0.1065455063     -0.04655093127    -2.198044932      -4.838617564      
                  -2.198044932      -4.838617564      0.2295933942      -0.0575407306     
4675004050        -0.03752099019    0.07453697879     -3.064704163      4.30973705        
                  -3.064704163      4.30973705        -0.2554519515     -0.1914359075     
4760003960        0.05804835145     -0.0250964795     5.193067014       0.647747942       
                  5.193067014       0.647747942       -0.08647529376    0.3112413736      
4845003870        -0.08579447376    -0.0661503494     -1.957486638      -4.872034671      
                  -1.957486638      -4.872034671      0.2004490846      -0.1547839973     
4930003780        -0.07090821189    0.04911765891     -3.229020088      4.122828478       
                  -3.229020088      4.122828478       -0.3196633692     -0.09978442548    
5015003690        0.05521719587     0.02897004956     5.060549974       0.8814293833      
                  5.060549974       0.8814293833      0.03577086675     0.3348133326      
5100003600        -0.06262721396    -0.05883854079    -1.78977678       -4.921340409      
                  -1.78977678       -4.921340409      0.1196972181      -0.229315185      
5185003510        -0.08928492623    0.01533540299     -3.27246104       3.895678807       
                  -3.27246104       3.895678807       -0.3497123616     0.0114772291      
5270003420        0.02397702727     0.06524926421     4.917721775       1.103127554       
                  4.917721775       1.103127554       0.1500088595      0.2999343849      
5355003330        -0.05182300996    -0.03047905156    -1.685632236      -4.953332117      
                  -1.685632236      -4.953332117      -0.00214397969    -0.2790577087     
5440003240        -0.07509349888    -0.02798663805    -3.217893749      3.724024738       
                  -3.217893749      3.724024738       -0.3195471789     0.1321492211      
5525003150        -0.006877761351   0.05911378023     4.887877635       1.208782594       
                  4.887877635       1.208782594       0.2688539279      0.2016254316      
5610003060        -0.04374737611    0.01591202902     -1.62367244       -4.789855718      
                  -1.62367244       -4.789855718      -0.1366740647     -0.2679229488     
5695002970        -0.02231624912    -0.03385116613    -3.212089514      3.504025631       
                  -3.212089514      3.504025631       -0.2214066968     0.2529538209      
5780002880        -0.01407343791    0.02760004816     4.822197045       1.289658861       
                  4.822197045       1.289658861       0.3295390293      0.05807538271     
5865002790        -0.07586067753    0.06320528245     -1.51136414       -4.536180572      
                  -1.51136414       -4.536180572      -0.2722012017     -0.1855138191     
5950002700        0.02469758091     0.009996231694    -3.240712621      3.294805892       
                  -3.240712621      3.294805892       -0.08291078556    0.3330888099      
6035002610        -0.00965577467    -0.02959219696    4.599567343       1.191515866       
                  4.599567343       1.191515866       0.2987251806      -0.09747760731    
6120002520        -0.1385226326     0.06291878913     -1.382494124      -4.293076221      
                  -1.382494124      -4.293076221      -0.3585111359     -0.04565180251    
6205002430        0.05907929982     0.08745426973     -3.139585304      3.089870075       
                  -3.139585304      3.089870075       0.1020840075      0.3376411985      
6290002340        0.06390876284     -0.07860932209    4.374499015       1.073945807       
                  4.374499015       1.073945807       0.1951980253      -0.2479875209     
6375002250        -0.2056182558     0.001725864053    -1.270899053      -4.024423851      
                  -1.270899053      -4.024423851      -0.3762089355     0.129853098       
6460002160        0.02041190855     0.2004283536      -2.92110068       2.892184903       
                  -2.92110068       2.892184903       0.2709292956      0.2723921767      
6545002070        0.1739081625      -0.04871510678    3.990969777       0.9997108935      
                  3.990969777       0.9997108935      0.02887443954     -0.3201821857     
6630001980        -0.1966518803     -0.1125312602     -1.121199064      -3.738982051      
                  -1.121199064      -3.738982051      -0.2987331177     0.3022994787      
6715001890        -0.07687633849    0.2668809972      -2.645178942      2.580996205       
                  -2.645178942      2.580996205       0.3840606574      0.15627787        
6800001800        0.2597181155      0.06288896508     3.533944212       1.072782819       
                  3.533944212       1.072782819       -0.1314413529     -0.3089375478     
6885001710        -0.09417300827    -0.2377208609     -0.8109030319     -3.413431677      
                  -0.8109030319     -3.413431677      -0.1882368315     0.3882453875      
6970001620        -0.2105907325     0.2253193778      -2.573548777      2.184078013       
                  -2.573548777      2.184078013       0.4234235896      0.02363738004     
7055001530        0.255859205       0.2108328683      3.15702444        1.205054138       
                  3.15702444        1.205054138       -0.2570802933     -0.2711817762     
7140001440        0.08626051266     -0.294686321      -0.5338236824     -3.17008234       
                  -0.5338236824     -3.17008234       -0.06332767435    0.4540306868      
7225001350        -0.2946479422     0.08997253902     -2.531391101      1.868026946       
                  -2.531391101      1.868026946       0.4528311596      -0.1034632858     
7310001260        0.1643550486      0.3470059434      2.820301978       1.141013306       
                  2.820301978       1.141013306       -0.3586875343     -0.1852112657     
7395001170        0.2865762093      -0.2220375364     -0.243145565      -2.920198587      
                  -0.243145565      -2.920198587      0.07695751507     0.4821816149      
7480001080        -0.2948677884     -0.1153707801     -2.375180122      1.585471591       
                  -2.375180122      1.585471591       0.3949382246      -0.2371169197     
7565000990        -0.03600675087    0.3975390653      2.575765985       1.147241956       
                  2.575765985       1.147241956       -0.4251584399     -0.08501040318    
7650000900        0.4000131442      -0.0524241286     -0.05120247612    -2.580309389      
                  -0.05120247612    -2.580309389      0.21282628        0.4390209188      
7735000810        -0.1574833496     -0.3075430106     -2.274637845      1.327633114       
                  -2.274637845      1.327633114       0.3175435454      -0.3461895277     
7820000720        -0.2096744191     0.314285165       2.250072642       1.232161588       
                  2.250072642       1.232161588       -0.4062437651     0.02483575376     
7905000630        0.4125556966      0.1411794225      0.100948712       -2.280925769      
                  0.100948712       -2.280925769      0.3243380661      0.3626005254      
7990000540        0.06921531539     -0.3900789275     -2.197008182      0.9100366161      
                  -2.197008182      0.9100366161      0.2216870667      -0.4072564438     
8075000450        -0.3511135529     0.1169104713      1.885122514       1.426452103       
                  1.885122514       1.426452103       -0.3881035585     0.1187662439      
8160000360        0.294875238       0.3145730096      0.2559503723      -2.172707704      
                  0.2559503723      -2.172707704      0.3994174824      0.2802205145      
8245000270        0.2591892732      -0.3354389525     -2.027626088      0.6064780939      
                  -2.027626088      0.6064780939      0.1143735758      -0.4441680553     
8330000180        -0.3653378034     -0.1346655104     1.621901455       1.493136268       
                  1.621901455       1.493136268       -0.3432737911     0.1930253138      
8415000090        0.07630803023     0.3927846052      0.3875033154      -1.984467856      
                  0.3875033154      -1.984467856      0.4360023969      0.1673402066      
8500000000        0.3834401325      -0.1844226975     -1.824636834      0.4399704284      
                  -1.824636834      0.4399704284      -0.00422285196    -0.4607148352     
