! RsaToolbox (C) 2013 Rohde & Schwarz America
! 
! Number of points: 101
! Number of ports: 2
! Balanced ports?: 0
! 
! 
# Hz S RI R 50
9000              1.012181499       -0.02561320548    3.770768685e-05   -1.804776043e-05  
                  3.770768685e-05   -1.804776043e-05  1.017799016       -0.02317115839    
85008910          0.002772442038    0.1591846772      3.194625017       5.519894385       
                  3.194625017       5.519894385       -0.09227580957    -0.1155749505     
170008820         0.1425918607      -0.04417950241    3.194483705       -5.226803293      
                  3.194483705       -5.226803293      -0.02021230185    0.1716169138      
255008730         -0.1762397571     -0.07581832525    -6.06195504       -0.1654684393     
                  -6.06195504       -0.1654684393     0.07770827679     -0.02658569793    
340008640         -0.0633108342     0.1698223226      2.652375652       5.359598764       
                  2.652375652       5.359598764       -0.1263432491     -0.05399718916    
425008550         0.1596667058      -0.04651320532    3.393050638       -4.870666659      
                  3.393050638       -4.870666659      0.01669268781     0.1029895174      
510008460         -0.1018955209     -0.1636318488     -5.909063925      -0.6487058788     
                  -5.909063925      -0.6487058788     0.07070645266     -0.07953942687    
595008370         -0.1073966849     0.1400363691      2.227724442       5.430229652       
                  2.227724442       5.430229652       -0.08361775003    -0.01205004369    
680008280         0.204661617       0.03385922264     3.666684594       -4.577258491      
                  3.666684594       -4.577258491      0.09232841713     0.07524138729     
765008190         0.009468028312    -0.1640094378     -5.735104883      -1.103461064      
                  -5.735104883      -1.103461064      0.0602273237      -0.06046173781    
850008100         -0.1821648733     0.1117475747      1.870736982       5.527183651       
                  1.870736982       5.527183651       -0.07157029382    0.06505207717     
935008010         0.1457569873      0.1239527005      3.950423883       -4.232352602      
                  3.950423883       -4.232352602      0.1022613869      0.0388619517      
1020007920        0.07592919615     -0.1543616728     -5.591981821      -1.450110402      
                  -5.591981821      -1.450110402      -0.004532654914   -0.07531705385    
1105007830        -0.2253502758     -0.008235410088   1.479114072       5.619940141       
                  1.479114072       5.619940141       -0.06278320511    0.07516521912     
1190007740        0.07149241315     0.1406094252      4.199018713       -3.860817874      
                  4.199018713       -3.860817874      0.12442933        -0.04228202842    
1275007650        0.1644569299      -0.1089832034     -5.470644477      -1.831346437      
                  -5.470644477      -1.831346437      -0.0299516712     -0.08919711482    
1360007560        -0.1636212417     -0.1006435341     1.04637375        5.645657752       
                  1.04637375        5.645657752       -0.00556966148    0.1018162599      
1445007470        0.0005750658904   0.1421253418      4.415055884       -3.544221263      
                  4.415055884       -3.544221263      0.1471707718      -0.08822131299    
1530007380        0.1847421032      -0.0113468132     -5.309067192      -2.192057552      
                  -5.309067192      -2.192057552      -0.06931848286    -0.06440090063    
1615007290        -0.09439333555    -0.1240865301     0.6174183242      5.605140301       
                  0.6174183242      5.605140301       0.0231164686      0.1420137655      
1700007200        -0.08871938771    0.09763000711     4.672684703       -3.244051046      
                  4.672684703       -3.244051046      0.110904834       -0.1336211813     
1785007110        0.1286530199      0.03193673522     -5.065014842      -2.531780927      
                  -5.065014842      -2.531780927      -0.1319412512     -0.06385199589    
1870007020        -0.02169787476    -0.1364166988     0.2220018408      5.609302968       
                  0.2220018408      5.609302968       0.06601401596     0.1318475837      
1955006930        -0.1073644443     0.02152310452     4.879649857       -2.888491962      
                  4.879649857       -2.888491962      0.08951316729     -0.1939368258     
2040006840        0.08336293244     0.03939580307     -4.830331379      -2.817263823      
                  -4.830331379      -2.817263823      -0.1545957389     -0.041558505      
2125006750        0.03643872126     -0.09325292064    -0.1941706585     5.639865495       
                  -0.1941706585     5.639865495       0.1312019773      0.1365979571      
2210006660        -0.09271660226    -0.0008431783897  4.976903413       -2.532705291      
                  4.976903413       -2.532705291      0.0477943823      -0.2181410361     
2295006570        0.02955597307     0.03704490578     -4.596048894      -3.148742057      
                  -4.596048894      -3.148742057      -0.1860514332     0.01538092743     
2380006480        0.02924596067     -0.05308278849    -0.5581511398     5.577837977       
                  -0.5581511398     5.577837977       0.166796427       0.1137740753      
2465006390        -0.08820651728    -0.01657965897    5.055217915       -2.215297089      
                  5.055217915       -2.215297089      -0.01951171508    -0.2595179246     
2550006300        0.01161071929     0.0015387222      -4.289741518      -3.485103929      
                  -4.289741518      -3.485103929      -0.1908075508     0.06084767601     
2635006210        0.02599436942     -0.04537244004    -0.8986125914     5.520660322       
                  -0.8986125914     5.520660322       0.2134354859      0.06407323574     
2720006120        -0.08274270178    -0.0110499248     5.130060874       -1.842818901      
                  5.130060874       -1.842818901      -0.09071918479    -0.2643299184     
2805006030        0.01718901305     0.000330488478    -4.004166739      -3.735452695      
                  -4.004166739      -3.735452695      -0.1630944882     0.1235474148      
2890005940        0.02172506873     -0.03666864384    -1.240920511      5.395749781       
                  -1.240920511      5.395749781       0.2321174712      0.009054065162    
2975005850        -0.09535091151    -0.008468610194   5.162810642       -1.385329336      
                  5.162810642       -1.385329336      -0.1622501742     -0.2473764369     
3060005760        0.01817300211     0.01021583019     -3.706032473      -4.077673271      
                  -3.706032473      -4.077673271      -0.118978071      0.1688919643      
3145005670        0.03663312211     -0.0446300662     -1.634575197      5.242986876       
                  -1.634575197      5.242986876       0.2320394679      -0.07145736717    
3230005580        -0.1019698249     -0.03342510278    5.271809673       -0.9841655201     
                  5.271809673       -0.9841655201     -0.2271357756     -0.2080183795     
3315005490        0.01166991411     0.03180251601     -3.432931435      -4.303376488      
                  -3.432931435      -4.303376488      -0.04564603017    0.2026328676      
3400005400        0.06154256437     -0.02904586596    -1.991279727      5.07811644        
                  -1.991279727      5.07811644        0.2015361586      -0.1449757714     
3485005310        -0.09807431587    -0.06380644087    5.37337942        -0.6162635683     
                  5.37337942        -0.6162635683     -0.2824749442     -0.129606549      
3570005220        -0.02040503567    0.04959415462     -3.252071111      -4.495269907      
                  -3.252071111      -4.495269907      0.03299013627     0.2106520163      
3655005130        0.06905118799     0.004098536182    -2.18794993       4.943547546       
                  -2.18794993       4.943547546       0.1344594933      -0.2093560399     
3740005040        -0.0773605597     -0.09379608956    5.363768184       -0.258614126      
                  5.363768184       -0.258614126      -0.3118589689     -0.03981685106    
3825004950        -0.05894151472    0.03716550203     -2.978617904      -4.62880985       
                  -2.978617904      -4.62880985       0.1135258884      0.1759870362      
3910004860        0.06359238995     0.03774777209     -2.610085213      4.721897079       
                  -2.610085213      4.721897079       0.05035346165     -0.258804587      
3995004770        -0.03085037486    -0.1114287863     5.39699651        0.06297013731     
                  5.39699651        0.06297013731     -0.3053497458     0.06558221916     
4080004680        -0.08496859228    0.008186023852    -2.706526523      -4.801504284      
                  -2.706526523      -4.801504284      0.1905979954      0.1281326637      
4165004590        0.03965157973     0.07041886211     -2.871428046      4.584154806       
                  -2.871428046      4.584154806       -0.04630560694    -0.2714909779     
4250004500        0.01174396468     -0.08805586564    5.48515345        0.3085162751      
                  5.48515345        0.3085162751      -0.2656203339     0.1755846321      
4335004410        -0.1015676494     -0.02003237821    -2.448070624      -4.911476729      
                  -2.448070624      -4.911476729      0.2296650111      0.0445156941      
4420004320        -0.007620290842   0.08400113409     -3.075935078      4.469319954       
                  -3.075935078      4.469319954       -0.1640144107     -0.2508282332     
4505004230        0.03809773184     -0.05682857528    5.435031395       0.4899078609      
                  5.435031395       0.4899078609      -0.1966997633     0.2589040625      
4590004140        -0.10012742       -0.05186909146    -2.181949151      -4.948801278      
                  -2.181949151      -4.948801278      0.229574002       -0.05765860982    
4675004050        -0.04514662363    0.07075946159     -3.173632428      4.352215533       
                  -3.173632428      4.352215533       -0.255197386      -0.1914501956     
4760003960        0.05739387431     -0.01599882073    5.28579419        0.724707587       
                  5.28579419        0.724707587       -0.08697223022    0.3107655298      
4845003870        -0.07650650536    -0.06882334607    -1.934973215      -4.999916086      
                  -1.934973215      -4.999916086      0.2003426813      -0.1549378062     
4930003780        -0.07659570108    0.04092176093     -3.356560771      4.167887887       
                  -3.356560771      4.167887887       -0.3192812461     -0.0987512786     
5015003690        0.04970390789     0.03763697378     5.158034488       0.9656470669      
                  5.158034488       0.9656470669      0.03580079803     0.3346769616      
5100003600        -0.0520120285     -0.05643872863    -1.761419916      -5.069722403      
                  -1.761419916      -5.069722403      0.1196032535      -0.229335577      
5185003510        -0.09113784376    0.004204248931    -3.411629355      3.946177246       
                  -3.411629355      3.946177246       -0.3493669713     0.01155566167     
5270003420        0.0147850332      0.07163711212     5.022531435       1.196897122       
                  5.022531435       1.196897122       0.1503097665      0.2995872012      
5355003330        -0.04195281493    -0.02260697482    -1.646581283      -5.131818279      
                  -1.646581283      -5.131818279      -0.002024603893   -0.2788863084     
5440003240        -0.07169609184    -0.0393295439     -3.357804727      3.780465481       
                  -3.357804727      3.780465481       -0.3193571974     0.1321839936      
5525003150        -0.01828982082    0.06109603748     5.005668263       1.312468321       
                  5.005668263       1.312468321       0.2690215654      0.2011462891      
5610003060        -0.03858986006    0.02754191712     -1.590337097      -4.973644092      
                  -1.590337097      -4.973644092      -0.1368569728     -0.2674025907     
5695002970        -0.01415548575    -0.04300954993    -3.358454167      3.562973794       
                  -3.358454167      3.562973794       -0.2211005618     0.2529072077      
5780002880        -0.02609149244    0.02384902768     4.95683906        1.413651036       
                  4.95683906        1.413651036       0.3291870325      0.05771254596     
5865002790        -0.07630616779    0.075905897       -1.4894068        -4.711632102      
                  -1.4894068        -4.711632102      -0.2724338061     -0.1852868629     
5950002700        0.03592118116     0.004772298741    -3.39209389       3.355378748       
                  -3.39209389       3.355378748       -0.08267975613    0.3329451729      
6035002610        -0.01887635048    -0.0386100535     4.742880807       1.304586605       
                  4.742880807       1.304586605       0.2984608869      -0.09761685569    
6120002520        -0.1443376674     0.07379742527     -1.37313167       -4.454166544      
                  -1.37313167       -4.454166544      -0.3582664792     -0.04555868577    
6205002430        0.07113922731     0.08807200492     -3.279139289      3.149399689       
                  -3.279139289      3.149399689       0.1018845323      0.337418121       
6290002340        0.05995524401     -0.09047233139    4.518162222       1.165202626       
                  4.518162222       1.165202626       0.1947383537      -0.2480350133     
6375002250        -0.2144848703     0.00869030572     -1.273983353      -4.160204328      
                  -1.273983353      -4.160204328      -0.3764201645     0.1299386204      
6460002160        0.02949109979     0.2059116503      -3.033755642      2.950335559       
                  -3.033755642      2.950335559       0.2706997878      0.2722704335      
6545002070        0.1761073629      -0.05954012185    4.114775087       1.068112453       
                  4.114775087       1.068112453       0.02869934144     -0.320073125      
6630001980        -0.2067388687     -0.1107743812     -1.130291855      -3.853397885      
                  -1.130291855      -3.853397885      -0.2982839952     0.3021281184      
6715001890        -0.07171829009    0.2745756443      -2.731050761      2.633480507       
                  -2.731050761      2.633480507       0.3840817931      0.1558969393      
6800001800        0.2656078098      0.05535526529     3.628856744       1.125542304       
                  3.628856744       1.125542304       -0.1312929588     -0.3087205273     
6885001710        -0.1028774627     -0.2402354392     -0.8167827516     -3.505162754      
                  -0.8167827516     -3.505162754      -0.1886546436     0.3877252633      
6970001620        -0.2093119179     0.2333876661      -2.642378144      2.226047527       
                  -2.642378144      2.226047527       0.4232072061      0.02328604818     
7055001530        0.2627716531      0.2076291632      3.224468671       1.245461007       
                  3.224468671       1.245461007       -0.2569658813     -0.2710368726     
7140001440        0.08175167151     -0.2996178559     -0.5386747926     -3.230944192      
                  -0.5386747926     -3.230944192      -0.06340166016    0.4535619694      
7225001350        -0.296525691      0.09614330692     -2.580629907      1.897751457       
                  -2.580629907      1.897751457       0.4526895315      -0.1036838358     
7310001260        0.1699610222      0.3474638019      2.866731721       1.163102123       
                  2.866731721       1.163102123       -0.3586033755     -0.1852446583     
7395001170        0.2850095384      -0.2276197503     -0.2453246229     -2.966452181      
                  -0.2453246229     -2.966452181      0.07743544707     0.4818006093      
7480001080        -0.2984825713     -0.1110346437     -2.417626859      1.611477424       
                  -2.417626859      1.611477424       0.3946911788      -0.2369840084     
7565000990        -0.03147976249    0.3997778219      2.616389245       1.166250191       
                  2.616389245       1.166250191       -0.4248782316     -0.08414699204    
7650000900        0.401020961       -0.05649211438    -0.05312554564    -2.610967561      
                  -0.05312554564    -2.610967561      0.2130223404      0.4387485953      
7735000810        -0.1611705242     -0.3065264329     -2.298318217      1.346969435       
                  -2.298318217      1.346969435       0.3174470269      -0.3463432513     
7820000720        -0.2069247678     0.3168522599      2.277860089       1.242153615       
                  2.277860089       1.242153615       -0.4058765645     0.02510441053     
7905000630        0.4143914189      0.1391168932      0.09711336043     -2.300799323      
                  0.09711336043     -2.300799323      0.3246621986      0.3624242058      
7990000540        0.06640412337     -0.3902522206     -2.216733534      0.9253600126      
                  -2.216733534      0.9253600126      0.2217079038      -0.4074285768     
8075000450        -0.3504981726     0.119991889       1.908046379       1.434286546       
                  1.908046379       1.434286546       -0.3881492134     0.1190947677      
8160000360        0.2969501712      0.3136207262      0.2534986202      -2.190539361      
                  0.2534986202      -2.190539361      0.3992768175      0.2805406815      
8245000270        0.2586610253      -0.337123564      -2.040519167      0.6151482029      
                  -2.040519167      0.6151482029      0.1144596037      -0.4441350795     
8330000180        -0.3664596678     -0.1323519286     1.637600132       1.500873209       
                  1.637600132       1.500873209       -0.3434090852     0.1935325587      
8415000090        0.07849250989     0.3931698905      0.3851396368      -1.99797244       
                  0.3851396368      -1.99797244       0.4359685366      0.1668961819      
8500000000        0.3828720407      -0.1861474979     -1.831904127      0.4463927271      
                  -1.831904127      0.4463927271      -0.004563930701   -0.46062943       
