! RsaToolbox (C) 2013 Rohde & Schwarz America
! 
! Number of points: 101
! Number of ports: 2
! Balanced ports?: 0
! 
! 
# Hz S RI R 50
9000              0.9963502134      -0.01358540148    7.366837885e-05   -1.718428488e-05  
                  7.366837885e-05   -1.718428488e-05  1.006246051       -0.02082297224    
85008910          -0.003998356666   0.1437819709      3.127812707       5.338111447       
                  3.127812707       5.338111447       -0.09226528982    -0.1162383538     
170008820         0.1313335732      -0.03380783364    3.111376862       -5.112909481      
                  3.111376862       -5.112909481      -0.02091576916    0.1718440326      
255008730         -0.1658519338     -0.07158882426    -5.959384406      -0.1448648593     
                  -5.959384406      -0.1448648593     0.07777073636     -0.02666239627    
340008640         -0.06326840505    0.1574195749      2.621783222       5.251274409       
                  2.621783222       5.251274409       -0.1269140392     -0.05416314692    
425008550         0.1482160342      -0.04295930424    3.307114167       -4.801838246      
                  3.307114167       -4.801838246      0.01643462041     0.102910879       
510008460         -0.09478618155    -0.1549348557     -5.814604412      -0.5973915217     
                  -5.814604412      -0.5973915217     0.07087047003     -0.07984824       
595008370         -0.1014439882     0.1288390129      2.219239284       5.319558745       
                  2.219239284       5.319558745       -0.08405995248    -0.01231256398    
680008280         0.1939535131      0.03256261861     3.570312981       -4.539791837      
                  3.570312981       -4.539791837      0.09210030725     0.07562690323     
765008190         0.0121343975      -0.1515505292     -5.639950791      -1.045543943      
                  -5.639950791      -1.045543943      0.0603575185      -0.06080432399    
850008100         -0.1734383685     0.1053135924      1.902446292       5.421971806       
                  1.902446292       5.421971806       -0.07197656004    0.0649743155      
935008010         0.1362746451      0.1169856907      3.848530117       -4.2007552        
                  3.848530117       -4.2007552        0.1021356538      0.03897274012     
1020007920        0.07228662551     -0.1424860189     -5.508177093      -1.37722089       
                  -5.508177093      -1.37722089       -0.004870462678   -0.07593602816    
1105007830        -0.2153103379     -0.009677558596   1.545993552       5.501147259       
                  1.545993552       5.501147259       -0.0634675353     0.07533690774     
1190007740        0.06588536957     0.128983438       4.08950943        -3.826539356      
                  4.08950943        -3.826539356      0.1243848664      -0.04239257993    
1275007650        0.1564366775      -0.1004398216     -5.404722898      -1.727087621      
                  -5.404722898      -1.727087621      -0.03021250363    -0.08929471768    
1360007560        -0.1531001187     -0.09567885341    1.110384835       5.533500414       
                  1.110384835       5.533500414       -0.005916593534   0.1020221451      
1445007470        0.001570490901    0.1281705841      4.290794685       -3.525796244      
                  4.290794685       -3.525796244      0.1473555096      -0.08828259245    
1530007380        0.1715732285      -0.008089537195   -5.249354864      -2.052042101      
                  -5.249354864      -2.052042101      -0.06952651396    -0.0647529109     
1615007290        -0.08475939051    -0.1091128422     0.7089497955      5.464104016       
                  0.7089497955      5.464104016       0.0229323963      0.1425007463      
1700007200        -0.07880568121    0.0839775623      4.510604384       -3.258071305      
                  4.510604384       -3.258071305      0.1110467628      -0.1335265264     
1785007110        0.1107172695      0.02651332774     -4.998708591      -2.370753913      
                  -4.998708591      -2.370753913      -0.1323050628     -0.06435960385    
1870007020        -0.02122751263    -0.1158367288     0.3391628595      5.467147802       
                  0.3391628595      5.467147802       0.06548924102     0.1325036949      
1955006930        -0.08881547966    0.01402578148     4.693484362       -2.932473725      
                  4.693484362       -2.932473725      0.08942995959     -0.1941248689     
2040006840        0.06695537268     0.02238859562     -4.766527751      -2.620868022      
                  -4.766527751      -2.620868022      -0.1552483892     -0.04189675705    
2125006750        0.0254108464      -0.07290340005    -0.03594624172    5.491025214       
                  -0.03594624172    5.491025214       0.1308869622      0.1372515134      
2210006660        -0.06724199801    0.002122868225    4.751522565       -2.605412832      
                  4.751522565       -2.605412832      0.04815052305     -0.2185925895     
2295006570        0.02243493923     0.009708143312    -4.537370575      -2.906238837      
                  -4.537370575      -2.906238837      -0.1867186565     0.01505078669     
2380006480        0.004611294973    -0.0366888683     -0.3602029555     5.402684486       
                  -0.3602029555     5.402684486       0.1669145604      0.1141890004      
2465006390        -0.06181770684    0.001625241387    4.785718854       -2.318371299      
                  4.785718854       -2.318371299      -0.01947688658    -0.2602298485     
2550006300        0.01761454757     -0.03079670306    -4.228690004      -3.210467695      
                  -4.228690004      -3.210467695      -0.191505506      0.060368712       
2635006210        -0.01145535259    -0.04206394983    -0.6133139442     5.314381304       
                  -0.6133139442     5.314381304       0.2137376732      0.06416734317     
2720006120        -0.06432374693    0.02221479391     4.828706849       -1.978231273      
                  4.828706849       -1.978231273      -0.09052006506    -0.2653425901     
2805006030        0.04175237564     -0.02998016065    -3.967044249      -3.390044         
                  -3.967044249      -3.390044         -0.1634573931     0.123081357       
2890005940        -0.02222010283    -0.05602504059    -0.8608677973     5.151021525       
                  -0.8608677973     5.151021525       0.2325634343      0.008965984815    
2975005850        -0.09265528219    0.0368967321      4.818343314       -1.549304644      
                  4.818343314       -1.549304644      -0.1621826377     -0.2486245385     
3060005760        0.05987618656     -0.00700007192    -3.703414642      -3.663127665      
                  -3.703414642      -3.663127665      -0.1193078129     0.1685361566      
3145005670        0.002780445014    -0.08227725442    -1.227676394      5.007186952       
                  -1.227676394      5.007186952       0.2324595946      -0.0717802651     
3230005580        -0.1205425483     0.01075362427     4.908257909       -1.18508202       
                  4.908257909       -1.18508202       -0.2268592898     -0.2088111464     
3315005490        0.066442063       0.03814649817     -3.478926184      -3.775158415      
                  -3.478926184      -3.775158415      -0.04606968213    0.2027570058      
3400005400        0.04546460813     -0.08960963108    -1.464826644      4.815380117       
                  -1.464826644      4.815380117       0.2024125417      -0.1451844767     
3485005310        -0.1458011404     -0.02600326057    4.912444464       -0.9216844271     
                  4.912444464       -0.9216844271     -0.282004968      -0.1304252679     
3570005220        0.03913531471     0.08926908        -3.332427396      -3.807252174      
                  -3.332427396      -3.807252174      0.03369815702     0.2112201789      
3655005130        0.0835731822      -0.07084631368    -1.54752555       4.637332001       
                  -1.54752555       4.637332001       0.1357370462      -0.2087838109     
3740005040        -0.1486736495     -0.07943422529    4.814737106       -0.6764646412     
                  4.814737106       -0.6764646412     -0.3118707842     -0.04003581168    
3825004950        -0.01498245382    0.1170256256      -3.092826127      -3.74495323       
                  -3.092826127      -3.74495323       0.1140490674      0.1770753441      
3910004860        0.1232811923      -0.03675134622    -1.788264757      4.387211532       
                  -1.788264757      4.387211532       0.05175733373     -0.2590588269     
3995004770        -0.1219607853     -0.1377999754     4.668675606       -0.5074150334     
                  4.668675606       -0.5074150334     -0.3054178509     0.06537109819     
4080004680        -0.07963011514    0.1169670834      -2.816709354      -3.76054109       
                  -2.816709354      -3.76054109       0.1917018044      0.1287475853      
4165004590        0.1337754243      0.02319218376     -1.985144916      4.208599008       
                  -1.985144916      4.208599008       -0.04589132817    -0.2726126557     
4250004500        -0.07004282915    -0.1606889814     4.622039703       -0.3202109938     
                  4.622039703       -0.3202109938     -0.2657166022     0.1758898566      
4335004410        -0.1455621992     0.09038237018     -2.565192546      -3.775737341      
                  -2.565192546      -3.775737341      0.2308196371      0.04495146292     
4420004320        0.1089875489      0.0801342301      -2.065870321      4.043182335       
                  -2.065870321      4.043182335       -0.1636785366     -0.2513984538     
4505004230        -0.01053034842    -0.1666137659     4.467186464       -0.2047790184     
                  4.467186464       -0.2047790184     -0.1970798797     0.2593190656      
4590004140        -0.1903212989     0.03515678396     -2.312872387      -3.729594035      
                  -2.312872387      -3.729594035      0.2300601348      -0.05740222355    
4675004050        0.06842772426     0.1206368974      -2.073874822      3.85090058        
                  -2.073874822      3.85090058        -0.2556099827     -0.1917998862     
4760003960        0.06035215561     -0.1427289476     4.284259618       -0.01415926886    
                  4.284259618       -0.01415926886    -0.08705550115    0.3115750733      
4845003870        -0.1977505236     -0.02554750242    -2.066644117      -3.694724057      
                  -2.066644117      -3.694724057      0.2006651364      -0.154810997      
4930003780        0.007131844308    0.1417462263      -2.173961602      3.605713458       
                  -2.173961602      3.605713458       -0.3201128878     -0.1001042519     
5015003690        0.1089310176      -0.0835294005     4.117528525       0.194529615       
                  4.117528525       0.194529615       0.03512000804     0.3353198426      
5100003600        -0.1849834739     -0.07218484785    -1.884824175      -3.627654902      
                  -1.884824175      -3.627654902      0.1198463781      -0.2294663656     
5185003510        -0.05764685483    0.13461886        -2.213051275      3.342873653       
                  -2.213051275      3.342873653       -0.3505017356     0.0109793183      
5270003420        0.1195344203      -0.01545088923    3.959451553       0.4171675666      
                  3.959451553       0.4171675666      0.149127932       0.30052474        
5355003330        -0.1570903681     -0.09941661152    -1.750763622      -3.56265995       
                  -1.750763622      -3.56265995       -0.001950513181   -0.2795823122     
5440003240        -0.09537785263    0.09294885193     -2.216154172      3.167350857       
                  -2.216154172      3.167350857       -0.3203215098     0.1318023695      
5525003150        0.1107579334      0.0283119512      3.8767135         0.5207591923      
                  3.8767135         0.5207591923      0.2690351005      0.2021694945      
5610003060        -0.1066236721     -0.09016798854    -1.643176607      -3.459520673      
                  -1.643176607      -3.459520673      -0.136398254      -0.2684147966     
5695002970        -0.09059948478    0.06625049445     -2.228238392      2.94647562        
                  -2.228238392      2.94647562        -0.2220230894     0.2528204383      
5780002880        0.1020895833      0.05393284425     3.749160735       0.6050781524      
                  3.749160735       0.6050781524      0.3299445884      0.05867927886     
5865002790        -0.08660480108    -0.0567542451     -1.477447393      -3.323705555      
                  -1.477447393      -3.323705555      -0.2719134032     -0.1861425596     
5950002700        -0.07574535012    0.06974537673     -2.258394118      2.747733016       
                  -2.258394118      2.747733016       -0.08325080343    0.3335552698      
6035002610        0.079053025       0.04464937514     3.535345034       0.5947487355      
                  3.535345034       0.5947487355      0.2996382343      -0.09673998903    
6120002520        -0.09671562365    -0.04637848496    -1.314826947      -3.183331832      
                  -1.314826947      -3.183331832      -0.3582658314     -0.04620216237    
6205002430        -0.05280897203    0.09520711809     -2.21456695       2.578813407       
                  -2.21456695       2.578813407       0.1022692028      0.3384309568      
6290002340        0.1074899554      0.02366205748     3.36037561        0.5760879307      
                  3.36037561        0.5760879307      0.1965142685      -0.2478503407     
6375002250        -0.1276575956     -0.07631475183    -1.184585395      -3.052632386      
                  -1.184585395      -3.052632386      -0.3762727806     0.1291646338      
6460002160        -0.07495764359    0.1631622447      -2.122394324      2.42750892        
                  -2.122394324      2.42750892        0.2712548524      0.2729884324      
6545002070        0.1690164313      0.05496993759     3.110494211       0.5842381399      
                  3.110494211       0.5842381399      0.02964948749     -0.320584874      
6630001980        -0.1003627546     -0.1478335733     -1.036324473      -2.886439982      
                  -1.036324473      -2.886439982      -0.2992508746     0.3023585196      
6715001890        -0.1417055099     0.199342398       -1.981411646      2.176895989       
                  -1.981411646      2.176895989       0.3843468314      0.1569601755      
6800001800        0.2163609196      0.1446661611      2.819920139       0.6877758033      
                  2.819920139       0.6877758033      -0.1311832765     -0.3091921646     
6885001710        -0.00274711217    -0.2283075786     -0.7720736956     -2.695023023      
                  -0.7720736956     -2.695023023      -0.1887200048     0.3886008452      
6970001620        -0.2380523241     0.1465125931      -2.006837912      1.877061856       
                  -2.006837912      1.877061856       0.4238346026      0.02429126158     
7055001530        0.1948343272      0.2583071265      2.61140512        0.8467373404      
                  2.61140512        0.8467373404      -0.2572908604     -0.2719316675     
7140001440        0.1452717335      -0.2574629999     -0.5475158245     -2.631420935      
                  -0.5475158245     -2.631420935      -0.06481594905    0.4544693278      
7225001350        -0.2891047342     0.02099936581     -2.061268194      1.652268745       
                  -2.061268194      1.652268745       0.4531803774      -0.1028126188     
7310001260        0.1086039534      0.3595847722      2.432103325       0.8741805346      
                  2.432103325       0.8741805346      -0.3592565236     -0.1853093248     
7395001170        0.3162594833      -0.1723770118     -0.2904564685     -2.483697473      
                  -0.2904564685     -2.483697473      0.0767187954      0.4828830772      
7480001080        -0.2615714325     -0.1696569852     -1.966752653      1.402822166       
                  -1.966752653      1.402822166       0.3952840989      -0.2369298909     
7565000990        -0.09018700032    0.3860409719      2.219053745       0.9086691857      
                  2.219053745       0.9086691857      -0.4257655394     -0.08484779267    
7650000900        0.4048818699      -0.009410811971   -0.1034395919     -2.275527799      
                  -0.1034395919     -2.275527799      0.2123851129      0.4396541597      
7735000810        -0.1234818054     -0.3284724683     -2.004543378      1.218693652       
                  -2.004543378      1.218693652       0.3178183675      -0.3465407411     
7820000720        -0.2419231776     0.2918174562      2.020252889       1.058851869       
                  2.020252889       1.058851869       -0.4070504382     0.02445195617     
7905000630        0.4033631016      0.1692214624      0.05833834858     -2.080809005      
                  0.05833834858     -2.080809005      0.3241858253      0.3632898018      
7990000540        0.1015875306      -0.3931490467     -1.97174889       0.8443698496      
                  -1.97174889       0.8443698496      0.2219319722      -0.4079249923     
8075000450        -0.366740849      0.08802406627     1.72002472        1.275378153       
                  1.72002472        1.275378153       -0.3889783922     0.1185992735      
8160000360        0.2766787755      0.3351131887      0.2105392813      -1.992781893      
                  0.2105392813      -1.992781893      0.3997215435      0.2804952465      
8245000270        0.2805443764      -0.3269018183     -1.874092429      0.5834084576      
                  -1.874092429      0.5834084576      0.1147083537      -0.444936421      
8330000180        -0.3647861253     -0.1594630601     1.512612088       1.365837931       
                  1.512612088       1.365837931       -0.3437403186     0.1927571305      
8415000090        0.05589798609     0.4008178359      0.3438281797      -1.850970834      
                  0.3438281797      -1.850970834      0.4365313671      0.1675420791      
8500000000        0.394918368       -0.1721008131     -1.721079511      0.4304122834      
                  -1.721079511      0.4304122834      -0.003948492845   -0.4614906481     
