! RsaToolbox (C) 2013 Rohde & Schwarz America
! 
! Number of points: 101
! Number of ports: 2
! Balanced ports?: 0
! 
! 
# Hz S RI R 50
9000              0.97297089        -0.005833729063   6.748444929e-05   -1.477043245e-05  
                  6.748444929e-05   -1.477043245e-05  0.9884638762      -0.01477248778    
85008910          -0.1115826787     -0.1449986914     1.660057499       2.599368477       
                  1.660057499       2.599368477       -0.09237682015    -0.1174508967     
170008820         -0.05139432657    0.1439662964      1.580623693       -2.970518452      
                  1.580623693       -2.970518452      -0.02143025173    0.1720465103      
255008730         0.07322533143     0.0147093866      -3.322470855      0.2263028878      
                  -3.322470855      0.2263028878      0.07809452136     -0.02683232239    
340008640         -0.06635844095    -0.07391100192    1.815117162       2.876601952       
                  1.815117162       2.876601952       -0.1273585743     -0.05474035923    
425008550         -0.06514111185    0.05098813095     1.553273608       -2.941154012      
                  1.553273608       -2.941154012      0.01615278559     0.10309734        
510008460         0.06887159519     0.003908350677    -3.360019295      0.05965521954     
                  -3.360019295      0.05965521954     0.07116483802     -0.08027945888    
595008370         -0.001502145956   -0.07631893555    1.734514946       3.008865649       
                  1.734514946       3.008865649       -0.08458269864    -0.01253700237    
680008280         -0.03060684234    0.04562147096     1.678306805       -2.885145397      
                  1.678306805       -2.885145397      0.09225264531     0.07606020063     
765008190         0.05792016412     0.08715257247     -3.467996205      -0.04388561019    
                  -3.467996205      -0.04388561019    0.06059124607     -0.06117178158    
850008100         -0.01246623455    -0.05169679677    1.582499536       2.978558712       
                  1.582499536       2.978558712       -0.07250296239    0.06494975725     
935008010         -0.06180114877    -0.007138822607   1.808606229       -2.933265318      
                  1.808606229       -2.933265318      0.102482443       0.03899616985     
1020007920        -0.00638830573    0.1036037288      -3.452883158      -0.08416554328    
                  -3.452883158      -0.08416554328    -0.005114176947   -0.07670724412    
1105007830        -0.006367544506   -0.07440587684    1.479118792       2.979226465       
                  1.479118792       2.979226465       -0.06395055298    0.07535711137     
1190007740        -0.03235955486    -0.1404398727     1.869579097       -2.909616497      
                  1.869579097       -2.909616497      0.1245975528      -0.04230828856    
1275007650        0.004293849997    0.08406406524     -3.413051699      -0.2969497675     
                  -3.413051699      -0.2969497675     -0.03068778749    -0.08966896085    
1360007560        0.07572260743     -0.0150148055     1.416672115       3.088682272       
                  1.416672115       3.088682272       -0.006178666774   0.1025146408      
1445007470        0.04537026519     -0.1677589145     1.94919487        -2.854669724      
                  1.94919487        -2.854669724      0.1477846035      -0.08840729173    
1530007380        -0.07204967821    0.08060531533     -3.272303859      -0.3309025375     
                  -3.272303859      -0.3309025375     -0.07020371135    -0.0651727877     
1615007290        0.09380497579     0.1347116891      1.404096539       2.984490891       
                  1.404096539       2.984490891       0.02266660799     0.1429679035      
1700007200        0.08955169984     -0.1677845809     1.837216419       -2.693477572      
                  1.837216419       -2.693477572      0.1113491306      -0.1340299836     
1785007110        -0.1939045564     -0.05146410557    -3.252466967      -0.3205621255     
                  -3.252466967      -0.3205621255     -0.1332296802     -0.064670112      
1870007020        0.01188403688     0.2018797919      1.344653582       3.017560041       
                  1.344653582       3.017560041       0.06543542238     0.1330233534      
1955006930        0.1924311327      -0.1297307116     1.882553445       -2.650973121      
                  1.882553445       -2.650973121      0.08969066316     -0.1948714085     
2040006840        -0.1776920943     -0.2130898007     -3.255291813      -0.3965127567     
                  -3.255291813      -0.3965127567     -0.1561758542     -0.04198505525    
2125006750        -0.1032336901     0.2332037851      1.285018633       2.970757204       
                  1.285018633       2.970757204       0.1312444253      0.1376294446      
2210006660        0.2835897539      0.002212723243    1.871689055       -2.507521555      
                  1.871689055       -2.507521555      0.04824140751     -0.2194439123     
2295006570        -0.09362028639    -0.3202325927     -3.092562401      -0.4555294127     
                  -3.092562401      -0.4555294127     -0.1873586719     0.0150124162      
2380006480        -0.2519797236     0.1778611597      1.115703211       2.959844558       
                  1.115703211       2.959844558       0.1675223138      0.114152981       
2465006390        0.2637655453      0.1646627119      1.889322657       -2.337459955      
                  1.889322657       -2.337459955      -0.01969588836    -0.2612821491     
2550006300        0.06466604167     -0.3677411398     -3.013082774      -0.6652372238     
                  -3.013082774      -0.6652372238     -0.1917640943     0.06089404008     
2635006210        -0.330996685      0.03580677547     0.9002015202      2.92727308        
                  0.9002015202      2.92727308        0.2144767447      0.06381104838     
2720006120        0.1504391955      0.3081060381      2.005200923       -2.154826216      
                  2.005200923       -2.154826216      -0.09072386285    -0.2662424825     
2805006030        0.2265318969      -0.3089114316     -2.834591506      -0.7813327357     
                  -2.834591506      -0.7813327357     -0.1635572569     0.1231456492      
2890005940        -0.3391946064     -0.1304629284     0.7078510681      2.809571454       
                  0.7078510681      2.809571454       0.2335791338      0.008371628848    
2975005850        -0.03592091277    0.3782702498      2.123176289       -1.844650304      
                  2.123176289       -1.844650304      -0.1622528575     -0.2496922386     
3060005760        0.3370605822      -0.1562604578     -2.738152772      -1.080840647      
                  -2.738152772      -1.080840647      -0.1191412789     0.1686868043      
3145005670        -0.2422998165     -0.2858814053     0.3961262047      2.842795481       
                  0.3961262047      2.842795481       0.2333904065      -0.07246149685    
3230005580        -0.2201388774     0.3138638774      2.373863251       -1.593745783      
                  2.373863251       -1.593745783      -0.2269907625     -0.2092825223     
3315005490        0.3702454887      0.02033861766     -2.534286073      -1.228060823      
                  -2.534286073      -1.228060823      -0.04554152363    0.2032156524      
3400005400        -0.08526630121    -0.3663352691     0.1056732071      2.79063714        
                  0.1056732071      2.79063714        0.2034806434      -0.1456028343     
3485005310        -0.3525316628     0.1887350549      2.435713509       -1.350071614      
                  2.435713509       -1.350071614      -0.2819565507     -0.1307345934     
3570005220        0.3130739824      0.1931015665      -2.349476974      -1.359575061      
                  -2.349476974      -1.359575061      0.03436707614     0.2122446761      
3655005130        0.07601949148     -0.3651675798     -0.07406360712    2.654171295       
                  -0.07406360712    2.654171295       0.1369131486      -0.2083848684     
3740005040        -0.4073672129     0.02337281123     2.385572642       -1.115068839      
                  2.385572642       -1.115068839      -0.3115939776     -0.04008426552    
3825004950        0.1776710343      0.3121901044      -2.10875301       -1.471735704      
                  -2.10875301       -1.471735704      0.1149635893      0.1793336034      
3910004860        0.2371977692      -0.2876961562     -0.3170895959     2.532893699       
                  -0.3170895959     2.532893699       0.05392794976     -0.2583131973     
3995004770        -0.3802415814     -0.1528361051     2.342132935       -0.8857126282     
                  2.342132935       -0.8857126282     -0.3058986281     0.06620528674     
4080004680        0.001249378177    0.3592229592      -1.916019725      -1.616243201      
                  -1.916019725      -1.616243201      0.1945643998      0.1286565337      
4165004590        0.3320328617      -0.1453102342     -0.5260910399     2.490990513       
                  -0.5260910399     2.490990513       -0.04654044112    -0.2763645387     
4250004500        -0.2822498934     -0.2778218043     2.391897385       -0.6822871386     
                  2.391897385       -0.6822871386     -0.2644276381     0.17722267        
4335004410        -0.1787189168     0.3279734347      -1.739590872      -1.722125357      
                  -1.739590872      -1.722125357      0.2329297283      0.04437941242     
4420004320        0.3405591724      0.02411396567     -0.71820641       2.419459355       
                  -0.71820641       2.419459355       -0.1639830911     -0.2524354149     
4505004230        -0.1399183838     -0.3505953361     2.378302992       -0.5199333615     
                  2.378302992       -0.5199333615     -0.1972110413     0.2603484618      
4590004140        -0.3117277526     0.2196043997      -1.551847427      -1.792402786      
                  -1.551847427      -1.792402786      0.2310398129      -0.05760101509    
4675004050        0.2842134597      0.1678990504      -0.8264216974     2.25903708        
                  -0.8264216974     2.25903708        -0.2564220215     -0.192398249      
4760003960        0.02511963005     -0.3569653915     2.2971232         -0.3369654692     
                  2.2971232         -0.3369654692     -0.08771308749    0.3123934502      
4845003870        -0.3721240424     0.07410058942     -1.365865625      -1.859973545      
                  -1.365865625      -1.859973545      0.2014081539      -0.1550195426     
4930003780        0.1587079109      0.2743556307      -0.9988781896     2.129706538       
                  -0.9988781896     2.129706538       -0.3215821036     -0.1006559988     
5015003690        0.1675144996      -0.2834784479     2.239856025       -0.1423352243     
                  2.239856025       -0.1423352243     0.03552830335     0.3369432102      
5100003600        -0.3699135398     -0.06625192169    -1.200137143      -1.862157161      
                  -1.200137143      -1.862157161      0.1200439117      -0.2302084        
5185003510        0.01104800889     0.3152118257      -1.113247807      1.951451521       
                  -1.113247807      1.951451521       -0.3520219769     0.01068499278     
5270003420        0.2556912603      -0.1537941475     2.227299298       0.08073333164     
                  2.227299298       0.08073333164     0.1489344842      0.3020664864      
5355003330        -0.3124816664     -0.1760874349     -1.066258411      -1.881521651      
                  -1.066258411      -1.881521651      -0.001619436004   -0.281019728      
5440003240        -0.1125087874     0.2831176027      -1.190765989      1.850664265       
                  -1.190765989      1.850664265       -0.3219712005     0.1314249349      
5525003150        0.2802412506      -0.02460676865    2.204437655       0.1983576151      
                  2.204437655       0.1983576151      0.2692877527      0.2034855122      
5610003060        -0.2064301386     -0.2282271257     -0.9917250967     -1.89957519       
                  -0.9917250967     -1.89957519       -0.1357229135     -0.2697925277     
5695002970        -0.1857479489     0.2209453553      -1.243207643      1.72036804        
                  -1.243207643      1.72036804        -0.2233589284     0.2526819567      
5780002880        0.2616058322      0.08815082115     2.146090388       0.3022729834      
                  2.146090388       0.3022729834      0.3306720078      0.06043038228     
5865002790        -0.1132256655     -0.2333690338     -0.8478934191     -1.857234806      
                  -0.8478934191     -1.857234806      -0.2710709124     -0.1876647184     
5950002700        -0.2229217685     0.1608662314      -1.283531286      1.589172332       
                  -1.283531286      1.589172332       -0.08477935267    0.3346145489      
6035002610        0.2019185528      0.1495981356      2.026972938       0.3533764354      
                  2.026972938       0.3533764354      0.301367481       -0.09460194374    
6120002520        -0.03596927257    -0.2147111113     -0.7301328757     -1.834658542      
                  -0.7301328757     -1.834658542      -0.3577025052     -0.04759466804    
6205002430        -0.2223038257     0.1089913402      -1.292920529      1.500031579       
                  -1.292920529      1.500031579       0.1022388841      0.340350292       
6290002340        0.1683486495      0.1774819336      1.932076864       0.3850632003      
                  1.932076864       0.3850632003      0.1989757272      -0.2471974018     
6375002250        0.003936206361    -0.2048939043     -0.6342217906     -1.798877706      
                  -0.6342217906     -1.798877706      -0.3765764947     0.1275337647      
6460002160        -0.2347330562     0.09881488169     -1.275043234      1.416050053       
                  -1.275043234      1.416050053       0.2715434416      0.2742174077      
6545002070        0.1557287817      0.2214132286      1.816065512       0.4073785911      
                  1.816065512       0.4073785911      0.03115756407     -0.321153176      
6630001980        0.07341019871     -0.2067806616     -0.5338303441     -1.719616666      
                  -0.5338303441     -1.719616666      -0.3003569253     0.3021568246      
6715001890        -0.2595406106     0.07253081746     -1.219201015      1.267930013       
                  -1.219201015      1.267930013       0.384547258       0.1582467592      
6800001800        0.1352234497      0.2868618451      1.663813836       0.4661781943      
                  1.663813836       0.4661781943      -0.1304569896     -0.3097034272     
6885001710        0.1737424053      -0.2043537834     -0.3844290759     -1.632742207      
                  -0.3844290759     -1.632742207      -0.1898784471     0.3889617536      
6970001620        -0.289118169      -0.02004950936    -1.255827609      1.093733103       
                  -1.255827609      1.093733103       0.4242354428      0.02574183197     
7055001530        0.06473338982     0.3519259746      1.570188249       0.556086686       
                  1.570188249       0.556086686       -0.257308953      -0.2724140141     
7140001440        0.2870755474      -0.1595799333     -0.2781581231     -1.622105974      
                  -0.2781581231     -1.622105974      -0.06512498757    0.4551157918      
7225001350        -0.2654595556     -0.1483695448     -1.296698303      0.9724739527      
                  -1.296698303      0.9724739527      0.4535894114      -0.1017536155     
7310001260        -0.04409564722    0.3863483077      1.48735973        0.570073005       
                  1.48735973        0.570073005       -0.3596790544     -0.1861199075     
7395001170        0.3923229042      -0.03074856791    -0.1376620385     -1.541814562      
                  -0.1376620385     -1.541814562      0.07568235118     0.4831101405      
7480001080        -0.1678612007     -0.3004998822     -1.264804004      0.8342546306      
                  -1.264804004      0.8342546306      0.3956635357      -0.2365967877     
7565000990        -0.23447343       0.3443203731      1.36939682        0.6154820302      
                  1.36939682        0.6154820302      -0.4267793474     -0.0860241294     
7650000900        0.4146095229      0.1414757523      -0.04251851337    -1.439934689      
                  -0.04251851337    -1.439934689      0.2115443146      0.440497919       
7735000810        0.01451168064     -0.3958971967     -1.294781764      0.7351014316      
                  -1.294781764      0.7351014316      0.31835153        -0.3470643041     
7820000720        -0.3528779573     0.196392249       1.276265272       0.7171391903      
                  1.276265272       0.7171391903      -0.4084845987     0.0234791195      
7905000630        0.3529256119      0.2990148748      0.05630922745     -1.349539676      
                  0.05630922745     -1.349539676      0.3238725522      0.3642949111      
7990000540        0.2383344133      -0.3927402141     -1.297549963      0.5076711762      
                  -1.297549963      0.5076711762      0.2223504187      -0.4093147872     
8075000450        -0.4213243124     -0.04304703378    1.097616101       0.8802132157      
                  1.097616101       0.8802132157      -0.3905526297     0.1181558093      
8160000360        0.1800490826      0.432167527       0.1721907514      -1.299247865      
                  0.1721907514      -1.299247865      0.4001178907      0.280834881       
8245000270        0.3930816461      -0.2756228348     -1.254994899      0.3708785102      
                  -1.254994899      0.3708785102      0.1144244604      -0.4458191533     
8330000180        -0.354153563      -0.2879733996     0.9791606757      0.9328378174      
                  0.9791606757      0.9328378174      -0.3441870572     0.1931155021      
8415000090        -0.0632030518     0.4414826642      0.257254684       -1.232498976      
                  0.257254684       -1.232498976      0.4374520533      0.167610882       
8500000000        0.4709521754      -0.08702687344    -1.172960853      0.2882601222      
                  -1.172960853      0.2882601222      -0.00335567409    -0.4631747059     
