! RsaToolbox (C) 2013 Rohde & Schwarz America
! 
! Number of points: 101
! Number of ports: 2
! Balanced ports?: 0
! 
! 
# Hz S RI R 50
9000              1.014248974       -0.02343663833    0.0001730598998   3.212956924e-05   
                  0.0001730598998   3.212956924e-05   1.023360095       -0.02698701629    
85008910          0.00270204933     0.1596127732      3.194245558       5.525491401       
                  3.194245558       5.525491401       -0.09209032677    -0.114834922      
170008820         0.1423754162      -0.04427704763    3.19803551        -5.228869675      
                  3.19803551        -5.228869675      -0.02042198146    0.1718103215      
255008730         -0.1763380607     -0.07582369929    -6.063787351      -0.169954605      
                  -6.063787351      -0.169954605      0.07760898081     -0.02645980791    
340008640         -0.06350093857    0.1703349089      2.651265495       5.361126465       
                  2.651265495       5.361126465       -0.1266334013     -0.05248916149    
425008550         0.1597159261      -0.04665102289    3.396280725       -4.870911916      
                  3.396280725       -4.870911916      0.01692232489     0.1030570019      
510008460         -0.1018440313     -0.1637316786     -5.910479994      -0.6505772836     
                  -5.910479994      -0.6505772836     0.07046207506     -0.07979726977    
595008370         -0.1075610146     0.1402992276      2.226443933       5.433602983       
                  2.226443933       5.433602983       -0.08373602488    -0.01179873527    
680008280         0.2046976213      0.0338095351      3.670418335       -4.57828596       
                  3.670418335       -4.57828596       0.09205244732     0.074841032       
765008190         0.009437200658    -0.163749413      -5.736496309      -1.108075196      
                  -5.736496309      -1.108075196      0.06009710821     -0.06059761017    
850008100         -0.1819838729     0.1118127925      1.866338803       5.529193501       
                  1.866338803       5.529193501       -0.07167433145    0.06522928948     
935008010         0.1457446238      0.123792278       3.953904499       -4.231815901      
                  3.953904499       -4.231815901      0.1018366597      0.03901358725     
1020007920        0.07591397697     -0.1543930306     -5.593569386      -1.450567964      
                  -5.593569386      -1.450567964      -0.004742198957   -0.07526857805    
1105007830        -0.2255963975     -0.008320538619   1.475247263       5.624674201       
                  1.475247263       5.624674201       -0.06318817729    0.0753105006      
1190007740        0.07129805991     0.1406672819      4.19935949        -3.861501152      
                  4.19935949        -3.861501152      0.1238987959      -0.04262616136    
1275007650        0.1646721582      -0.1088866159     -5.47020368       -1.836604769      
                  -5.47020368       -1.836604769      -0.03020772717    -0.08909367043    
1360007560        -0.164002054      -0.1009956993     1.040768882       5.651003732       
                  1.040768882       5.651003732       -0.005348020002   0.1012673164      
1445007470        0.0002860963496   0.1423169631      4.418008691       -3.542606401      
                  4.418008691       -3.542606401      0.1472920779      -0.08807480451    
1530007380        0.1854473191      -0.01167285607    -5.311246979      -2.194050957      
                  -5.311246979      -2.194050957      -0.06904026699    -0.06464758426    
1615007290        -0.09460753543    -0.124440277      0.6151274152      5.609100622       
                  0.6151274152      5.609100622       0.02350354956     0.1418493692      
1700007200        -0.08901672248    0.09776262241     4.675258803       -3.242933278      
                  4.675258803       -3.242933278      0.1106997632      -0.1334806965     
1785007110        0.1287590112      0.03192115025     -5.065450859      -2.536461717      
                  -5.065450859      -2.536461717      -0.1313889408     -0.06377865467    
1870007020        -0.02161877829    -0.1363833411     0.2179371253      5.611230684       
                  0.2179371253      5.611230684       0.06588986287     0.1321464018      
1955006930        -0.1071107856     0.02184553969     4.881052761       -2.885764222      
                  4.881052761       -2.885764222      0.08931771812     -0.1938240041     
2040006840        0.08344838741     0.0392480828      -4.829444992      -2.820722467      
                  -4.829444992      -2.820722467      -0.1546932726     -0.04179056755    
2125006750        0.03646027812     -0.0932914896     -0.1947663182     5.639280545       
                  -0.1947663182     5.639280545       0.1311204205      0.1368381462      
2210006660        -0.09301879153    -0.0006635469753  4.976565367       -2.532878121      
                  4.976565367       -2.532878121      0.04788467966     -0.2177555057     
2295006570        0.02954493369     0.03692965756     -4.597514918      -3.14853518       
                  -4.597514918      -3.14853518       -0.1860826259     0.01499609448     
2380006480        0.0294432323      -0.05290571974    -0.5604515267     5.577985056       
                  -0.5604515267     5.577985056       0.1668736805      0.1139787363      
2465006390        -0.08833587195    -0.01657020799    5.056513485       -2.212015181      
                  5.056513485       -2.212015181      -0.01956284285    -0.259177813      
2550006300        0.01183852758     0.002014395655    -4.290000617      -3.487924512      
                  -4.290000617      -3.487924512      -0.1908994738     0.06062269526     
2635006210        0.02651370926     -0.04552848814    -0.9010819161     5.522076962       
                  -0.9010819161     5.522076962       0.2133480179      0.0641964112      
2720006120        -0.08292740289    -0.01136216393    5.133188935       -1.84225491       
                  5.133188935       -1.84225491       -0.09039914948    -0.2644367623     
2805006030        0.01740836599     0.0004968707171   -4.006927659      -3.736731791      
                  -4.006927659      -3.736731791      -0.1628196053     0.1234740757      
2890005940        0.02185580919     -0.03673451032    -1.241319587      5.397593772       
                  -1.241319587      5.397593772       0.2316014611      0.009243422684    
2975005850        -0.09494969907    -0.008967124083   5.16507509        -1.383284918      
                  5.16507509        -1.383284918      -0.1620887106     -0.2475462918     
3060005760        0.01817526096     0.01042293948     -3.705480113      -4.080034692      
                  -3.705480113      -4.080034692      -0.1188201936     0.1688954115      
3145005670        0.03678980611     -0.04455988213    -1.638519369      5.244197636       
                  -1.638519369      5.244197636       0.2313912545      -0.07125437833    
3230005580        -0.10169002       -0.03375894497    5.275055246       -0.9808102517     
                  5.275055246       -0.9808102517     -0.2273804289     -0.2076684291     
3315005490        0.01089853828     0.03201337429     -3.432887438      -4.307297751      
                  -3.432887438      -4.307297751      -0.04567685029    0.2023737296      
3400005400        0.06132577154     -0.02863640643    -1.996970926      5.077183934       
                  -1.996970926      5.077183934       0.2014036694      -0.1450080892     
3485005310        -0.09779474835    -0.06432301503    5.376653295       -0.6090542065     
                  5.376653295       -0.6090542065     -0.2824992935     -0.1299267557     
3570005220        -0.02048883446    0.04908580347     -3.249390129      -4.500390273      
                  -3.249390129      -4.500390273      0.03383307754     0.21067372        
3655005130        0.06892909049     0.004065080769    -2.192553707      4.945109005       
                  -2.192553707      4.945109005       0.1344671353      -0.2085674555     
3740005040        -0.07710463283    -0.09355592747    5.366324107       -0.2572632627     
                  5.366324107       -0.2572632627     -0.3121759373     -0.03975325793    
3825004950        -0.05884772858    0.03711348055     -2.976099295      -4.635107825      
                  -2.976099295      -4.635107825      0.1135076358      0.1763070549      
3910004860        0.06416619882     0.03833090123     -2.615716752      4.722919807       
                  -2.615716752      4.722919807       0.05052405486     -0.2590587719     
3995004770        -0.03077582211    -0.1116633183     5.401041413       0.06777316107     
                  5.401041413       0.06777316107     -0.3050261847     0.0654536958      
4080004680        -0.08425892016    0.007861212981    -2.706173651      -4.807665841      
                  -2.706173651      -4.807665841      0.1908029573      0.128001753       
4165004590        0.03904722631     0.07007572965     -2.874937167      4.58760444        
                  -2.874937167      4.58760444        -0.04686253211    -0.2716314228     
4250004500        0.01163752221     -0.08804863369    5.490548647       0.3103117289      
                  5.490548647       0.3103117289      -0.2659243987     0.1754837312      
4335004410        -0.1012208107     -0.01977824147    -2.451097022      -4.91693499       
                  -2.451097022      -4.91693499       0.2293931062      0.04490792808     
4420004320        -0.007913761257   0.08354802188     -3.079166679      4.474912978       
                  -3.079166679      4.474912978       -0.1639754987     -0.2508346088     
4505004230        0.0381400696      -0.05669262721    5.440555871       0.4909488268      
                  5.440555871       0.4909488268      -0.1966224039     0.2587946435      
4590004140        -0.09930785719    -0.05208724637    -2.183501355      -4.953452441      
                  -2.183501355      -4.953452441      0.2297391002      -0.05763283252    
4675004050        -0.04517482055    0.07051428975     -3.178565964      4.356935716       
                  -3.178565964      4.356935716       -0.2554303972     -0.191224516      
4760003960        0.05699874913     -0.01578293388    5.291048173       0.7249642252      
                  5.291048173       0.7249642252      -0.08644570827    0.3112682851      
4845003870        -0.07635887549    -0.06824765557    -1.9357701        -5.006498782      
                  -1.9357701        -5.006498782      0.2000245918      -0.1551530048     
4930003780        -0.07657695416    0.04056307277     -3.362909294      4.174677264       
                  -3.362909294      4.174677264       -0.3196889811     -0.09963209479    
5015003690        0.04964840432     0.03776420936     5.164449116       0.9667158586      
                  5.164449116       0.9667158586      0.03569264807     0.3341371017      
5100003600        -0.05165853227    -0.05608318697    -1.762330752      -5.078952383      
                  -1.762330752      -5.078952383      0.1192402349      -0.2290262364     
5185003510        -0.09029107718    0.004070069214    -3.4158495        3.952469478       
                  -3.4158495        3.952469478       -0.3491550522     0.01215529957     
5270003420        0.0140588762      0.07139916446     5.027800887       1.199835602       
                  5.027800887       1.199835602       0.149842581       0.2997389564      
5355003330        -0.0423355122     -0.02192860067    -1.649314468      -5.139687001      
                  -1.649314468      -5.139687001      -0.002196921882   -0.2793957589     
5440003240        -0.07143667106    -0.03977524023    -3.361521948      3.786551043       
                  -3.361521948      3.786551043       -0.3192982843     0.131789995       
5525003150        -0.01858321757    0.0608650338      5.013931058       1.313569616       
                  5.013931058       1.313569616       0.2688485193      0.2010784984      
5610003060        -0.03871886039    0.02783081282     -1.592830041      -4.981129492      
                  -1.592830041      -4.981129492      -0.1367255211     -0.267485672      
5695002970        -0.01386924215    -0.04310321992    -3.363527191      3.569702803       
                  -3.363527191      3.569702803       -0.2213984842     0.2531455689      
5780002880        -0.02623200635    0.02345901498     4.966681057       1.405824695       
                  4.966681057       1.405824695       0.3292796647      0.05729927811     
5865002790        -0.07690386896    0.07631449731     -1.493377348      -4.719320028      
                  -1.493377348      -4.719320028      -0.272190824      -0.1854584324     
5950002700        0.03640537193     0.004519080414    -3.396978494      3.361240154       
                  -3.396978494      3.361240154       -0.08247877065    0.3329138615      
6035002610        -0.01876078157    -0.03905913063    4.752282684       1.304151563       
                  4.752282684       1.304151563       0.298306067       -0.09750175608    
6120002520        -0.144923777      0.07340116681     -1.37740365       -4.461192817      
                  -1.37740365       -4.461192817      -0.3584305808     -0.04568829833    
6205002430        0.07112903288     0.08845724966     -3.283006934      3.154406994       
                  -3.283006934      3.154406994       0.1018408183      0.3372157981      
6290002340        0.06065585858     -0.09095594091    4.527653909       1.165655625       
                  4.527653909       1.165655625       0.1945893541      -0.2482620296     
6375002250        -0.2153277662     0.008529161149    -1.272564797      -4.167464705      
                  -1.272564797      -4.167464705      -0.3760785669     0.130281614       
6460002160        0.02952402748     0.2063757767      -3.037168647      2.954944439       
                  -3.037168647      2.954944439       0.2707582879      0.2719148382      
6545002070        0.1761708423      -0.06004300592    4.121275261       1.066427414       
                  4.121275261       1.066427414       0.02911352128     -0.319751581      
6630001980        -0.2071033431     -0.1110625648     -1.132919773      -3.859318767      
                  -1.132919773      -3.859318767      -0.298220502      0.3024716512      
6715001890        -0.07155848172    0.275149038       -2.735281144      2.637785952       
                  -2.735281144      2.637785952       0.3836269538      0.1556372899      
6800001800        0.2661965724      0.05522365185     3.634290279       1.126692995       
                  3.634290279       1.126692995       -0.1314863251     -0.3087861058     
6885001710        -0.1032524498     -0.2404396137     -0.819574652      -3.508847958      
                  -0.819574652      -3.508847958      -0.1879220571     0.3876138477      
6970001620        -0.2095848387     0.2336477556      -2.643021032      2.227900875       
                  -2.643021032      2.227900875       0.4235387957      0.02317083446     
7055001530        0.2633246319      0.2075650931      3.227291845       1.243859943       
                  3.227291845       1.243859943       -0.2571267229     -0.2708546639     
7140001440        0.08168650604     -0.3000194746     -0.5414492663     -3.233438416      
                  -0.5414492663     -3.233438416      -0.06319031018    0.4537489771      
7225001350        -0.2968524336     0.09656777226     -2.582218524      1.900377151       
                  -2.582218524      1.900377151       0.4524122794      -0.103165567      
7310001260        0.1699695475      0.3471998139      2.868582141       1.162231373       
                  2.868582141       1.162231373       -0.358675452      -0.1851585468     
7395001170        0.2856566165      -0.2277674231     -0.2465252881     -2.968758757      
                  -0.2465252881     -2.968758757      0.07715274759     0.4819380769      
7480001080        -0.2992744757     -0.1108747977     -2.418056424      1.613581747       
                  -2.418056424      1.613581747       0.3948191537      -0.237373691      
7565000990        -0.03100941108    0.4000009439      2.618473837       1.165080277       
                  2.618473837       1.165080277       -0.4246643057     -0.08435685446    
7650000900        0.4005291207      -0.05663790834    -0.05455371501    -2.612314959      
                  -0.05455371501    -2.612314959      0.2134705166      0.4388806968      
7735000810        -0.1612763837     -0.306561599      -2.298558099      1.349089846       
                  -2.298558099      1.349089846       0.3176777427      -0.3467230835     
7820000720        -0.2072399623     0.3172956127      2.279361933       1.241832805       
                  2.279361933       1.241832805       -0.4055848701     0.02496236923     
7905000630        0.4143749539      0.1388184792      0.09751667563     -2.301158089      
                  0.09751667563     -2.301158089      0.324185284       0.3622329059      
7990000540        0.06575375297     -0.3906707274     -2.217033839      0.926829738       
                  -2.217033839      0.926829738       0.221841198       -0.4067562227     
8075000450        -0.350748613      0.120037998       1.909128893       1.434510977       
                  1.909128893       1.434510977       -0.3880529195     0.1192940868      
8160000360        0.2978068174      0.3134506749      0.251436407       -2.191835437      
                  0.251436407       -2.191835437      0.3996565126      0.2801061206      
8245000270        0.2577121689      -0.3373916224     -2.040631118      0.6163165201      
                  -2.040631118      0.6163165201      0.1141868584      -0.4444006082     
8330000180        -0.3655323937     -0.1325186288     1.637684448       1.50071711        
                  1.637684448       1.50071711        -0.3426137076     0.193922041       
8415000090        0.07871472        0.3935074454      0.3820630866      -1.999038663      
                  0.3820630866      -1.999038663      0.435299723       0.1677213688      
8500000000        0.3833975348      -0.1861096438     -1.831787304      0.4464334049      
                  -1.831787304      0.4464334049      -0.004254810014   -0.4596026385     
