! RsaToolbox (C) 2013 Rohde & Schwarz America
! 
! Number of points: 101
! Number of ports: 2
! Balanced ports?: 0
! 
! 
# Hz S RI R 50
9000              0.999630133       -0.01454582697    6.172105633e-05   -2.302754488e-05  
                  6.172105633e-05   -2.302754488e-05  1.008568367       -0.02157635371    
85008910          -0.001314271454   0.1501391179      3.160405299       5.40461925        
                  3.160405299       5.40461925        -0.09239001731    -0.116168038      
170008820         0.1359205221      -0.03810475348    3.137776414       -5.160648399      
                  3.137776414       -5.160648399      -0.02079275622    0.1716981455      
255008730         -0.1698060669     -0.07324250049    -5.997852576      -0.1500734775     
                  -5.997852576      -0.1500734775     0.07769693612     -0.02664545171    
340008640         -0.06340688594    0.1623360779      2.637156639       5.291431744       
                  2.637156639       5.291431744       -0.1268856373     -0.0540948537     
425008550         0.152673174       -0.04434371978    3.336042682       -4.831164783      
                  3.336042682       -4.831164783      0.01644301231     0.1029052703      
510008460         -0.09749692401    -0.1582942681     -5.851534077      -0.6124763627     
                  -5.851534077      -0.6124763627     0.07089573384     -0.07979660803    
595008370         -0.1038488484     0.1332086814      2.229016928       5.35988955        
                  2.229016928       5.35988955        -0.08401764812    -0.01223340714    
680008280         0.1979334763      0.03298272622     3.603729479       -4.556581428      
                  3.603729479       -4.556581428      0.09209326729     0.0755844855      
765008190         0.01108960633     -0.1564295417     -5.679327949      -1.060912271      
                  -5.679327949      -1.060912271      0.06024966887     -0.06072328668    
850008100         -0.1765877967     0.1076417659      1.894226871       5.46076057        
                  1.894226871       5.46076057        -0.0719403148     0.06503839734     
935008010         0.139883262       0.1195296684      3.882745417       -4.217599955      
                  3.882745417       -4.217599955      0.1021089684      0.03894069722     
1020007920        0.07352597093     -0.1468770298     -5.54272745       -1.398260154      
                  -5.54272745       -1.398260154      -0.004923297561   -0.07591892437    
1105007830        -0.21898001       -0.008991575863   1.521291836       5.548435135       
                  1.521291836       5.548435135       -0.06330983197    0.07533287673     
1190007740        0.06790312076     0.1333065614      4.125908875       -3.844075512      
                  4.125908875       -3.844075512      0.1243136163      -0.04243786562    
1275007650        0.1594111812      -0.1035460768     -5.43099468       -1.761483716      
                  -5.43099468       -1.761483716      -0.03014853938    -0.08919358109    
1360007560        -0.1569198491     -0.09746327931    1.089998508       5.574456818       
                  1.089998508       5.574456818       -0.00568629024    0.1020744046      
1445007470        0.001132244079    0.1333550524      4.332661221       -3.537203287      
                  4.332661221       -3.537203287      0.14729807        -0.08834050212    
1530007380        0.1764522697      -0.009313310231   -5.275008125      -2.100283291      
                  -5.275008125      -2.100283291      -0.06949658653    -0.06474159996    
1615007290        -0.08845436745    -0.1149735569     0.6837729088      5.518146097       
                  0.6837729088      5.518146097       0.02295914855     0.142460832       
1700007200        -0.08267501115    0.08898972096     4.567336211       -3.259960748      
                  4.567336211       -3.259960748      0.1109489777      -0.1335902342     
1785007110        0.11745588        0.02877917733     -5.028932537      -2.424751239      
                  -5.028932537      -2.424751239      -0.1322020121     -0.06420971023    
1870007020        -0.02119076477    -0.1237253737     0.3032777348      5.521974376       
                  0.3032777348      5.521974376       0.065552986       0.1324189197      
1955006930        -0.09599402048    0.01667391851     4.759708353       -2.923306773      
                  4.759708353       -2.923306773      0.08935439481     -0.1940139457     
2040006840        0.07296711757     0.02922890369     -4.793996997      -2.688512379      
                  -4.793996997      -2.688512379      -0.1551495243     -0.04182707356    
2125006750        0.03011580128     -0.08083881481    -0.08848969036    5.547008202       
                  -0.08848969036    5.547008202       0.1309779339      0.1371704716      
2210006660        -0.07742578877    0.0003225134374   4.833324748       -2.583106911      
                  4.833324748       -2.583106911      0.04816517878     -0.2183462182     
2295006570        0.02476490311     0.02074230454     -4.562863601      -2.99264352       
                  -4.562863601      -2.99264352       -0.186545512      0.01509852065     
2380006480        0.01511905623     -0.04281416962    -0.4321004022     5.470103307       
                  -0.4321004022     5.470103307       0.1668752811      0.1141583228      
2465006390        -0.07249581329    -0.006845328231   4.887770545       -2.280986295      
                  4.887770545       -2.280986295      -0.01952827596    -0.2600619208     
2550006300        0.01443350571     -0.01748966287    -4.253712998      -3.31573689       
                  -4.253712998      -3.31573689       -0.1913378974     0.06050201255     
2635006210        0.005150137304    -0.04247821551    -0.7253707811     5.399060666       
                  -0.7253707811     5.399060666       0.2136704502      0.06422180169     
2720006120        -0.07158901525    0.007377575238    4.948493984       -1.926258789      
                  4.948493984       -1.926258789      -0.09064032989    -0.2650900309     
2805006030        0.03065156564     -0.01744285988    -3.982825845      -3.526212459      
                  -3.982825845      -3.526212459      -0.163375757      0.1232061039      
2890005940        -0.002815122326   -0.04641442178    -1.013136385      5.255632026       
                  -1.013136385      5.255632026       0.2324267839      0.008955233912    
2975005850        -0.09281898935    0.01684905152     4.958247904       -1.483124319      
                  4.958247904       -1.483124319      -0.1622470817     -0.2481947344     
3060005760        0.04088188761     -0.0005601428418  -3.704750963      -3.832532729      
                  -3.704750963      -3.832532729      -0.1192043347     0.1685719516      
3145005670        0.01710085635     -0.06452974844    -1.392115955      5.105841313       
                  -1.392115955      5.105841313       0.2322725476      -0.07163074113    
3230005580        -0.1111231907     -0.008525055306   5.056332697       -1.102658301      
                  5.056332697       -1.102658301      -0.226930754      -0.2085433242     
3315005490        0.04067844018     0.03398696879     -3.465812935      -4.00333536       
                  -3.465812935      -4.00333536       -0.04606367941    0.2027589329      
3400005400        0.05199173952     -0.06175816874    -1.6761424        4.933579288       
                  -1.6761424        4.933579288       0.2021514612      -0.1450677505     
3485005310        -0.1235875768     -0.0426819897     5.110488733       -0.8018252251     
                  5.110488733       -0.8018252251     -0.2821112042     -0.1302408082     
3570005220        0.01228941612     0.07005963442     -3.316774833      -4.098694928      
                  -3.316774833      -4.098694928      0.03361222778     0.2111126088      
3655005130        0.07661465715     -0.03767096764    -1.796485823      4.778744905       
                  -1.796485823      4.778744905       0.1351767435      -0.2088302835     
3740005040        -0.1164769899     -0.08521441473    5.051854279       -0.5182902303     
                  5.051854279       -0.5182902303     -0.3120770321     -0.03985643763    
3825004950        -0.03398862041    0.08200005598     -3.085782269      -4.099251281      
                  -3.085782269      -4.099251281      0.1139050524      0.1769029753      
3910004860        0.09844683393     -0.00513278375    -2.091731053      4.549191766       
                  -2.091731053      4.549191766       0.05147634948     -0.25904086       
3995004770        -0.08406905838    -0.1270295323     4.969583655       -0.3191351792     
                  4.969583655       -0.3191351792     -0.3054759843     0.06530675283     
4080004680        -0.08222978097    0.07351614464     -2.824818038      -4.151114159      
                  -2.824818038      -4.151114159      0.1914838519      0.1286712404      
4165004590        0.09729197206     0.04212149418     -2.299467665      4.379807049       
                  -2.299467665      4.379807049       -0.04597963469    -0.2723307584     
4250004500        -0.0385050077     -0.1337037029     4.958282586       -0.1329853967     
                  4.958282586       -0.1329853967     -0.2657193634     0.1758360144      
4335004410        -0.1302190252     0.04981251223     -2.580497306      -4.170712438      
                  -2.580497306      -4.170712438      0.2306086277      0.04486664045     
4420004320        0.06689798615     0.0823981036      -2.38691324       4.235238383       
                  -2.38691324       4.235238383       -0.1636910668     -0.25118987       
4505004230        0.007185548498    -0.1290961356     4.813693472       -0.02917006406    
                  4.813693472       -0.02917006406    -0.1969582349     0.2592022082      
4590004140        -0.1610362335     0.005265997179    -2.333165236      -4.117510121      
                  -2.333165236      -4.117510121      0.2299551691      -0.05747114403    
4675004050        0.03073963071     0.1052732673      -2.382029393      4.058286468       
                  -2.382029393      4.058286468       -0.2555974001     -0.1916840317     
4760003960        0.06038718475     -0.1022856625     4.619372188       0.1571991596      
                  4.619372188       0.1571991596      -0.08687995909    0.311504819       
4845003870        -0.1611420039     -0.03958668613    -2.093422741      -4.074398103      
                  -2.093422741      -4.074398103      0.2006016983      -0.1548122461     
4930003780        -0.01844550357    0.1123468858      -2.470766199      3.818892117       
                  -2.470766199      3.818892117       -0.3200083797     -0.1000017182     
5015003690        0.09236740021     -0.04731899263    4.444862689       0.3582705371      
                  4.444862689       0.3582705371      0.03528870179     0.3350839921      
5100003600        -0.1480737597     -0.06842356922    -1.923266531      -4.008071082      
                  -1.923266531      -4.008071082      0.1199258426      -0.2294780352     
5185003510        -0.06756535154    0.09821832991     -2.494543064      3.556633647       
                  -2.494543064      3.556633647       -0.3502538216     0.01107622138     
5270003420        0.09055847162     0.009288321686    4.275957004       0.5701678904      
                  4.275957004       0.5701678904      0.1493986836      0.3003158134      
5355003330        -0.1275526611     -0.07989299222    -1.801017657      -3.938972756      
                  -1.801017657      -3.938972756      -0.001972999244   -0.2794857155     
5440003240        -0.08942423971    0.05641022868     -2.477103565      3.373667755       
                  -2.477103565      3.373667755       -0.320149152      0.1318530928      
5525003150        0.07642718268     0.0367627576      4.193193429       0.6643837873      
                  4.193193429       0.6643837873      0.2689944555      0.2019257269      
5610003060        -0.08921323543    -0.06006788762    -1.700772062      -3.811945695      
                  -1.700772062      -3.811945695      -0.1365230374     -0.2682752274     
5695002970        -0.07047329592    0.03720393498     -2.475520425      3.145237722       
                  -2.475520425      3.145237722       -0.2217812895     0.2529061966      
5780002880        0.07052303154     0.04576005083     4.06200315        0.7355772533      
                  4.06200315        0.7355772533      0.329848941       0.05853206123     
5865002790        -0.08385265322    -0.02194371998    -1.541736763      -3.644162993      
                  -1.541736763      -3.644162993      -0.2720236681     -0.1859242823     
5950002700        -0.04664359807    0.05310860491     -2.499089683      2.938214447       
                  -2.499089683      2.938214447       -0.08316606382    0.3334066495      
6035002610        0.055712457       0.02347498617     3.83230836        0.7005132248      
                  3.83230836        0.7005132248      0.2992502614      -0.09702413777    
6120002520        -0.1096184852     -0.01459315372    -1.381108175      -3.476399894      
                  -1.381108175      -3.476399894      -0.3583481919     -0.04598934694    
6205002430        -0.02013680465    0.0936186089      -2.443178747      2.755736427       
                  -2.443178747      2.755736427       0.1022363346      0.3380846334      
6290002340        0.09634024583     -0.005723216213   3.643163621       0.6643494885      
                  3.643163621       0.6643494885      0.1960722671      -0.2480197877     
6375002250        -0.1519831452     -0.05312335696    -1.247476513      -3.316979066      
                  -1.247476513      -3.316979066      -0.3762835811     0.1293342848      
6460002160        -0.04621820818    0.1751902975      -2.326933385      2.588981607       
                  -2.326933385      2.588981607       0.271131048       0.2728034932      
6545002070        0.1716227943      0.02427627936     3.362713046       0.6635309071      
                  3.362713046       0.6635309071      0.02936259155     -0.3204309788     
6630001980        -0.1311866282     -0.137499991      -1.092402926      -3.128460012      
                  -1.092402926      -3.128460012      -0.2991485897     0.3023949815      
6715001890        -0.1212271062     0.2215642838      -2.160527971      2.319819833       
                  -2.160527971      2.319819833       0.3842324801      0.1567433446      
6800001800        0.2306593535      0.1193921494      3.036969789       0.7719946345      
                  3.036969789       0.7719946345      -0.1312394249     -0.3090949739     
6885001710        -0.03296945633    -0.2320109973     -0.8088061409     -2.909430572      
                  -0.8088061409     -2.909430572      -0.1884561904     0.388475053       
6970001620        -0.229169894      0.1734883576      -2.171162192      1.991677107       
                  -2.171162192      1.991677107       0.4237563667      0.02405778474     
7055001530        0.2159484004      0.2425776311      2.792980335       0.9407845732      
                  2.792980335       0.9407845732      -0.2572960629     -0.2714855791     
7140001440        0.123584415       -0.2713692911     -0.5580537668     -2.813814128      
                  -0.5580537668     -2.813814128      -0.0636714948     0.4545021725      
7225001350        -0.291632614      0.04645316934     -2.214811598      1.739220031       
                  -2.214811598      1.739220031       0.4530298457      -0.102968603      
7310001260        0.1300060158      0.3549294424      2.575633004       0.9581652199      
                  2.575633004       0.9581652199      -0.3590167833     -0.1852877653     
7395001170        0.3047499603      -0.1917833853     -0.2832753027     -2.641213036      
                  -0.2832753027     -2.641213036      0.07680291215     0.4825862139      
7480001080        -0.2743081474     -0.1495147733     -2.103398318      1.476164531       
                  -2.103398318      1.476164531       0.3951191047      -0.2369865598     
7565000990        -0.06960412421    0.3907978576      2.349656661       0.9839330513      
                  2.349656661       0.9839330513      -0.4255585951     -0.08469853246    
7650000900        0.4027549503      -0.02707625542    -0.08807018935    -2.393147655      
                  -0.08807018935    -2.393147655      0.212448913       0.4393947015      
7735000810        -0.1377565581     -0.3196044454     -2.108981921      1.265085192       
                  -2.108981921      1.265085192       0.317787554       -0.3464034991     
7820000720        -0.2283425926     0.3013234082      2.112892103       1.123407098       
                  2.112892103       1.123407098       -0.4068358732     0.0246729711      
7905000630        0.407075645       0.1570322002      0.0743206204      -2.162312181      
                  0.0743206204      -2.162312181      0.3242920095      0.3631872917      
7990000540        0.08781488522     -0.3917680725     -2.060845981      0.872331429       
                  -2.060845981      0.872331429       0.2218258302      -0.4078311771     
8075000450        -0.36009349       0.1001929381      1.786407998       1.333989008       
                  1.786407998       1.333989008       -0.3886970433     0.1186444073      
8160000360        0.2842835919      0.3261062352      0.228052733       -2.065699825      
                  0.228052733       -2.065699825      0.3996339977      0.2804585356      
8245000270        0.2712524187      -0.3303546939     -1.937062616      0.5929577751      
                  -1.937062616      0.5929577751      0.1145960584      -0.4447570524     
8330000180        -0.3647637494     -0.1489709012     1.557581795       1.418026662       
                  1.557581795       1.418026662       -0.3436218128     0.1932801281      
8415000090        0.06447119808     0.3970478381      0.3620974186      -1.906021038      
                  0.3620974186      -1.906021038      0.4363539499      0.1674625626      
8500000000        0.3900168825      -0.1771173746     -1.76336523       0.4331728354      
                  -1.76336523       0.4331728354      -0.004045054088   -0.4613045115     
