! RsaToolbox (C) 2013 Rohde & Schwarz America
! 
! Number of points: 101
! Number of ports: 2
! Balanced ports?: 0
! 
! 
# Hz S RI R 50
9000              1.012026324       -0.01712930696    4.801771512e-05   3.153130596e-05   
                  4.801771512e-05   3.153130596e-05   1.017639043       -0.02439964438    
85008910          0.0024613537      0.159448732       3.196418452       5.518854129       
                  3.196418452       5.518854129       -0.09206783786    -0.1156423264     
170008820         0.1422755004      -0.04440597895    3.193149558       -5.226750342      
                  3.193149558       -5.226750342      -0.02031560533    0.1716480185      
255008730         -0.1761288577     -0.07576224561    -6.06132223       -0.1688618862     
                  -6.06132223       -0.1688618862     0.07729071149     -0.02649784692    
340008640         -0.06333897166    0.1699579928      2.652823424       5.358714746       
                  2.652823424       5.358714746       -0.1265164476     -0.05355259734    
425008550         0.1594933637      -0.04648460097    3.392026612       -4.871255154      
                  3.392026612       -4.871255154      0.01684952565     0.1027318884      
510008460         -0.1020181848     -0.163351523      -5.910098395      -0.6415806292     
                  -5.910098395      -0.6415806292     0.07060047539     -0.07980229456    
595008370         -0.1073484047     0.1400058283      2.228290423       5.430141311       
                  2.228290423       5.430141311       -0.08380280365    -0.01213006633    
680008280         0.2045443346      0.03374789649     3.667502555       -4.577173569      
                  3.667502555       -4.577173569      0.09213013867     0.07535182106     
765008190         0.009301554788    -0.1639011353     -5.733976654      -1.104297165      
                  -5.733976654      -1.104297165      0.06012229364     -0.06051139327    
850008100         -0.1818782057     0.111711586       1.86976524        5.527672014       
                  1.86976524        5.527672014       -0.07165368976    0.06517281224     
935008010         0.1456930401      0.1235241099      3.950261428       -4.233792622      
                  3.950261428       -4.233792622      0.1019479219      0.03896389155     
1020007920        0.0755292339      -0.154195291      -5.591955919      -1.450244184      
                  -5.591955919      -1.450244184      -0.004608494153   -0.07563009791    
1105007830        -0.2253910072     -0.008253241867   1.479914671       5.621281752       
                  1.479914671       5.621281752       -0.06299417766    0.07527376697     
1190007740        0.07138027829     0.1405174647      4.199630871       -3.8609361        
                  4.199630871       -3.8609361        0.1242220137      -0.04254870841    
1275007650        0.1645180515      -0.1089337526     -5.471751156      -1.832726776      
                  -5.471751156      -1.832726776      -0.02977901978    -0.08899384634    
1360007560        -0.1636773806     -0.1008257747     1.042861389       5.647171739       
                  1.042861389       5.647171739       -0.005530307958   0.1018620442      
1445007470        0.0003432116866   0.1423672627      4.415850407       -3.545797691      
                  4.415850407       -3.545797691      0.1471621992      -0.0884139654     
1530007380        0.1847687073      -0.01157030135    -5.309491281      -2.190908364      
                  -5.309491281      -2.190908364      -0.06921928933    -0.06449414189    
1615007290        -0.09438517855    -0.1244285465     0.6181146523      5.603019906       
                  0.6181146523      5.603019906       0.02338756942     0.1420058784      
1700007200        -0.08872166596    0.09738013833     4.670550946       -3.243333284      
                  4.670550946       -3.243333284      0.1109371664      -0.1333926704     
1785007110        0.1285773976      0.03188338479     -5.064850624      -2.530653836      
                  -5.064850624      -2.530653836      -0.1316200327     -0.06404966007    
1870007020        -0.02187872411    -0.1364555677     0.2232084149      5.610308465       
                  0.2232084149      5.610308465       0.06573895415     0.1320590019      
1955006930        -0.1070495048     0.02164462091     4.878304883       -2.888297945      
                  4.878304883       -2.888297945      0.08895692586     -0.1937444979     
2040006840        0.08333925724     0.03928351686     -4.828020808      -2.815883448      
                  -4.828020808      -2.815883448      -0.1545460888     -0.04141258828    
2125006750        0.03639377721     -0.09295601339    -0.1948487669     5.638378629       
                  -0.1948487669     5.638378629       0.1308299912      0.1370873025      
2210006660        -0.09260955381    -0.0006932688321  4.974411074       -2.535666511      
                  4.974411074       -2.535666511      0.04798645722     -0.2183243112     
2295006570        0.02963381923     0.03682534888     -4.595826753      -3.147201512      
                  -4.595826753      -3.147201512      -0.1861328061     0.01535916267     
2380006480        0.02892847205     -0.05276340224    -0.557819705      5.577050061       
                  -0.557819705      5.577050061       0.1671910424      0.1141050707      
2465006390        -0.08822583917    -0.0163899975     5.05342143        -2.217000697      
                  5.05342143        -2.217000697      -0.0199259235     -0.2593937393     
2550006300        0.01186413166     0.001680726375    -4.288697524      -3.486977085      
                  -4.288697524      -3.486977085      -0.1909554268     0.06096308681     
2635006210        0.02615958806     -0.04528708052    -0.9007811756     5.518588938       
                  -0.9007811756     5.518588938       0.2137430651      0.06392237428     
2720006120        -0.08269001251    -0.0111183048     5.130582702       -1.843340732      
                  5.130582702       -1.843340732      -0.09039727063    -0.2644970234     
2805006030        0.01746674983     0.0003283735878   -4.005041318      -3.73436933       
                  -4.005041318      -3.73436933       -0.1632229377     0.1235895036      
2890005940        0.02214440812     -0.03671049915    -1.239916299      5.394583999       
                  -1.239916299      5.394583999       0.2317034349      0.008885724922    
2975005850        -0.09507495556    -0.008256311577   5.162546831       -1.384651926      
                  5.162546831       -1.384651926      -0.1622663566     -0.2474131161     
3060005760        0.01841540607     0.01014045016     -3.706012809      -4.076901775      
                  -3.706012809      -4.076901775      -0.1191548969     0.1687421625      
3145005670        0.03652669969     -0.04443376567    -1.638053704      5.244482512       
                  -1.638053704      5.244482512       0.2317841496      -0.07162159818    
3230005580        -0.1017351593     -0.03301419475    5.271451095       -0.9830908681     
                  5.271451095       -0.9830908681     -0.2272336097     -0.2080002298     
3315005490        0.01131991948     0.03199702991     -3.43261461       -4.304084428      
                  -3.43261461       -4.304084428      -0.04583600643    0.202748358       
3400005400        0.06130784492     -0.02903279187    -1.992611325      5.075998582       
                  -1.992611325      5.075998582       0.2011205974      -0.1456705322     
3485005310        -0.09800911551    -0.06372305745    5.372733589       -0.6168058366     
                  5.372733589       -0.6168058366     -0.2816265909     -0.129781059      
3570005220        -0.02011339724    0.04948253521     -3.253565781      -4.495034719      
                  -3.253565781      -4.495034719      0.03349500711     0.2109733564      
3655005130        0.06904753981     0.003886875304    -2.188046178      4.943960578       
                  -2.188046178      4.943960578       0.1344502086      -0.2088526211     
3740005040        -0.07698534698    -0.09371654562    5.363789319       -0.2596255986     
                  5.363789319       -0.2596255986     -0.3121683881     -0.03964489883    
3825004950        -0.05922083673    0.03703781039     -2.980293123      -4.628111803      
                  -2.980293123      -4.628111803      0.1133057224      0.1758248435      
3910004860        0.06391092456     0.0372788739      -2.608019415      4.721746766       
                  -2.608019415      4.721746766       0.05026718234     -0.2591741375     
3995004770        -0.031140997      -0.1115561033     5.395863169       0.06320851307     
                  5.395863169       0.06320851307     -0.3053429565     0.06517939466     
4080004680        -0.08483950328    0.008052911392    -2.704743967      -4.799174513      
                  -2.704743967      -4.799174513      0.1903114745      0.1283574935      
4165004590        0.03969220857     0.07024240088     -2.871864096      4.582882456       
                  -2.871864096      4.582882456       -0.046333396      -0.2712551642     
4250004500        0.011453598       -0.08815706228    5.48331171        0.3086798551      
                  5.48331171        0.3086798551      -0.2658690894     0.1756534423      
4335004410        -0.1016290033     -0.01982697623    -2.446457537      -4.910855498      
                  -2.446457537      -4.910855498      0.2297700969      0.04442715398     
4420004320        -0.007336389005   0.0837514554      -3.073902862      4.469153951       
                  -3.073902862      4.469153951       -0.1639786882     -0.2509435465     
4505004230        0.03830219892     -0.05703852353    5.433440051       0.4903912011      
                  5.433440051       0.4903912011      -0.1966089953     0.2589341008      
4590004140        -0.1002374879     -0.05194368042    -2.182334865      -4.945188793      
                  -2.182334865      -4.945188793      0.2292643198      -0.05768155927    
4675004050        -0.04484586142    0.07061533934     -3.170994657      4.350582979       
                  -3.170994657      4.350582979       -0.2555496801     -0.1910889497     
4760003960        0.05748042446     -0.01622535658    5.283299307       0.7240998271      
                  5.283299307       0.7240998271      -0.08640838178    0.3110013028      
4845003870        -0.07692377639    -0.06841258494    -1.933555992      -4.997968753      
                  -1.933555992      -4.997968753      0.2002944899      -0.1546809275     
4930003780        -0.07635596552    0.0410303874      -3.355145893      4.166825403       
                  -3.355145893      4.166825403       -0.3192918008     -0.09959787527    
5015003690        0.05003633212     0.03746904645     5.155215673       0.9652692054      
                  5.155215673       0.9652692054      0.03575552263     0.3346175469      
5100003600        -0.05225561045    -0.05651036094    -1.760670894      -5.068942157      
                  -1.760670894      -5.068942157      0.1196515907      -0.2291874507     
5185003510        -0.09115488491    0.004360479065    -3.410039773      3.944952408       
                  -3.410039773      3.944952408       -0.3494818188     0.01181162763     
5270003420        0.01468406881     0.07164880414     5.02118636        1.196898203       
                  5.02118636        1.196898203       0.1499719305      0.2995925769      
5355003330        -0.04237995961    -0.02283772167    -1.645724671      -5.130022359      
                  -1.645724671      -5.130022359      -0.002213922918   -0.2789811069     
5440003240        -0.07199547578    -0.0392831711     -3.356312349      3.779629923       
                  -3.356312349      3.779629923       -0.3192357901     0.1320897848      
5525003150        -0.01814506351    0.06118953058     5.00390985        1.31268293        
                  5.00390985        1.31268293        0.2690146637      0.2012076364      
5610003060        -0.03841412181    0.02732030872     -1.589564502      -4.971859847      
                  -1.589564502      -4.971859847      -0.1370284672     -0.2675847194     
5695002970        -0.01434854058    -0.04314830957    -3.356535395      3.561829547       
                  -3.356535395      3.561829547       -0.2211527261     0.252811412       
5780002880        -0.02593898202    0.02396758769     4.955039427       1.406704279       
                  4.955039427       1.406704279       0.3292596055      0.05786906195     
5865002790        -0.07631596868    0.0756312637      -1.490179524      -4.709087105      
                  -1.490179524      -4.709087105      -0.2722992104     -0.1851607204     
5950002700        0.03577557652     0.004740391485    -3.390669417      3.354294147       
                  -3.390669417      3.354294147       -0.08295136895    0.3329519296      
6035002610        -0.01876580854    -0.03844567513    4.741778788       1.302710559       
                  4.741778788       1.302710559       0.2983452074      -0.0974073253     
6120002520        -0.1443317927     0.07313780012     -1.372033393      -4.453152033      
                  -1.372033393      -4.453152033      -0.358371304      -0.0455571647     
6205002430        0.07096751979     0.08778749741     -3.279329142      3.148601832       
                  -3.279329142      3.148601832       0.1020107315      0.3373310111      
6290002340        0.06024553961     -0.09020033389    4.517166288       1.165606345       
                  4.517166288       1.165606345       0.1950214212      -0.2478853485     
6375002250        -0.214577818      0.008443753449    -1.273704308      -4.159591633      
                  -1.273704308      -4.159591633      -0.3761231604     0.1298229432      
6460002160        0.02936536665     0.20565834        -3.034065942      2.948927129       
                  -3.034065942      2.948927129       0.2706804002      0.2720841369      
6545002070        0.1759347188      -0.05938634579    4.112918916       1.067268403       
                  4.112918916       1.067268403       0.02871662645     -0.3199729142     
6630001980        -0.2067165968     -0.1104579978     -1.128897298      -3.852742774      
                  -1.128897298      -3.852742774      -0.2986008577     0.3022471944      
6715001890        -0.07178095604    0.2743870067      -2.731713579      2.632250427       
                  -2.731713579      2.632250427       0.383986697       0.1559318594      
6800001800        0.2654983034      0.05549172273     3.627502284       1.126978486       
                  3.627502284       1.126978486       -0.131593004      -0.3087419976     
6885001710        -0.102897613      -0.2402865545     -0.8166893816     -3.503980838      
                  -0.8166893816     -3.503980838      -0.1873455712     0.3881390842      
6970001620        -0.2095186063     0.233079151       -2.642090152      2.224260383       
                  -2.642090152      2.224260383       0.423077225       0.0232601631      
7055001530        0.2625670337      0.207638097       3.223403013       1.244269751       
                  3.223403013       1.244269751       -0.2571085102     -0.2710857865     
7140001440        0.08202927983     -0.2989609448     -0.5385396946     -3.23011129       
                  -0.5385396946     -3.23011129       -0.06341426968    0.4537180054      
7225001350        -0.2963226444     0.09611409137     -2.581119929      1.89687686        
                  -2.581119929      1.89687686        0.4527089563      -0.1033524923     
7310001260        0.1700043206      0.34730459        2.865840094       1.16255431        
                  2.865840094       1.16255431        -0.3582663736     -0.1849307092     
7395001170        0.285049548       -0.2271675102     -0.2453055624     -2.96695807       
                  -0.2453055624     -2.96695807       0.07713321234     0.4821075382      
7480001080        -0.2986947795     -0.1111788426     -2.417482766      1.611086993       
                  -2.417482766      1.611086993       0.3948289171      -0.2370516779     
7565000990        -0.03106203436    0.3996445079      2.615642054       1.165627671       
                  2.615642054       1.165627671       -0.4245700356     -0.08413785482    
7650000900        0.400641868       -0.056404054      -0.05283274587    -2.610906587      
                  -0.05283274587    -2.610906587      0.2125284038      0.4384788406      
7735000810        -0.1608815386     -0.3064259932     -2.297779687      1.346069022       
                  -2.297779687      1.346069022       0.317399671       -0.3464891517     
7820000720        -0.2070274187     0.3174412623      2.27737684        1.243188358       
                  2.27737684        1.243188358       -0.4052371489     0.02508319006     
7905000630        0.4146065019      0.1388466468      0.0973051978      -2.30078836       
                  0.0973051978      -2.30078836       0.3246602131      0.3624654653      
7990000540        0.0661555935      -0.3904380715     -2.215813216      0.9244456061      
                  -2.215813216      0.9244456061      0.221453287       -0.4070371589     
8075000450        -0.3505158059     0.1200334592      1.907980323       1.435472752       
                  1.907980323       1.435472752       -0.3879736946     0.1178348964      
8160000360        0.2977667685      0.3131949832      0.2524545804      -2.190976328      
                  0.2524545804      -2.190976328      0.3996244149      0.2800149492      
8245000270        0.2573923586      -0.3370786755     -2.040597451      0.615826342       
                  -2.040597451      0.615826342       0.1155153616      -0.4441612554     
8330000180        -0.3659351673     -0.1326976676     1.636000501       1.502112752       
                  1.636000501       1.502112752       -0.3433396031     0.1935945191      
8415000090        0.07815651415     0.393216872       0.3854134048      -1.997616793      
                  0.3854134048      -1.997616793      0.435707588       0.1673000195      
8500000000        0.3829282686      -0.1859821712     -1.832039827      0.4453367417      
                  -1.832039827      0.4453367417      -0.00338479311    -0.4601579392     
