! RsaToolbox (C) 2013 Rohde & Schwarz America
! 
! Number of points: 101
! Number of ports: 2
! Balanced ports?: 0
! 
! 
# Hz S RI R 50
9000              1.006535064       -0.01698575731    7.831874754e-05   -1.589979551e-05  
                  7.831874754e-05   -1.589979551e-05  1.014154264       -0.02344652162    
85008910          0.001371116319    0.1568843049      3.190097844       5.475996156       
                  3.190097844       5.475996156       -0.09219483791    -0.1156928532     
170008820         0.1406858086      -0.0426080367     3.173358581       -5.211264173      
                  3.173358581       -5.211264173      -0.02057414237    0.171576494       
255008730         -0.1744120063     -0.07531415635    -6.043878668      -0.1602895843     
                  -6.043878668      -0.1602895843     0.07757069984     -0.02656145872    
340008640         -0.06353995055    0.1678524809      2.653206455       5.336955503       
                  2.653206455       5.336955503       -0.1267469655     -0.05394711454    
425008550         0.1575988364      -0.04588745738    3.371200283       -4.863490345      
                  3.371200283       -4.863490345      0.01657613921     0.102873489       
510008460         -0.10059129       -0.1621815876     -5.893214122      -0.6310524921     
                  -5.893214122      -0.6310524921     0.07079081111     -0.07969717056    
595008370         -0.1065522335     0.1380161471      2.234744802       5.407919341       
                  2.234744802       5.407919341       -0.08388369692    -0.01216696804    
680008280         0.2026435124      0.03364283731     3.644306204       -4.574624209      
                  3.644306204       -4.574624209      0.09211898489     0.07533624224     
765008190         0.009958342432    -0.1618767992     -5.720926261      -1.085637579      
                  -5.720926261      -1.085637579      0.06012475006     -0.06060662468    
850008100         -0.1804936339     0.1104425895      1.882797153       5.505966219       
                  1.882797153       5.505966219       -0.0716757524     0.06509212073     
935008010         0.1440463547      0.1225016094      3.925967609       -4.231879121      
                  3.925967609       -4.231879121      0.1021547531      0.03893244548     
1020007920        0.07509392362     -0.1520285217     -5.579374         -1.42916547       
                  -5.579374         -1.42916547       -0.004726026694   -0.07571295077    
1105007830        -0.2235615641     -0.008553540501   1.496246026       5.597036963       
                  1.496246026       5.597036963       -0.06307275795    0.0753309118      
1190007740        0.07040519972     0.1385639027      4.173915091       -3.859733976      
                  4.173915091       -3.859733976      0.1242972497      -0.04256572304    
1275007650        0.1630707891      -0.1072142028     -5.46019746       -1.806276479      
                  -5.46019746       -1.806276479      -0.03014609735    -0.08913424452    
1360007560        -0.1616719119     -0.09991622572    1.061113929       5.623612981       
                  1.061113929       5.623612981       -0.005591444136   0.1017793233      
1445007470        0.0005123470258   0.1396782808      4.386191033       -3.545894774      
                  4.386191033       -3.545894774      0.1471301465      -0.08834822644    
1530007380        0.1823945967      -0.01067637926    -5.300268306      -2.159595872      
                  -5.300268306      -2.159595872      -0.06934546518    -0.0645894183     
1615007290        -0.09256243823    -0.1217978437     0.6421040091      5.579765371       
                  0.6421040091      5.579765371       0.02328606106     0.142323915       
1700007200        -0.08707806221    0.09499248046     4.638215158       -3.252501081      
                  4.638215158       -3.252501081      0.1109783312      -0.1334961797     
1785007110        0.1252716328      0.03118777867     -5.056725566      -2.496302127      
                  -5.056725566      -2.496302127      -0.1320360805     -0.06410063405    
1870007020        -0.02143618546    -0.1328800361     0.2496580317      5.584017257       
                  0.2496580317      5.584017257       0.0657560823      0.1322163919      
1955006930        -0.1042165924     0.01998028081     4.841916103       -2.901577287      
                  4.841916103       -2.901577287      0.08928107057     -0.1939013396     
2040006840        0.08010868794     0.03673068024     -4.819889424      -2.776072687      
                  -4.819889424      -2.776072687      -0.1548535475     -0.04167362114    
2125006750        0.03495517391     -0.08979898956    -0.1609218939     5.61181213        
                  -0.1609218939     5.61181213        0.1309850133      0.1369360971      
2210006660        -0.08859652397    -0.0008815101508  4.932832285       -2.549479065      
                  4.932832285       -2.549479065      0.04797360567     -0.2181849131     
2295006570        0.027936862       0.03276738887     -4.587307441      -3.099908899      
                  -4.587307441      -3.099908899      -0.1862600621     0.01533149245     
2380006480        0.02579844902     -0.04997925008    -0.5207549188     5.545256942       
                  -0.5207549188     5.545256942       0.1669337954      0.1139989709      
2465006390        -0.08401566527    -0.01459236515    5.005280471       -2.233718199      
                  5.005280471       -2.233718199      -0.01968481138    -0.2597369825     
2550006300        0.01187200317     -0.003334881144   -4.278113744      -3.434877391      
                  -4.278113744      -3.434877391      -0.1910268655     0.06061847239     
2635006210        0.02108325736     -0.04383642578    -0.849087659      5.483448195       
                  -0.849087659      5.483448195       0.2135666255      0.0641121775      
2720006120        -0.07956126267    -0.006840747852   5.077010249       -1.864978893      
                  5.077010249       -1.864978893      -0.09054661453    -0.2647667415     
2805006030        0.02001258528     -0.004057605097   -3.995100714      -3.67519139       
                  -3.995100714      -3.67519139       -0.1631508817     0.1233189983      
2890005940        0.01606806807     -0.03811830814    -1.179716356      5.355036064       
                  -1.179716356      5.355036064       0.2322446391      0.0090558214      
2975005850        -0.09387433461    -0.002775968358   5.105329384       -1.408699804      
                  5.105329384       -1.408699804      -0.1621633868     -0.2477902781     
3060005760        0.02295466961     0.00705358652     -3.69875708       -4.013292742      
                  -3.69875708       -4.013292742      -0.1190368188     0.1687485657      
3145005670        0.03169748397     -0.04838145953    -1.575576943      5.202042351       
                  -1.575576943      5.202042351       0.2319312606      -0.07148504075    
3230005580        -0.1032538198     -0.02777769333    5.211122714       -1.00816844       
                  5.211122714       -1.00816844       -0.2269157381     -0.2082236358     
3315005490        0.01725247542     0.03150772607     -3.432631142      -4.228888937      
                  -3.432631142      -4.228888937      -0.04601793176    0.2027708551      
3400005400        0.05892031442     -0.03530190081    -1.915169112      5.034843989       
                  -1.915169112      5.034843989       0.2018731347      -0.1448534782     
3485005310        -0.1024596016     -0.05929036994    5.304926871       -0.6559214574     
                  5.304926871       -0.6559214574     -0.2820442415     -0.1297606312     
3570005220        -0.01414625871    0.05233520067     -3.260836869      -4.40231605       
                  -3.260836869      -4.40231605       0.0334771718      0.2108697294      
3655005130        0.0698117293      -0.00382548204    -2.097838528      4.900175521       
                  -2.097838528      4.900175521       0.1348298634      -0.2086727252     
3740005040        -0.08416799984    -0.0915923786     5.287666067       -0.3154584249     
                  5.287666067       -0.3154584249     -0.3119481647     -0.03955884784    
3825004950        -0.05431680489    0.04419310836     -3.001766387      -4.512045783      
                  -3.001766387      -4.512045783      0.1134184332      0.1764264552      
3910004860        0.0694616842      0.03025928129     -2.496488462      4.681215044       
                  -2.496488462      4.681215044       0.05070274387     -0.2591096337     
3995004770        -0.03970492893    -0.113642824      5.30365634        -0.01613982543    
                  5.30365634        -0.01613982543    -0.3054675454     0.06529748525     
4080004680        -0.08400465056    0.01842347144     -2.727605114      -4.670497952      
                  -2.727605114      -4.670497952      0.1909245488      0.1285989712      
4165004590        0.04911024318     0.06587003585     -2.760329532      4.532896128       
                  -2.760329532      4.532896128       -0.04628242369    -0.2718672239     
4250004500        0.00347957344     -0.09570125375    5.376521432       0.2234994684      
                  5.376521432       0.2234994684      -0.265866037      0.1756725655      
4335004410        -0.106206955      -0.008636839398   -2.476359422      -4.763001112      
                  -2.476359422      -4.763001112      0.2301942154      0.04460301927     
4420004320        0.004905579416    0.08380631668     -2.932966454      4.420974897       
                  -2.932966454      4.420974897       -0.163890767      -0.2508934673     
4505004230        0.03313597216     -0.06912549263    5.3088669         0.3779705524      
                  5.3088669         0.3779705524      -0.1967776725     0.2591362118      
4590004140        -0.1106099457     -0.04268773404    -2.221118917      -4.777713933      
                  -2.221118917      -4.777713933      0.2297223052      -0.05752438822    
4675004050        -0.03220161669    0.07701588434     -3.001388797      4.297297624       
                  -3.001388797      4.297297624       -0.2555002503     -0.19142823       
4760003960        0.05832941186     -0.03111498525    5.148917565       0.5965291046      
                  5.148917565       0.5965291046      -0.08645326382    0.3113104833      
4845003870        -0.09194380378    -0.06416217435    -1.981413361      -4.80290531       
                  -1.981413361      -4.80290531       0.2004915734      -0.1548538057     
4930003780        -0.06657424987    0.05441323621     -3.152338204      4.106305331       
                  -3.152338204      4.106305331       -0.3197048014     -0.09977476943    
5015003690        0.05841336653     0.02254848749     5.012345137       0.8251915215      
                  5.012345137       0.8251915215      0.03560658416     0.3347763064      
5100003600        -0.07026479511    -0.05968895412    -1.821866697      -4.832622319      
                  -1.821866697      -4.832622319      0.1196403252      -0.229406185      
5185003510        -0.08741167153    0.02272245333     -3.187549376      3.875188667       
                  -3.187549376      3.875188667       -0.349823239      0.01125596119     
5270003420        0.02998952607     0.06032387842     4.86403393        1.039495376       
                  4.86403393        1.039495376       0.1496251527      0.299872774       
5355003330        -0.05928100191    -0.03536467428    -1.720259952      -4.844845111      
                  -1.720259952      -4.844845111      -0.002362438079   -0.2790743873     
5440003240        -0.07658300543    -0.01997232999    -3.133423919      3.700309074       
                  -3.133423919      3.700309074       -0.3196974145     0.1320913208      
5525003150        0.00124928013     0.05679591844     4.826208405       1.139069532       
                  4.826208405       1.139069532       0.2689603675      0.2016368568      
5610003060        -0.04838904253    0.008227317641    -1.653359052      -4.680291216      
                  -1.653359052      -4.680291216      -0.136690034      -0.2679195062     
5695002970        -0.02704447768    -0.02676383115    -3.124388902      3.478835665       
                  -3.124388902      3.478835665       -0.2216526598     0.2527004078      
5780002880        -0.005146710888   0.02918109618     4.747992682       1.210953476       
                  4.747992682       1.210953476       0.3296786325      0.05827623443     
5865002790        -0.07682897815    0.0547188182      -1.533454261      -4.434592714      
                  -1.533454261      -4.434592714      -0.2721780075     -0.1854974858     
5950002700        0.01739977591     0.01451081973     -3.149196379      3.26855026        
                  -3.149196379      3.26855026        -0.08290817104    0.3331327015      
6035002610        -0.002487423855   -0.02407311854    4.517837639       1.116706321       
                  4.517837639       1.116706321       0.2988312976      -0.0973050046     
6120002520        -0.1357741142     0.05532768783     -1.397674988      -4.199661569      
                  -1.397674988      -4.199661569      -0.358459013      -0.04568828881    
6205002430        0.05088480059     0.08822234022     -3.053702238      3.064406882       
                  -3.053702238      3.064406882       0.1020530176      0.3377291683      
6290002340        0.06763894348     -0.07115452083    4.294870619       1.011036889       
                  4.294870619       1.011036889       0.1953212122      -0.2479038473     
6375002250        -0.2006017779     -0.003508198906   -1.279503738      -3.944971776      
                  -1.279503738      -3.944971776      -0.3762104443     0.1297042924      
6460002160        0.01401539436     0.198015199       -2.850853283      2.867177172       
                  -2.850853283      2.867177172       0.2709370589      0.2729500294      
6545002070        0.1738551478      -0.04137511978    3.923220062       0.9509307395      
                  3.923220062       0.9509307395      0.02930462612     -0.3201515031     
6630001980        -0.1906282274     -0.1149266743     -1.125970159      -3.672172761      
                  -1.125970159      -3.672172761      -0.2987634387     0.3023156641      
6715001890        -0.08100186862    0.2626513499      -2.590137667      2.558143021       
                  -2.590137667      2.558143021       0.3840392244      0.1563065634      
6800001800        0.2569669744      0.06833307754     3.482700805       1.03403075        
                  3.482700805       1.03403075        -0.1314369474     -0.3089860403     
6885001710        -0.08864794758    -0.2372204625     -0.815701224      -3.360844464      
                  -0.815701224      -3.360844464      -0.188879859      0.3881507609      
6970001620        -0.2122072762     0.2207510954      -2.53068998       2.168102211       
                  -2.53068998       2.168102211       0.4234507938      0.02360022891     
7055001530        0.2524057203      0.213709268       3.121408937       1.174588073       
                  3.121408937       1.174588073       -0.2570592756     -0.2715240418     
7140001440        0.08941650283     -0.2924681646     -0.5380191754     -3.134498591      
                  -0.5380191754     -3.134498591      -0.06353369561    0.4540861365      
7225001350        -0.2943364174     0.08633256338     -2.499751577      1.856613421       
                  -2.499751577      1.856613421       0.4528950939      -0.1033494167     
7310001260        0.1614310314      0.3475544394      2.797215816       1.123019083       
                  2.797215816       1.123019083       -0.3587689167     -0.1851807217     
7395001170        0.2880171923      -0.2193294428     -0.2468354764     -2.892925652      
                  -0.2468354764     -2.892925652      0.07707802035     0.4823147706      
7480001080        -0.2929092571     -0.1182763468     -2.348161098      1.575280861       
                  -2.348161098      1.575280861       0.3950194386      -0.2370110737     
7565000990        -0.03889441476    0.3968088206      2.554342549       1.131304926       
                  2.554342549       1.131304926       -0.4252923313     -0.08468191132    
7650000900        0.4000626015      -0.05004644258    -0.05389104581    -2.561868923      
                  -0.05389104581    -2.561868923      0.2128799914      0.4390707523      
7735000810        -0.1558311809     -0.308460642      -2.258793089      1.320819903       
                  -2.258793089      1.320819903       0.3175299924      -0.3463345851     
7820000720        -0.2112830372     0.3130134862      2.236295543       1.222606404       
                  2.236295543       1.222606404       -0.4063634722     0.0249126005      
7905000630        0.4119145574      0.142645855       0.09934391809     -2.269435782      
                  0.09934391809     -2.269435782      0.3242791918      0.3627681244      
7990000540        0.07089936961     -0.3900106746     -2.183834372      0.9050572116      
                  -2.183834372      0.9050572116      0.2216557508      -0.4073552832     
8075000450        -0.3519090714     0.1152764506      1.874856309       1.418137399       
                  1.874856309       1.418137399       -0.3883322852     0.1188406512      
8160000360        0.2937870694      0.3155046954      0.2543559772      -2.16232276       
                  0.2543559772      -2.16232276       0.399452953       0.2800674808      
8245000270        0.2603746186      -0.3349503374     -2.019278991      0.6043101355      
                  -2.019278991      0.6043101355      0.1151258797      -0.4444137958     
8330000180        -0.3651095417     -0.136142079      1.614819576       1.486606523       
                  1.614819576       1.486606523       -0.3434893347     0.1935098782      
8415000090        0.0750831159      0.3930972868      0.3860318139      -1.976730981      
                  0.3860318139      -1.976730981      0.4360547359      0.1673835157      
8500000000        0.3840516153      -0.1835043286     -1.8191114        0.4383066948      
                  -1.8191114        0.4383066948      -0.00440683412    -0.4608226889     
