! RsaToolbox (C) 2013 Rohde & Schwarz America
! 
! Number of points: 101
! Number of ports: 2
! Balanced ports?: 0
! 
! 
# Hz S RI R 50
9000              1.002837604       -0.01670864424    7.177101809e-05   -3.211165838e-06  
                  7.177101809e-05   -3.211165838e-06  1.011786411       -0.02291084805    
85008910          0.0004730844364   0.1547271585      3.180689592       5.449022564       
                  3.180689592       5.449022564       -0.09228067854    -0.1159157641     
170008820         0.1392452071      -0.04114096627    3.16111356        -5.195136957      
                  3.16111356        -5.195136957      -0.02081942198    0.1717246631      
255008730         -0.172952683      -0.07441367122    -6.027816542      -0.1550438664     
                  -6.027816542      -0.1550438664     0.07759472078     -0.02652985456    
340008640         -0.0636016087     0.1660454094      2.648005622       5.321252289       
                  2.648005622       5.321252289       -0.1267600034     -0.05394009121    
425008550         0.1560254158      -0.04537261573    3.359359715       -4.852423441      
                  3.359359715       -4.852423441      0.01647453289     0.1029125908      
510008460         -0.09958379859    -0.1609046053     -5.879667962      -0.6282689944     
                  -5.879667962      -0.6282689944     0.07079758432     -0.07973000417    
595008370         -0.1057345203     0.1364040003      2.233222462       5.392357628       
                  2.233222462       5.392357628       -0.0839086363     -0.01209800897    
680008280         0.2010852579      0.033502618       3.630698541       -4.568757001      
                  3.630698541       -4.568757001      0.09213124104     0.07549054903     
765008190         0.01040290517     -0.160135563      -5.707543067      -1.077072553      
                  -5.707543067      -1.077072553      0.06030873602     -0.06065869261    
850008100         -0.1792468756     0.1094839618      1.886593991       5.490405937       
                  1.886593991       5.490405937       -0.07187415081    0.06506007812     
935008010         0.1426088216      0.1215982563      3.912190136       -4.227257026      
                  3.912190136       -4.227257026      0.1021313506      0.03897470654     
1020007920        0.07461336755     -0.1503327434     -5.566546007      -1.416790948      
                  -5.566546007      -1.416790948      -0.004876207201   -0.07571425745    
1105007830        -0.2220243676     -0.008704410538   1.505449378       5.579743434       
                  1.505449378       5.579743434       -0.06315607792    0.07525708645     
1190007740        0.06953986456     0.1367507761      4.15512336        -3.854878293      
                  4.15512336        -3.854878293      0.1242243499      -0.04240312796    
1275007650        0.1618271275      -0.1059190517     -5.45021256       -1.790690214      
                  -5.45021256       -1.790690214      -0.03010676997    -0.08920716563    
1360007560        -0.1600245008     -0.09898930667    1.071218388       5.606070081       
                  1.071218388       5.606070081       -0.005562030387   0.1019964119      
1445007470        0.0006748071377   0.1376255212      4.367784261       -3.543617424      
                  4.367784261       -3.543617424      0.1472225112      -0.08826152554    
1530007380        0.1804140846      -0.01015870643    -5.291436529      -2.139440721      
                  -5.291436529      -2.139440721      -0.06942049429    -0.06460828876    
1615007290        -0.09115101947    -0.1195413109     0.6567470126      5.559109689       
                  0.6567470126      5.559109689       0.02292646211     0.1422610459      
1700007200        -0.08568037394    0.09286746135     4.613834268       -3.25537796       
                  4.613834268       -3.25537796       0.1109922846      -0.1334654695     
1785007110        0.1226635374      0.03054049473     -5.048351914      -2.471336535      
                  -5.048351914      -2.471336535      -0.1320566958     -0.06414693234    
1870007020        -0.02120850852    -0.1298949641     0.2697338099      5.564440933       
                  0.2697338099      5.564440933       0.06573360954     0.1323698853      
1955006930        -0.1015876005     0.01881889722     4.81427649        -2.910672172      
                  4.81427649        -2.910672172      0.08930337383     -0.1940197486     
2040006840        0.07764351674     0.03440263198     -4.812397758      -2.746057598      
                  -4.812397758      -2.746057598      -0.1549780636     -0.04169297255    
2125006750        0.03354150946     -0.08682082283    -0.1366058889     5.589863964       
                  -0.1366058889     5.589863964       0.1309879325      0.1370350997      
2210006660        -0.08502812804    -0.0006260173311  4.89919983        -2.560945689      
                  4.89919983        -2.560945689      0.0480227114      -0.218290578      
2295006570        0.02672143101     0.02904486814     -4.580066463      -3.063865409      
                  -4.580066463      -3.063865409      -0.1864228259     0.01527796798     
2380006480        0.02261763262     -0.04760143992    -0.4912721705     5.520547013       
                  -0.4912721705     5.520547013       0.1668656758      0.1141243905      
2465006390        -0.08032111478    -0.01230471357    4.96595591        -2.249821787      
                  4.96595591        -2.249821787      -0.01966191058    -0.2598596404     
2550006300        0.01250318171     -0.007823998231   -4.269590912      -3.396429161      
                  -4.269590912      -3.396429161      -0.1911378746     0.06056716361     
2635006210        0.01630570592     -0.04316788109    -0.8108187985     5.456383151       
                  -0.8108187985     5.456383151       0.2136301022      0.06420908532     
2720006120        -0.07691709142    -0.00271175995    5.036267559       -1.882581891      
                  5.036267559       -1.882581891      -0.09055465714    -0.2648447606     
2805006030        0.02294884536     -0.008302586328   -3.989918951      -3.629875449      
                  -3.989918951      -3.629875449      -0.1632456026     0.1233124858      
2890005940        0.01068423589     -0.0401327773     -1.131030319      5.325717262       
                  -1.131030319      5.325717262       0.2323080155      0.009053038518    
2975005850        -0.09329836001    0.002923338115    5.060772486       -1.430248268      
                  5.060772486       -1.430248268      -0.1622735678     -0.2479628115     
3060005760        0.0279406465      0.00467709441     -3.700401201      -3.957241477      
                  -3.700401201      -3.957241477      -0.1191207115     0.1687418944      
3145005670        0.02750904255     -0.0528027976     -1.517782271      5.172398966       
                  -1.517782271      5.172398966       0.2319073783      -0.07167216618    
3230005580        -0.1053393223     -0.02215562041    5.162847143       -1.037427214      
                  5.162847143       -1.037427214      -0.2269152031     -0.2081678158     
3315005490        0.02374438091     0.03188089024     -3.443243193      -4.161737758      
                  -3.443243193      -4.161737758      -0.04602930995    0.2027219883      
3400005400        0.05667449411     -0.04247347457    -1.843141627      5.005501097       
                  -1.843141627      5.005501097       0.2016953506      -0.1450273873     
3485005310        -0.1078180094     -0.05449356708    5.248544714       -0.6981682512     
                  5.248544714       -0.6981682512     -0.2821602019     -0.1299205601     
3570005220        -0.006988678975   0.05670115674     -3.279656136      -4.316451055      
                  -3.279656136      -4.316451055      0.03342546848     0.21106623        
3655005130        0.0712976908      -0.01271872246    -2.008826736      4.868907789       
                  -2.008826736      4.868907789       0.1349776131      -0.2087352698     
3740005040        -0.09253842657    -0.08963790382    5.223063035       -0.3752479106     
                  5.223063035       -0.3752479106     -0.3119445283     -0.03978168015    
3825004950        -0.04877901337    0.05377890852     -3.03441858       -4.396916883      
                  -3.03441858       -4.396916883      0.1136015613      0.1765373514      
3910004860        0.07691091578     0.02083880221     -2.378735328      4.652507937       
                  -2.378735328      4.652507937       0.05091847487     -0.2590016289     
3995004770        -0.05134197468    -0.1169907534     5.215504337       -0.1090136972     
                  5.215504337       -0.1090136972     -0.3055117872     0.06535361755     
4080004680        -0.08342332816    0.03263090925     -2.768074039      -4.528507559      
                  -2.768074039      -4.528507559      0.1911727736      0.12853854        
4165004590        0.06207986318     0.05939807051     -2.627566292      4.499104248       
                  -2.627566292      4.499104248       -0.0461596757     -0.2720630421     
4250004500        -0.007948352812   -0.1059980614     5.266079251       0.1100774683      
                  5.266079251       0.1100774683      -0.2657149964     0.1757177687      
4335004410        -0.1129078141     0.007518486929    -2.525471756      -4.592695824      
                  -2.525471756      -4.592695824      0.2303916999      0.04497826488     
4420004320        0.02235299206     0.08336413982     -2.765654429      4.382467459       
                  -2.765654429      4.382467459       -0.1637866646     -0.2509905272     
4505004230        0.02569498034     -0.08661552976    5.171940037       0.2364864807      
                  5.171940037       0.2364864807      -0.196883685      0.2591619935      
4590004140        -0.1256930776     -0.02862100012    -2.279467507      -4.577648356      
                  -2.279467507      -4.577648356      0.2298095777      -0.05748010154    
4675004050        -0.01323613437    0.08574432876     -2.794721516      4.244550297       
                  -2.794721516      4.244550297       -0.2555109827     -0.1914454095     
4760003960        0.05915141373     -0.0530292045     4.995351953       0.4355960552      
                  4.995351953       0.4355960552      -0.08676176695    0.3113296439      
4845003870        -0.1142242877     -0.05637353039    -2.04779044       -4.565043107      
                  -2.04779044       -4.565043107      0.2005445944      -0.1548580536     
4930003780        -0.0511167196     0.07334691512     -2.909129613      4.037185374       
                  -2.909129613      4.037185374       -0.3197746622     -0.09986471549    
5015003690        0.06988613276     -3.358934799e-05  4.840203403       0.6449736652      
                  4.840203403       0.6449736652      0.03508050483     0.3348706945      
5100003600        -0.0971112358     -0.06275407449    -1.893970491      -4.541984817      
                  -1.893970491      -4.541984817      0.1197434119      -0.2293803294     
5185003510        -0.08076586827    0.0488461711      -2.923981449      3.789455474       
                  -2.923981449      3.789455474       -0.3500013746     0.01121549377     
5270003420        0.05099422584     0.04305907849     4.675352985       0.8486696659      
                  4.675352985       0.8486696659      0.1495922462      0.3000606442      
5355003330        -0.0844064915     -0.05189732119    -1.791834235      -4.50273465       
                  -1.791834235      -4.50273465       -0.00214599614    -0.2792447473     
5440003240        -0.08125540371    0.006893975408    -2.878983888      3.606657052       
                  -2.878983888      3.606657052       -0.3198732718     0.1320105783      
5525003150        0.02812513909     0.04960810279     4.613105314       0.9367511323      
                  4.613105314       0.9367511323      0.268952214       0.2017440036      
5610003060        -0.06369266328    -0.0171395786     -1.709309718      -4.344088172      
                  -1.709309718      -4.344088172      -0.1365726586     -0.2680859699     
5695002970        -0.04268468558    -0.003796600071   -2.868434131      3.378707045       
                  -2.868434131      3.378707045       -0.2217517096     0.2527933699      
5780002880        0.02354759244     0.0349434008      4.500940859       0.9963621983      
                  4.500940859       0.9963621983      0.3297565562      0.05830407243     
5865002790        -0.07967705717    0.02640046013     -1.569025853      -4.125791694      
                  -1.569025853      -4.125791694      -0.2721523546     -0.1856804261     
5950002700        -0.006006369407   0.02884785606     -2.88666794       3.166882222       
                  -2.88666794       3.166882222       -0.08295908512    0.3332447605      
6035002610        0.02023193842     -0.006366803212   4.261353283       0.9226108833      
                  4.261353283       0.9226108833      0.2990834825      -0.09716010843    
6120002520        -0.1265322024     0.02971716807     -1.419954987      -3.916905885      
                  -1.419954987      -3.916905885      -0.3583749673     -0.04579949777    
6205002430        0.02484983431     0.09057804062     -2.805796004      2.966801629       
                  -2.805796004      2.966801629       0.1020738097      0.3379090025      
6290002340        0.07887641807     -0.04662521745    4.046640927       0.8480948022      
                  4.046640927       0.8480948022      0.1955002593      -0.2479429464     
6375002250        -0.1835743035     -0.02126602686    -1.289160485      -3.705575321      
                  -1.289160485      -3.705575321      -0.3761841608     0.1295040037      
6460002160        -0.007503291503   0.190229874       -2.643062755      2.778698389       
                  -2.643062755      2.778698389       0.2709471357      0.2725510662      
6545002070        0.1735249397      -0.01780424754    3.716756282       0.8223643751      
                  3.716756282       0.8223643751      0.02916871664     -0.3203141621     
6630001980        -0.17032448       -0.1229312441     -1.129893716      -3.469602822      
                  -1.129893716      -3.469602822      -0.2988561882     0.3023490931      
6715001890        -0.09468856825    0.2490085612      -2.427796298      2.484202606       
                  -2.427796298      2.484202606       0.3841047307      0.1564484731      
6800001800        0.2481503807      0.08620092671     3.324061254       0.9238605358      
                  3.324061254       0.9238605358      -0.131306068      -0.308989789      
6885001710        -0.07010652088    -0.2356866439     -0.824721118      -3.19792742       
                  -0.824721118      -3.19792742       -0.1878846358     0.388300047       
6970001620        -0.217288348      0.2055940597      -2.400315699      2.115128858       
                  -2.400315699      2.115128858       0.4236028379      0.02387896281     
7055001530        0.2408215573      0.2230679093      3.013404489       1.086547056       
                  3.013404489       1.086547056       -0.2571758214     -0.2715061358     
7140001440        0.09989986304     -0.286026153      -0.5497346077     -3.02857268       
                  -0.5497346077     -3.02857268       -0.06363568759    0.4542437376      
7225001350        -0.2935545925     0.07394762539     -2.403188235      1.822197527       
                  -2.403188235      1.822197527       0.4529229232      -0.103107506      
7310001260        0.1517620971      0.3497580987      2.72572935        1.065699226       
                  2.72572935        1.065699226       -0.3588340044     -0.1851776435     
7395001170        0.2930567749      -0.2109148519     -0.2617259022     -2.81188018       
                  -0.2617259022     -2.81188018       0.07686551159     0.4825150859      
7480001080        -0.2871936802     -0.1279510597     -2.26543497       1.545933234       
                  -2.26543497       1.545933234       0.3950222349      -0.2371599582     
7565000990        -0.04803222999    0.3950167581      2.490544879       1.081771838       
                  2.490544879       1.081771838       -0.4251607198     -0.08384942983    
7650000900        0.4007688142      -0.04318084445    -0.06548330431    -2.508859895      
                  -0.06548330431    -2.508859895      0.2127040824      0.4393356221      
7735000810        -0.1503344876     -0.3117924737     -2.211800987      1.303224014       
                  -2.211800987      1.303224014       0.3175913183      -0.3463229467     
7820000720        -0.2162817985     0.3095177641      2.197819887       1.191404545       
                  2.197819887       1.191404545       -0.4065383679     0.0248090264      
7905000630        0.4104865169      0.1469216631      0.09212917076     -2.235640489      
                  0.09212917076     -2.235640489      0.3243179955      0.3628889369      
7990000540        0.07602347626     -0.390450337      -2.145101284      0.8943763359      
                  -2.145101284      0.8943763359      0.2217175057      -0.4074911887     
8075000450        -0.354266564      0.110692677       1.846087888       1.391927156       
                  1.846087888       1.391927156       -0.3884093123     0.1187323503      
8160000360        0.2908510664      0.3185741912      0.2469193562      -2.132279985      
                  0.2469193562      -2.132279985      0.3995552614      0.280223147       
8245000270        0.2636567145      -0.3333955324     -1.993710995      0.5998982632      
                  -1.993710995      0.5998982632      0.1144759643      -0.4446434617     
8330000180        -0.3648681443     -0.1399457663     1.596629726       1.46542825        
                  1.596629726       1.46542825        -0.3435526288     0.1933189772      
8415000090        0.07209868949     0.394175437       0.3793530606      -1.954531047      
                  0.3793530606      -1.954531047      0.4361927051      0.1673919645      
8500000000        0.3858075294      -0.1816166497     -1.802535174      0.4329561444      
                  -1.802535174      0.4329561444      -0.004170849808   -0.4610010391     
