! RsaToolbox (C) 2013 Rohde & Schwarz America
! 
! Number of points: 101
! Number of ports: 2
! Balanced ports?: 0
! 
! 
# Hz S RI R 50
9000              1.006796177       -0.01736982146    9.746008292e-05   3.948943789e-06   
                  9.746008292e-05   3.948943789e-06   1.015896081       -0.02319102919    
85008910          0.001770902948    0.157738531       3.19187811        5.487969806       
                  3.19187811        5.487969806       -0.0921002272     -0.1156659893     
170008820         0.1413173224      -0.04328631849    3.178690019       -5.217588593      
                  3.178690019       -5.217588593      -0.02064055287    0.1717207602      
255008730         -0.1750588929     -0.07554495825    -6.049361508      -0.1608746801     
                  -6.049361508      -0.1608746801     0.07765352625     -0.02655219655    
340008640         -0.06356414054    0.1686563731      2.654131042       5.343608552       
                  2.654131042       5.343608552       -0.1265802937     -0.05388020157    
425008550         0.1583072287      -0.04605188335    3.377707203       -4.866756878      
                  3.377707203       -4.866756878      0.0166464616      0.1029495784      
510008460         -0.1010490648     -0.1626889195     -5.898561734      -0.6360215512     
                  -5.898561734      -0.6360215512     0.07076395246     -0.07968735813    
595008370         -0.1069340149     0.1388274547      2.233661341       5.414868959       
                  2.233661341       5.414868959       -0.08376684452    -0.0121216328     
680008280         0.2033650438      0.03374348019     3.649969005       -4.575979414      
                  3.649969005       -4.575979414      0.09210741753     0.07537596877     
765008190         0.009846125839    -0.1626083991     -5.725028036      -1.090540102      
                  -5.725028036      -1.090540102      0.06022826177     -0.06070289573    
850008100         -0.1810650737     0.1108589537      1.87950194        5.511992257       
                  1.87950194        5.511992257       -0.07169233566    0.06509239452     
935008010         0.1445792803      0.1229031503      3.933497951       -4.231864437      
                  3.933497951       -4.231864437      0.1021215565      0.03882092641     
1020007920        0.07507939677     -0.1526978617     -5.582963469      -1.43472514       
                  -5.582963469      -1.43472514       -0.004773423362   -0.07564075541    
1105007830        -0.224265501      -0.008454499132   1.491476812       5.603365734       
                  1.491476812       5.603365734       -0.0630663207     0.0752864958      
1190007740        0.07067490196     0.1392241369      4.180588185       -3.860924976      
                  4.180588185       -3.860924976      0.1243350258      -0.04261618546    
1275007650        0.1635115089      -0.1078977184     -5.463743725      -1.813483339      
                  -5.463743725      -1.813483339      -0.03004607282    -0.08917972661    
1360007560        -0.1623840815     -0.1002711244     1.05625632        5.630779819       
                  1.05625632        5.630779819       -0.005461394608   0.1018150826      
1445007470        0.0005678249095   0.1405623772      4.394502295       -3.544966289      
                  4.394502295       -3.544966289      0.1471903657      -0.08834356694    
1530007380        0.1833441263      -0.01096736236    -5.302941496      -2.1700778        
                  -5.302941496      -2.1700778        -0.06933648556    -0.06459992114    
1615007290        -0.09328061984    -0.1226465117     0.6338340707      5.588350569       
                  0.6338340707      5.588350569       0.02317361463     0.1422373991      
1700007200        -0.08771313988    0.09604377496     4.65107859        -3.249521208      
                  4.65107859        -3.249521208      0.1108879149      -0.1334954975     
1785007110        0.1264361946      0.03146120765     -5.059518957      -2.50880442       
                  -5.059518957      -2.50880442       -0.1319594276     -0.06401428699    
1870007020        -0.02154011464    -0.13400442       0.2404604398      5.593391831       
                  0.2404604398      5.593391831       0.06580266188     0.1322241423      
1955006930        -0.1053116217     0.02068001781     4.856107351       -2.897146188      
                  4.856107351       -2.897146188      0.08925052027     -0.19395711       
2040006840        0.08122081221     0.03770984888     -4.823654103      -2.790540814      
                  -4.823654103      -2.790540814      -0.1547968515     -0.04165581535    
2125006750        0.0354762674      -0.09114870889    -0.1725800043     5.621801285       
                  -0.1725800043     5.621801285       0.1309892072      0.1367891836      
2210006660        -0.09001443933    -0.0008137892647  4.947881699       -2.543811364      
                  4.947881699       -2.543811364      0.04805350297     -0.2181531595     
2295006570        0.0285331115      0.03428691728     -4.5906313        -3.117120868      
                  -4.5906313        -3.117120868      -0.1861270607     0.01531622629     
2380006480        0.02708911654     -0.05091351583    -0.5344537074     5.556596637       
                  -0.5344537074     5.556596637       0.1670131389      0.1138956568      
2465006390        -0.0855129784     -0.01529793875    5.023060432       -2.225701881      
                  5.023060432       -2.225701881      -0.0196308379     -0.2596259368     
2550006300        0.01174517204     -0.001547574215   -4.280530333      -3.453208457      
                  -4.280530333      -3.453208457      -0.1910095609     0.06064937009     
2635006210        0.02284386854     -0.04412994981    -0.8677521767     5.495914712       
                  -0.8677521767     5.495914712       0.213495888       0.06415140594     
2720006120        -0.08065426979    -0.008608407015   5.097075552       -1.854393735      
                  5.097075552       -1.854393735      -0.09075555932    -0.264563197      
2805006030        0.01908193461     -0.002494644437   -3.996777088      -3.697775279      
                  -3.996777088      -3.697775279      -0.1630607704     0.1234076377      
2890005940        0.01809847318     -0.03747856465    -1.201245863      5.369631376       
                  -1.201245863      5.369631376       0.2321654899      0.009116231484    
2975005850        -0.09429090914    -0.004977393087   5.125830212       -1.399621696      
                  5.125830212       -1.399621696      -0.162139853      -0.2476364982     
3060005760        0.02115465545     0.008241103925    -3.699774183      -4.035823874      
                  -3.699774183      -4.035823874      -0.1189537252     0.1688595903      
3145005670        0.03343768591     -0.04690289537    -1.597315689      5.215156962       
                  -1.597315689      5.215156962       0.2316809395      -0.07153433309    
3230005580        -0.1024594263     -0.02993331532    5.232677511       -0.9973316974     
                  5.232677511       -0.9973316974     -0.226921834      -0.2081090372     
3315005490        0.01477712928     0.03154490286     -3.430754204      -4.256882323      
                  -3.430754204      -4.256882323      -0.04600239863    0.2027719012      
3400005400        0.05967534691     -0.03263956623    -1.943580261      5.049514355       
                  -1.943580261      5.049514355       0.201630437       -0.1447558225     
3485005310        -0.1005399134     -0.06116655717    5.328694856       -0.6404699687     
                  5.328694856       -0.6404699687     -0.2821086452     -0.1296310794     
3570005220        -0.01672085925    0.0510573799      -3.253702448      -4.43639353       
                  -3.253702448      -4.43639353       0.03353872385     0.2106027149      
3655005130        0.06938657359     -0.0006097756929  -2.131756931      4.911774979       
                  -2.131756931      4.911774979       0.1352674796      -0.2083235506     
3740005040        -0.0811495866     -0.09220707626    5.31222487        -0.2919415526     
                  5.31222487        -0.2919415526     -0.3120391601     -0.03965264749    
3825004950        -0.05630576008    0.04107348025     -2.988256606      -4.555558545      
                  -2.988256606      -4.555558545      0.1134208855      0.1762433478      
3910004860        0.06709273629     0.03353223608     -2.540762963      4.691614986       
                  -2.540762963      4.691614986       0.05065543243     -0.2589183057     
3995004770        -0.03578818301    -0.1126601506     5.33497881        0.01726125942     
                  5.33497881        0.01726125942     -0.3053449951     0.06526984046     
4080004680        -0.08449910206    0.01372918202     -2.712432462      -4.721895508      
                  -2.712432462      -4.721895508      0.1908500756      0.1284270605      
4165004590        0.04493099254     0.06780028821     -2.808199672      4.546885994       
                  -2.808199672      4.546885994       -0.04617867399    -0.2716775255     
4250004500        0.007206182162    -0.09224678745    5.415522519       0.263644125       
                  5.415522519       0.263644125       -0.265616227      0.1757651619      
4335004410        -0.104178181      -0.01377308562    -2.458298283      -4.822887486      
                  -2.458298283      -4.822887486      0.2301367691      0.04460051498     
4420004320        -0.0006996536229  0.08390313605     -2.993934621      4.434017654       
                  -2.993934621      4.434017654       -0.1638510918     -0.2508132127     
4505004230        0.03569296826     -0.06363579366    5.355922854       0.4294976623      
                  5.355922854       0.4294976623      -0.1966513744     0.2590673962      
4590004140        -0.1059544174     -0.04711686413    -2.198005529      -4.846914407      
                  -2.198005529      -4.846914407      0.229684881       -0.05798474913    
4675004050        -0.03829414885    0.07422863082     -3.073780133      4.312307599       
                  -3.073780133      4.312307599       -0.2553023257     -0.1913382845     
4760003960        0.05800499782     -0.02416215345    5.200011216       0.6553582923      
                  5.200011216       0.6553582923      -0.08650178837    0.3112274562      
4845003870        -0.08485612307    -0.06650966458    -1.954060809      -4.883429565      
                  -1.954060809      -4.883429565      0.2004105146      -0.1549002709     
4930003780        -0.07146554197    0.04831083221     -3.240080649      4.125166345       
                  -3.240080649      4.125166345       -0.3195086328     -0.09971807447    
5015003690        0.05478736704     0.0297364792      5.068333194       0.8906061697      
                  5.068333194       0.8906061697      0.03553384549     0.3346292807      
5100003600        -0.0614424268     -0.05845684562    -1.787598694      -4.932835095      
                  -1.787598694      -4.932835095      0.1197189654      -0.2292775717     
5185003510        -0.08965123868    0.01408166176     -3.284749737      3.898183167       
                  -3.284749737      3.898183167       -0.3497908002     0.01132838501     
5270003420        0.02296290608     0.06605654082     4.925874893       1.113061979       
                  4.925874893       1.113061979       0.149753129       0.2998579737      
5355003330        -0.05063398563    -0.02975432267    -1.680803135      -4.967989829      
                  -1.680803135      -4.967989829      -0.002167000731   -0.2791489025     
5440003240        -0.07494190522    -0.02912257757    -3.230699568      3.728019174       
                  -3.230699568      3.728019174       -0.3196903615     0.1319810774      
5525003150        -0.007996974235   0.05948832812     4.897874636       1.219172955       
                  4.897874636       1.219172955       0.2688067263      0.2016984524      
5610003060        -0.04311849207    0.017045715       -1.61888625       -4.806358812      
                  -1.61888625       -4.806358812      -0.1367243731     -0.2678930832     
5695002970        -0.02154882594    -0.0347953807     -3.225404246      3.507724264       
                  -3.225404246      3.507724264       -0.2213467585     0.2528641763      
5780002880        -0.0153165262     0.02728482054     4.833430004       1.301728808       
                  4.833430004       1.301728808       0.3295527718      0.0579832668      
5865002790        -0.07580972157    0.06470441779     -1.508105646      -4.551796096      
                  -1.508105646      -4.551796096      -0.2721870677     -0.1854408355     
5950002700        0.02572968606     0.009373747317    -3.254899638      3.299089315       
                  -3.254899638      3.299089315       -0.08296042792    0.3331202849      
6035002610        -0.01074443781    -0.0302862812     4.610757072       1.202709132       
                  4.610757072       1.202709132       0.2987393453      -0.09734309582    
6120002520        -0.1388487661     0.06405368595     -1.380464061      -4.307099079      
                  -1.380464061      -4.307099079      -0.3584906828     -0.04558981674    
6205002430        0.06020425187     0.0873324864      -3.15214827       3.093892435       
                  -3.15214827       3.093892435       0.1021302177      0.3376073048      
6290002340        0.06326825714     -0.07972697371    4.386470275       1.083112448       
                  4.386470275       1.083112448       0.1950651603      -0.2479196944     
6375002250        -0.2063840861     0.002522977024    -1.269945511      -4.03599141       
                  -1.269945511      -4.03599141       -0.3761559879     0.129800363       
6460002160        0.02130932551     0.200816773       -2.931885244      2.896073375       
                  -2.931885244      2.896073375       0.2708445254      0.2724457849      
6545002070        0.1739358276      -0.04985085286    4.001623298       1.006821018       
                  4.001623298       1.006821018       0.02891080062     -0.3201573353     
6630001980        -0.197564734      -0.1121570101     -1.120704505      -3.749063472      
                  -1.120704505      -3.749063472      -0.2986987445     0.3022727696      
6715001890        -0.07626927426    0.2675477409      -2.653800069      2.584462337       
                  -2.653800069      2.584462337       0.3839609281      0.1562086606      
6800001800        0.2601483451      0.06222555923     3.541896841       1.078750803       
                  3.541896841       1.078750803       -0.1314157647     -0.3088112365     
6885001710        -0.09495606117    -0.2377275498     -0.8105028598     -3.422018192      
                  -0.8105028598     -3.422018192      -0.1881372024     0.3880542343      
6970001620        -0.2103332627     0.2262089676      -2.580993819      2.187364067       
                  -2.580993819      2.187364067       0.4234134417      0.02358399275     
7055001530        0.2565399144      0.2104708391      3.16325203        1.209448388       
                  3.16325203        1.209448388       -0.2569776625     -0.2713558274     
7140001440        0.08585318461     -0.2949087566     -0.533768255      -3.175519973      
                  -0.533768255      -3.175519973      -0.06287798885    0.4543271403      
7225001350        -0.294804991      0.09058719303     -2.536291998      1.86977739        
                  -2.536291998      1.86977739        0.45279453        -0.1034807628     
7310001260        0.1648667806      0.3469077599      2.82407259        1.14324764        
                  2.82407259        1.14324764        -0.3590315899     -0.1857633839     
7395001170        0.2863287717      -0.2223681569     -0.2424365484     -2.924589486      
                  -0.2424365484     -2.924589486      0.07707494513     0.4822252566      
7480001080        -0.295154491      -0.114990225      -2.379220636      1.587121165       
                  -2.379220636      1.587121165       0.3949319565      -0.2371863822     
7565000990        -0.03569999217    0.3976391391      2.578849374       1.149295167       
                  2.578849374       1.149295167       -0.4250891705     -0.08449877121    
7650000900        0.4000916205      -0.0526559441     -0.05071531153    -2.582677825      
                  -0.05071531153    -2.582677825      0.2128391622      0.4388282634      
7735000810        -0.15778314       -0.3073526453     -2.276416947      1.328839399       
                  -2.276416947      1.328839399       0.317550332       -0.3462083627     
7820000720        -0.2094095373     0.3145047697      2.252192225       1.233321516       
                  2.252192225       1.233321516       -0.4062174089     0.02479279751     
7905000630        0.4127776559      0.140985201       0.1008941877      -2.282535457      
                  0.1008941877      -2.282535457      0.3244353611      0.3625267842      
7990000540        0.0691099675      -0.3900364331     -2.198816729      0.9108161691      
                  -2.198816729      0.9108161691      0.2216927874      -0.4073471056     
8075000450        -0.3510790162     0.1171769057      1.88678437        1.42739054        
                  1.88678437        1.42739054        -0.3880464885     0.1188838531      
8160000360        0.2951260789      0.3144294911      0.255785997       -2.174388341      
                  0.255785997       -2.174388341      0.3992985063      0.2800718384      
8245000270        0.2590569008      -0.3354628894     -2.029023224      0.6069065216      
                  -2.029023224      0.6069065216      0.1139181258      -0.4442439636     
8330000180        -0.3652702483     -0.1344781532     1.622982814       1.493807          
                  1.622982814       1.493807          -0.3432559606     0.1933509111      
8415000090        0.07651037237     0.3927690038      0.3876741073      -1.98562769       
                  0.3876741073      -1.98562769       0.4360369361      0.1672649051      
8500000000        0.3833305647      -0.1845039706     -1.82517146       0.4404023222      
                  -1.82517146       0.4404023222      -0.004605073886   -0.4607030409     
