! RsaToolbox (C) 2013 Rohde & Schwarz America
! 
! Number of points: 101
! Number of ports: 2
! Balanced ports?: 0
! 
! 
# Hz S RI R 50
9000              0.993045313       -0.01218643444    7.053932472e-05   -1.882958524e-05  
                  7.053932472e-05   -1.882958524e-05  1.003915886       -0.02025760396    
85008910          -0.01451361277    0.1216761637      2.966827265       4.999001197       
                  2.966827265       4.999001197       -0.0922838445     -0.116384643      
170008820         0.1163270388      -0.01880805375    2.988693024       -4.941556034      
                  2.988693024       -4.941556034      -0.02095996329    0.1718524184      
255008730         -0.153660861      -0.0692314401     -5.787364455      -0.08895641331    
                  -5.787364455      -0.08895641331    0.07772770754     -0.02664688598    
340008640         -0.0651013435     0.1427727415      2.589401217       5.06894782        
                  2.589401217       5.06894782        -0.1269756168     -0.05430487102    
425008550         0.1355305866      -0.03719526193    3.18003154        -4.701748118      
                  3.18003154        -4.701748118      0.01633321525     0.1029391601      
510008460         -0.08506302882    -0.1471495771     -5.659784864      -0.5062798477     
                  -5.659784864      -0.5062798477     0.07092331109     -0.07991492198    
595008370         -0.09457800626    0.1145515829      2.195934773       5.169753135       
                  2.195934773       5.169753135       -0.0841508493     -0.01233152509    
680008280         0.1828540351      0.03470866793     3.411062206       -4.472575336      
                  3.411062206       -4.472575336      0.09209884546     0.07573162576     
765008190         0.01614746525     -0.1358865349     -5.503075152      -0.9871862606     
                  -5.503075152      -0.9871862606     0.06042910073     -0.06075141826    
850008100         -0.1674406942     0.09640305635     1.94248014        5.249679153       
                  1.94248014        5.249679153       -0.07204737867    0.06494629865     
935008010         0.1251228739      0.1110873921      3.719434496       -4.145045456      
                  3.719434496       -4.145045456      0.1021335173      0.03898272296     
1020007920        0.06932620244     -0.1287500175     -5.393341623      -1.308881851      
                  -5.393341623      -1.308881851      -0.004936194572   -0.07608864799    
1105007830        -0.2075698998     -0.01616233518    1.628722142       5.287249849       
                  1.628722142       5.287249849       -0.06362005581    0.07524981899     
1190007740        0.05918149645     0.1156700132      3.981065177       -3.758013474      
                  3.981065177       -3.758013474      0.124263564       -0.04227923507    
1275007650        0.149817376       -0.090651644      -5.30332915       -1.608844138      
                  -5.30332915       -1.608844138      -0.03027192542    -0.08935447575    
1360007560        -0.1417999457     -0.09259071173    1.17510462        5.384454086       
                  1.17510462        5.384454086       -0.005916787406   0.1021346978      
1445007470        0.002092265308    0.1122199241      4.16932422        -3.467771936      
                  4.16932422        -3.467771936      0.1473715513      -0.08831709126    
1530007380        0.1577328021      -0.002415222773   -5.137301925      -1.874696893      
                  -5.137301925      -1.874696893      -0.06959641496    -0.06489590608    
1615007290        -0.0716650883     -0.09110181952    0.7714682234      5.275834653       
                  0.7714682234      5.275834653       0.02270377685     0.1425306138      
1700007200        -0.06739392926    0.06763512408     4.325996982       -3.235438108      
                  4.325996982       -3.235438108      0.1110732671      -0.1335880847     
1785007110        0.08901618358     0.02000098484     -4.884018128      -2.209954634      
                  -4.884018128      -2.209954634      -0.132434321      -0.06442405376    
1870007020        -0.02076987285    -0.09092320204    0.4365347423      5.287785386       
                  0.4365347423      5.287785386       0.06535845602     0.1325527186      
1955006930        -0.06569585043    0.005554973778    4.484984661       -2.939556926      
                  4.484984661       -2.939556926      0.08948724371     -0.194173257      
2040006840        0.04840886174     0.001700046509    -4.66167226       -2.438684085      
                  -4.66167226       -2.438684085      -0.1553809716     -0.04196276697    
2125006750        0.0106846734      -0.04869829676    0.09987604977     5.310847668       
                  0.09987604977     5.310847668       0.1308008984      0.1373149696      
2210006660        -0.03692227627    0.007273148405    4.515753133       -2.643277687      
                  4.515753133       -2.643277687      0.04824791569     -0.2186490472     
2295006570        0.01549646234     -0.02225490092    -4.443059484      -2.677266467      
                  -4.443059484      -2.677266467      -0.1868226944     0.01489085394     
2380006480        -0.02539844353    -0.01923946387    -0.179085131      5.202022033       
                  -0.179085131      5.202022033       0.1668928212      0.1141940426      
2465006390        -0.0318034896     0.024760665       4.504281038       -2.394002239      
                  4.504281038       -2.394002239      -0.01947648449    -0.2604100414     
2550006300        0.02579461328     -0.06556616926    -4.142566538      -2.954587366      
                  -4.142566538      -2.954587366      -0.1915304275     0.06036651688     
2635006210        -0.05456730251    -0.04033739025    -0.3579826089     5.077101924       
                  -0.3579826089     5.077101924       0.2137952453      0.0642300227      
2720006120        -0.04533307767    0.05997009296     4.523084778       -2.080140705      
                  4.523084778       -2.080140705      -0.09046136913    -0.2654662063     
2805006030        0.06872480551     -0.06060605393    -3.904237667      -3.070394709      
                  -3.904237667      -3.070394709      -0.1635065293     0.1230117756      
2890005940        -0.0659434009     -0.07661970763    -0.5565782686     4.890969622       
                  -0.5565782686     4.890969622       0.2328537336      0.008986246099    
2975005850        -0.09182230184    0.08280658467     4.490858902       -1.668193743      
                  4.490858902       -1.668193743      -0.1620795855     -0.2486993693     
3060005760        0.1041454834      -0.02182696668    -3.664271326      -3.276167263      
                  -3.664271326      -3.276167263      -0.1192687339     0.1684346844      
3145005670        -0.02827918426    -0.1203364014     -0.90546948       4.759015599       
                  -0.90546948       4.759015599       0.2325456615      -0.07170358572    
3230005580        -0.1412081017     0.05358309864     4.564906315       -1.330522074      
                  4.564906315       -1.330522074      -0.2267391275     -0.2088283423     
3315005490        0.1195965814      0.04646472593     -3.449254206      -3.314051918      
                  -3.449254206      -3.314051918      -0.04600954554    0.2028071882      
3400005400        0.03197344137     -0.1428198095     -1.103839515      4.546038659       
                  -1.103839515      4.546038659       0.202621713       -0.1450401875     
3485005310        -0.1878907223     0.006272871231    4.514246111       -1.100275602      
                  4.514246111       -1.100275602      -0.2819211534     -0.1304806993     
3570005220        0.08790663917     0.1222927521      -3.285757047      -3.296840477      
                  -3.285757047      -3.296840477      0.03366883212     0.2113989753      
3655005130        0.09384975765     -0.1281732667     -1.168553864      4.341464436       
                  -1.168553864      4.341464436       0.1358642511      -0.208490026      
3740005040        -0.2033770665     -0.06856609275    4.376501419       -0.8833561118     
                  4.376501419       -0.8833561118     -0.3117410085     -0.04012657694    
3825004950        0.01592110979     0.1690437638      -3.019880958      -3.220420501      
                  -3.019880958      -3.220420501      0.1139792381      0.1773999254      
3910004860        0.1579451078      -0.08433869825    -1.390477384      4.088980155       
                  -1.390477384      4.088980155       0.05198685499     -0.2587701696     
3995004770        -0.1764791936     -0.1513444252     4.204497233       -0.7072160016     
                  4.204497233       -0.7072160016     -0.3055311385     0.06540410242     
4080004680        -0.07373656061    0.1748914887      -2.731049155      -3.249161639      
                  -2.731049155      -3.249161639      0.1920126108      0.1288377878      
4165004590        0.1830006395      -0.0052352619     -1.591751779      3.916465874       
                  -1.591751779      3.916465874       -0.04575301732    -0.2729740302     
4250004500        -0.1124660753     -0.1946905761     4.154716274       -0.5014266478     
                  4.154716274       -0.5014266478     -0.2656321991     0.176030778       
4335004410        -0.1632539194     0.142166515       -2.479619947      -3.287630372      
                  -2.479619947      -3.287630372      0.231112624       0.04494265768     
4420004320        0.1630467281      0.07567248394     -1.693440274      3.745025378       
                  -1.693440274      3.745025378       -0.1635692824     -0.2515610084     
4505004230        -0.03372069113    -0.2129925749     4.012248384       -0.3656203383     
                  4.012248384       -0.3656203383     -0.1971386132     0.2594397436      
4590004140        -0.2255622565     0.0731646786      -2.22527571       -3.256751197      
                  -2.22527571       -3.256751197      0.2302908914      -0.05731893541    
4675004050        0.1159105673      0.1387966766      -1.728549197      3.546521154       
                  -1.728549197      3.546521154       -0.2557197875     -0.1919093421     
4760003960        0.05922448209     -0.1928529129     3.847952085       -0.1703175006     
                  3.847952085       -0.1703175006     -0.08723541351    0.3116796458      
4845003870        -0.2423417847     -0.007472605584   -1.975660628      -3.237555972      
                  -1.975660628      -3.237555972      0.2008444423      -0.1547641725     
4930003780        0.03864918868     0.1770217417      -1.849986687      3.308602238       
                  -1.849986687      3.308602238       -0.3203848026     -0.1001886065     
5015003690        0.1282072092      -0.1276909483     3.702291783       0.04599983691     
                  3.702291783       0.04599983691     0.03508289375     0.3355377425      
5100003600        -0.2284888089     -0.0763082423     -1.788996058      -3.192361157      
                  -1.788996058      -3.192361157      0.1199192711      -0.2295130668     
5185003510        -0.04547364897    0.1783691847      -1.909963743      3.054574468       
                  -1.909963743      3.054574468       -0.3506668739     0.01092849375     
5270003420        0.1542214597      -0.04506449608    3.565441552       0.2787065046      
                  3.565441552       0.2787065046      0.149166214       0.3007811212      
5355003330        -0.1913308322     -0.122001227      -1.64676666       -3.142007087      
                  -1.64676666       -3.142007087      -0.001897097195   -0.2798386264     
5440003240        -0.1026542376     0.136725628       -1.934350504      2.891962073       
                  -1.934350504      2.891962073       -0.3205947121     0.1316824102      
5525003150        0.1517654123      0.01873617265     3.487684986       0.3918337352      
                  3.487684986       0.3918337352      0.2690800836      0.2024062643      
5610003060        -0.1269463638     -0.125557688      -1.534908314      -3.063627218      
                  -1.534908314      -3.063627218      -0.1365439351     -0.2685227732     
5695002970        -0.1147903126     0.1007911798      -1.963081455      2.68667737        
                  -1.963081455      2.68667737        -0.2222038603     0.2528626349      
5780002880        0.139035819       0.06453020343     3.375124316       0.489234619       
                  3.375124316       0.489234619       0.3301363255      0.05897795169     
5865002790        -0.08913151134    -0.09811057062    -1.368372255      -2.963093534      
                  -1.368372255      -2.963093534      -0.271798396      -0.186391281      
5950002700        -0.1105673434     0.08883111206     -2.000561544      2.501893396       
                  -2.000561544      2.501893396       -0.08323903053    0.3335864645      
6035002610        0.1063396479      0.07118951125     3.181270738       0.5072035621      
                  3.181270738       0.5072035621      0.2999928664      -0.09647747189    
6120002520        -0.08020835679    -0.08447980718    -1.206527465      -2.851075856      
                  -1.206527465      -2.851075856      -0.3582336596     -0.04633091734    
6205002430        -0.09132586593    0.09630199604     -1.973949008      2.352328943       
                  -1.973949008      2.352328943       0.102379906       0.3386629682      
6290002340        0.1197380508      0.05943403585     3.026737376       0.502306344       
                  3.026737376       0.502306344       0.1969385517      -0.2478738124     
6375002250        -0.09669342889    -0.1041899013     -1.082317493      -2.748440427      
                  -1.082317493      -2.748440427      -0.3763017606     0.1288993994      
6460002160        -0.1101499527     0.1474986192      -1.899877046      2.214024561       
                  -1.899877046      2.214024561       0.2713293474      0.2732001374      
6545002070        0.1647811594      0.09226136931     2.811308582       0.5165257258      
                  2.811308582       0.5165257258      0.02985043001     -0.3207092802     
6630001980        -0.06183230973    -0.159629284      -0.9453546112     -2.609159921      
                  -0.9453546112     -2.609159921      -0.2994465064     0.3023490634      
6715001890        -0.1662622475     0.1714379959      -1.788521888      1.990214873       
                  -1.788521888      1.990214873       0.38447907        0.157156465       
6800001800        0.1978764179      0.175204308       2.559035696       0.6113441761      
                  2.559035696       0.6113441761      -0.1310212779     -0.3092706278     
6885001710        0.03533095074     -0.2225292322     -0.7060499277     -2.443799102      
                  -0.7060499277     -2.443799102      -0.1889116619     0.3887301492      
6970001620        -0.2484005465     0.1113582935      -1.819768316      1.720218419       
                  -1.819768316      1.720218419       0.4239567797      0.02455105685     
7055001530        0.1670722096      0.2777235591      2.382656076       0.7536171483      
                  2.382656076       0.7536171483      -0.2573588606     -0.2717811146     
7140001440        0.1740622971      -0.2379856435     -0.5140216466     -2.403314936      
                  -0.5140216466     -2.403314936      -0.06420166426    0.4548695604      
7225001350        -0.2848047123     -0.0135167405     -1.875873527      1.523407716       
                  -1.875873527      1.523407716       0.4532814531      -0.10269341       
7310001260        0.07863948818     0.3650543366      2.236892502       0.7822230088      
                  2.236892502       0.7822230088      -0.3593772888     -0.1854425226     
7395001170        0.3315078875      -0.144954207      -0.2822634203     -2.277815201      
                  -0.2822634203     -2.277815201      0.0764892056      0.4829729704      
7480001080        -0.2432834953     -0.1965428921     -1.799405169      1.295101606       
                  -1.799405169      1.295101606       0.3952867553      -0.2368666495     
7565000990        -0.1185401733     0.3784311112      2.042679629       0.824415803       
                  2.042679629       0.824415803       -0.4260143664     -0.08503012375    
7650000900        0.407489272       0.01799220983     -0.1124777721     -2.103980012      
                  -0.1124777721     -2.103980012      0.2122232462      0.4397907617      
7735000810        -0.1000030421     -0.3419380215     -1.853659206      1.13817057        
                  -1.853659206      1.13817057        0.3182270265      -0.346548843      
7820000720        -0.2628061024     0.2762747266      1.878275917       0.9740923021      
                  1.878275917       0.9740923021      -0.4073668916     0.0243668355      
7905000630        0.3964708442      0.1905919961      0.0414289353      -1.945426808      
                  0.0414289353      -1.945426808      0.3241161493      0.3634764513      
7990000540        0.1246702085      -0.3949983469     -1.835318253      0.7917262871      
                  -1.835318253      0.7917262871      0.2221093675      -0.4081982851     
8075000450        -0.3777859869     0.06681590759     1.60680963        1.188112285       
                  1.60680963        1.188112285       -0.3892784944     0.1185127822      
8160000360        0.2626252163      0.3512484058      0.1892272889      -1.868264073      
                  0.1892272889      -1.868264073      0.3998130743      0.280596642       
8245000270        0.2977291355      -0.3203229383     -1.764582348      0.560389337       
                  -1.764582348      0.560389337       0.1136363109      -0.4451258178     
8330000180        -0.3647404335     -0.1791584539     1.42878361        1.279954884       
                  1.42878361        1.279954884       -0.343977309      0.1931673032      
8415000090        0.03943230969     0.4077417909      0.3167940035      -1.75144104       
                  0.3167940035      -1.75144104       0.4367101245      0.167588033       
8500000000        0.4050682891      -0.1619314161     -1.639055459      0.4209263286      
                  -1.639055459      0.4209263286      -0.003754048245   -0.4618813919     
