! RsaToolbox (C) 2013 Rohde & Schwarz America
! 
! Number of points: 101
! Number of ports: 2
! Balanced ports?: 0
! 
! 
# Hz S RI R 50
9000              1.009668274       -0.02171554223    0.0001005887522   -2.045439012e-05  
                  0.0001005887522   -2.045439012e-05  1.016966741       -0.02594843657    
85008910          0.002356068983    0.1588496397      3.195844638       5.506717733       
                  3.195844638       5.506717733       -0.09214453209    -0.1156712267     
170008820         0.1422015985      -0.04400602059    3.186520992       -5.225551801      
                  3.186520992       -5.225551801      -0.02040259006    0.1716167641      
255008730         -0.1758630734     -0.07583641351    -6.057446822      -0.1644563485     
                  -6.057446822      -0.1644563485     0.07748456567     -0.02655275163    
340008640         -0.0633795834     0.1696718691      2.65481964        5.352942625       
                  2.65481964        5.352942625       -0.1264495022     -0.05372505271    
425008550         0.1592543206      -0.04642273779    3.387044768       -4.870624745      
                  3.387044768       -4.870624745      0.01686896006     0.1027094056      
510008460         -0.1016224662     -0.1633134909     -5.906421077      -0.6420645143     
                  -5.906421077      -0.6420645143     0.07078464689     -0.07958606543    
595008370         -0.1071889619     0.1396793111      2.231306231       5.424834015       
                  2.231306231       5.424834015       -0.08371983711    -0.01216716553    
680008280         0.204164799       0.03375578241     3.660081452       -4.578092233      
                  3.660081452       -4.578092233      0.09222093198     0.0752883109      
765008190         0.00975432496     -0.1635713295     -5.732913543      -1.099508704      
                  -5.732913543      -1.099508704      0.06029906865     -0.06043087512    
850008100         -0.1817216609     0.1113680736      1.874099488       5.523216552       
                  1.874099488       5.523216552       -0.07151572175    0.06503482208     
935008010         0.1455098285      0.1233867091      3.943248795       -4.23354219       
                  3.943248795       -4.23354219       0.1020176156      0.03882593965     
1020007920        0.07551855056     -0.1538351617     -5.588709572      -1.443230475      
                  -5.588709572      -1.443230475      -0.004878954982   -0.07559585683    
1105007830        -0.225213541      -0.0083720959     1.483925527       5.614601002       
                  1.483925527       5.614601002       -0.06280379044    0.07517233587     
1190007740        0.07112781217     0.1401369158      4.191483942       -3.861329103      
                  4.191483942       -3.861329103      0.1241346316      -0.04253179113    
1275007650        0.1643267518      -0.1086113247     -5.468103676      -1.826654846      
                  -5.468103676      -1.826654846      -0.03018425256    -0.08921878775    
1360007560        -0.1632173476     -0.1004661866     1.052254003       5.640523662       
                  1.052254003       5.640523662       -0.005519745064   0.1016518344      
1445007470        0.0005378959482   0.1418562152      4.407773918       -3.547127482      
                  4.407773918       -3.547127482      0.1471205562      -0.08823643951    
1530007380        0.1843182803      -0.01130455941    -5.306509153      -2.18207796       
                  -5.306509153      -2.18207796       -0.06921411447    -0.06455667511    
1615007290        -0.09400296701    -0.1236728265     0.6239862564      5.599701929       
                  0.6239862564      5.599701929       0.0232792959      0.1421662696      
1700007200        -0.08828710938    0.09719224619     4.664846805       -3.245197295      
                  4.664846805       -3.245197295      0.1109177025      -0.1334914055     
1785007110        0.1279549667      0.03165961462     -5.063190968      -2.523742823      
                  -5.063190968      -2.523742823      -0.1319568521     -0.06414164786    
1870007020        -0.0217604487     -0.1356732198     0.2290752817      5.603975314       
                  0.2290752817      5.603975314       0.06571262596     0.1321899859      
1955006930        -0.1065759358     0.0214137241      4.871776569       -2.891426866      
                  4.871776569       -2.891426866      0.0894005697      -0.193881688      
2040006840        0.08262359358     0.03877720917     -4.827262589      -2.808717298      
                  -4.827262589      -2.808717298      -0.1548405746     -0.04155039617    
2125006750        0.03606629789     -0.09272225823    -0.1881600964     5.633777739       
                  -0.1881600964     5.633777739       0.1310782818      0.1369713281      
2210006660        -0.09191851357    -0.0009397726886  4.967757045       -2.535856157      
                  4.967757045       -2.535856157      0.04793531778     -0.2182072342     
2295006570        0.02933717982     0.03621935512     -4.594969198      -3.137994008      
                  -4.594969198      -3.137994008      -0.186113478      0.01543765153     
2380006480        0.02858294722     -0.05234811919    -0.5535532617     5.570019867       
                  -0.5535532617     5.570019867       0.1668191696      0.1140866906      
2465006390        -0.08756816955    -0.01624586211    5.045042941       -2.216983485      
                  5.045042941       -2.216983485      -0.01958622379    -0.2594144226     
2550006300        0.01157601382     0.0007756322294   -4.285782195      -3.476440297      
                  -4.285782195      -3.476440297      -0.1908665806     0.0608492785      
2635006210        0.02508816403     -0.04492015269    -0.8918714786     5.511892863       
                  -0.8918714786     5.511892863       0.2135587509      0.06427426459     
2720006120        -0.08248715788    -0.01033239478    5.12070777        -1.845557421      
                  5.12070777        -1.845557421      -0.09053624657    -0.2645570097     
2805006030        0.01795593741     -0.0003715166032  -4.000896785      -3.723942906      
                  -4.000896785      -3.723942906      -0.1629834589     0.1235185483      
2890005940        0.02082849226     -0.03680012224    -1.228658269      5.387082209       
                  -1.228658269      5.387082209       0.2321991636      0.009075664718    
2975005850        -0.09472195478    -0.007493401491   5.151798863       -1.388273734      
                  5.151798863       -1.388273734      -0.1621202789     -0.2478348535     
3060005760        0.01903956786     0.009570403353    -3.702015644      -4.065120312      
                  -3.702015644      -4.065120312      -0.1189485409     0.1687163893      
3145005670        0.03553933186     -0.04512682439    -1.625379365      5.234707091       
                  -1.625379365      5.234707091       0.2317312158      -0.07179902029    
3230005580        -0.1019612085     -0.03244024145    5.260463114       -0.9861920547     
                  5.260463114       -0.9861920547     -0.2272294476     -0.2079203673     
3315005490        0.01225470771     0.0320158276      -3.42952579       -4.290705593      
                  -3.42952579       -4.290705593      -0.04604235777    0.2028555608      
3400005400        0.0610009662      -0.02980678526    -1.97814787       5.066747377       
                  -1.97814787       5.066747377       0.2017615987      -0.1449031471     
3485005310        -0.09852847322    -0.06321063222    5.358376941       -0.6207459045     
                  5.358376941       -0.6207459045     -0.2822596088     -0.1298759211     
3570005220        -0.01918305134    0.04973015729     -3.250049557      -4.47807789       
                  -3.250049557      -4.47807789       0.03348135575     0.2108572531      
3655005130        0.06912878093     0.002973266453    -2.174053173      4.932012483       
                  -2.174053173      4.932012483       0.1340851305      -0.2089608966     
3740005040        -0.07822692129    -0.09330992467    5.347727145       -0.2661888117     
                  5.347727145       -0.2661888117     -0.3122486322     -0.03953230186    
3825004950        -0.05865832137    0.03801917745     -2.978216963      -4.608461305      
                  -2.978216963      -4.608461305      0.1134483728      0.1759771034      
3910004860        0.06484536281     0.03673524147     -2.591787901      4.711102914       
                  -2.591787901      4.711102914       0.05016052813     -0.2592579659     
3995004770        -0.03205759556    -0.1119586326     5.37821497        0.05264857182     
                  5.37821497        0.05264857182     -0.3055129358     0.06536857568     
4080004680        -0.084934796      0.009145221688    -2.701968238      -4.779482839      
                  -2.701968238      -4.779482839      0.1907441138      0.1282531496      
4165004590        0.04083873933     0.06989150816     -2.856435988      4.568788919       
                  -2.856435988      4.568788919       -0.04654939293    -0.2716260425     
4250004500        0.01092402868     -0.0890786229     5.462754405       0.3014125584      
                  5.462754405       0.3014125584      -0.2658595956     0.1755446492      
4335004410        -0.1021761237     -0.01853681677    -2.44542147       -4.887495151      
                  -2.44542147       -4.887495151      0.2298916299      0.04462638699     
4420004320        -0.006100632261   0.08398462813     -3.05541741       4.454756529       
                  -3.05541741       4.454756529       -0.163978923      -0.2506622562     
4505004230        0.0378767198      -0.05815301723    5.409941271       0.4778718376      
                  5.409941271       0.4778718376      -0.1967091783     0.2591340169      
4590004140        -0.1013646191     -0.05112954582    -2.18086428       -4.920478095      
                  -2.18086428       -4.920478095      0.229490337       -0.0577293669     
4675004050        -0.04382077987    0.07151725278     -3.150040869      4.33663573        
                  -3.150040869      4.33663573        -0.2554099179     -0.1911580234     
4760003960        0.05761002655     -0.01767965451    5.25952573        0.7103708617      
                  5.25952573        0.7103708617      -0.08639657496    0.3109912669      
4845003870        -0.07827884726    -0.06849204335    -1.931971846      -4.968529487      
                  -1.931971846      -4.968529487      0.2004125919      -0.1548139172     
4930003780        -0.07580984613    0.04262561248     -3.329706962      4.151262815       
                  -3.329706962      4.151262815       -0.319411866      -0.09980511675    
5015003690        0.0511747017      0.03599538228     5.130824481       0.9505779133      
                  5.130824481       0.9505779133      0.03559156283     0.3345074846      
5100003600        -0.05369543543    -0.05746444699    -1.760233913      -5.035512908      
                  -1.760233913      -5.035512908      0.1197391703      -0.2292376622     
5185003510        -0.09107480562    0.006407495272    -3.380602559      3.928598377       
                  -3.380602559      3.928598377       -0.3495399762     0.01141771096     
5270003420        0.01680881494     0.07108867456     4.99437466        1.17936512        
                  4.99437466        1.17936512        0.1497605522      0.2997008506      
5355003330        -0.04343344582    -0.02449442841    -1.647049864      -5.090386719      
                  -1.647049864      -5.090386719      -0.002348901432   -0.2789932522     
5440003240        -0.07302947562    -0.03721696662    -3.328753558      3.761248898       
                  -3.328753558      3.761248898       -0.3195020588     0.132168192       
5525003150        -0.01618759532    0.06159569832     4.97402218        1.296366562       
                  4.97402218        1.296366562       0.2689641393      0.2014414717      
5610003060        -0.03876893596    0.02486284396     -1.588244184      -4.931751875      
                  -1.588244184      -4.931751875      -0.1366626188     -0.2676740989     
5695002970        -0.01612721379    -0.04183476105    -3.327918204      3.542932753       
                  -3.327918204      3.542932753       -0.221210494      0.2529047485      
5780002880        -0.02411659802    0.02507146784     4.921597486       1.388296721       
                  4.921597486       1.388296721       0.3293609062      0.05798301655     
5865002790        -0.07549638167    0.07328447509     -1.486184875      -4.672466766      
                  -1.486184875      -4.672466766      -0.2722816687     -0.1854994424     
5950002700        0.03352111956     0.005138066908    -3.361812994      3.334829479       
                  -3.361812994      3.334829479       -0.0827831022     0.3329673688      
6035002610        -0.01782183985    -0.03643119221    4.706247944       1.285931965       
                  4.706247944       1.285931965       0.2986067858      -0.09750325951    
6120002520        -0.1425175785     0.07183815032     -1.366777486      -4.418820738      
                  -1.366777486      -4.418820738      -0.3585364522     -0.04550019607    
6205002430        0.06869348991     0.08710930095     -3.2516289        3.129200403       
                  -3.2516289        3.129200403       0.1019236038      0.3374139103      
6290002340        0.05995421713     -0.08789742366    4.482369648       1.153227113       
                  4.482369648       1.153227113       0.1949090917      -0.2480982669     
6375002250        -0.2122892609     0.007584705675    -1.266060095      -4.130638822      
                  -1.266060095      -4.130638822      -0.3763629116     0.1301912017      
6460002160        0.02803655665     0.2040026597      -3.013545343      2.931216675       
                  -3.013545343      2.931216675       0.270651065       0.2723529022      
6545002070        0.1748095986      -0.05754932111    4.08456825        1.059583326       
                  4.08456825        1.059583326       0.02881001655     -0.3199204828     
6630001980        -0.204469927      -0.1103034175     -1.121037345      -3.829367769      
                  -1.121037345      -3.829367769      -0.2986084614     0.302273632       
6715001890        -0.07228806752    0.2726592451      -2.716276659      2.616921115       
                  -2.716276659      2.616921115       0.38396952        0.1560511566      
6800001800        0.263756718       0.05661396915     3.605731853       1.121040718       
                  3.605731853       1.121040718       -0.1314484023     -0.3088703396     
6885001710        -0.1010036959     -0.2391557434     -0.8103136271     -3.48566486       
                  -0.8103136271     -3.48566486       -0.1880950032     0.3879547581      
6970001620        -0.2090939817     0.2313658797      -2.62947601       2.212372485       
                  -2.62947601       2.212372485       0.4231254015      0.02344494953     
7055001530        0.2610184804      0.2076709294      3.207038815       1.239481472       
                  3.207038815       1.239481472       -0.257009166      -0.2712007562     
7140001440        0.08257177913     -0.2980249154     -0.5346331877     -3.218681185      
                  -0.5346331877     -3.218681185      -0.06327681796    0.4541534457      
7225001350        -0.2957111724     0.09480599122     -2.57231008       1.888001128       
                  -2.57231008       1.888001128       0.4526274442      -0.1035186278     
7310001260        0.168621506       0.3467474708      2.855120076       1.161617082       
                  2.855120076       1.161617082       -0.358638042      -0.1851273914     
7395001170        0.285150159       -0.2259280929     -0.2411997216     -2.957734458      
                  -0.2411997216     -2.957734458      0.07724492389     0.4822335592      
7480001080        -0.2975182069     -0.1117570733     -2.409753017      1.603044764       
                  -2.409753017      1.603044764       0.3950187751      -0.2372527246     
7565000990        -0.03235426553    0.3988104808      2.606271895       1.16484427        
                  2.606271895       1.16484427        -0.4248179076     -0.08385418586    
7650000900        0.4004248564      -0.05529620908    -0.05023940772    -2.604143592      
                  -0.05023940772    -2.604143592      0.2134997456      0.4388668467      
7735000810        -0.1602257565     -0.3068680506     -2.294071043      1.34027323        
                  -2.294071043      1.34027323        0.3173829507      -0.3462571933     
7820000720        -0.2076225123     0.3163427747      2.27056248        1.242408642       
                  2.27056248        1.242408642       -0.4059890742     0.02514224432     
7905000630        0.4136359319      0.1394030085      0.09994906145     -2.296571002      
                  0.09994906145     -2.296571002      0.3243532491      0.3625128908      
7990000540        0.06685011616     -0.3902807675     -2.212883692      0.9196953873      
                  -2.212883692      0.9196953873      0.2215148757      -0.4070981029     
8075000450        -0.350377576      0.1190306964      1.901193543       1.43434796        
                  1.901193543       1.43434796        -0.3880268141     0.1189818028      
8160000360        0.2964717548      0.3136598545      0.254937521       -2.187021785      
                  0.254937521       -2.187021785      0.3994838892      0.2798715293      
8245000270        0.2581302516      -0.3364539511     -2.038161267      0.6116718847      
                  -2.038161267      0.6116718847      0.1140432408      -0.4441996494     
8330000180        -0.3658482759     -0.1329275763     1.633183111       1.500175899       
                  1.633183111       1.500175899       -0.343423392      0.1936054063      
8415000090        0.07776054644     0.392620899       0.3873761887      -1.994933884      
                  0.3873761887      -1.994933884      0.4359911294      0.1672511226      
8500000000        0.3828019825      -0.1853664369     -1.830946337      0.4436690125      
                  -1.830946337      0.4436690125      -0.004470058411   -0.4603654152     
