! RsaToolbox (C) 2013 Rohde & Schwarz America
! 
! Number of points: 101
! Number of ports: 2
! Balanced ports?: 0
! 
! 
# Hz S RI R 50
9000              1.000066453       -0.0142431222     7.883655256e-05   -2.656442197e-05  
                  7.883655256e-05   -2.656442197e-05  1.009554213       -0.02154637262    
85008910          -0.0003755822321  0.1524367218      3.172617804       5.426156637       
                  3.172617804       5.426156637       -0.09244702176    -0.116115366      
170008820         0.1375496882      -0.03966608259    3.148179086       -5.178450054      
                  3.148179086       -5.178450054      -0.02074465929    0.1718179099      
255008730         -0.1714036558     -0.07390062272    -6.011880183      -0.1523888594     
                  -6.011880183      -0.1523888594     0.07759403831     -0.02656595259    
340008640         -0.06350008168    0.1642275239      2.642203881       5.305900094       
                  2.642203881       5.305900094       -0.1268271599     -0.0540034002     
425008550         0.1542931623      -0.04485187958    3.346363531       -4.841087568      
                  3.346363531       -4.841087568      0.01645617097     0.1029157135      
510008460         -0.0985504392     -0.1595412934     -5.864397063      -0.6173138194     
                  -5.864397063      -0.6173138194     0.07082193334     -0.0797662577     
595008370         -0.1047986135     0.1347600825      2.237480979       5.372874901       
                  2.237480979       5.372874901       -0.0839507591     -0.01225831701    
680008280         0.1994818174      0.03318741245     3.615790577       -4.563145947      
                  3.615790577       -4.563145947      0.09212532163     0.07550109538     
765008190         0.0107550721      -0.1582142706     -5.693152713      -1.067854284      
                  -5.693152713      -1.067854284      0.06029583641     -0.06070652021    
850008100         -0.1778566571     0.1085340452      1.891756312       5.47462741        
                  1.891756312       5.47462741        -0.07188072517    0.06498762638     
935008010         0.1411563026      0.1205177122      3.895590227       -4.223129449      
                  3.895590227       -4.223129449      0.1021154964      0.03897802589     
1020007920        0.0739972643      -0.1486017798     -5.555487972      -1.407039369      
                  -5.555487972      -1.407039369      -0.004871381851   -0.07583130344    
1105007830        -0.220454674      -0.008838576028   1.514190705       5.563983912       
                  1.514190705       5.563983912       -0.06330093072    0.07522516252     
1190007740        0.06871375343     0.1350108026      4.138783321       -3.850247834      
                  4.138783321       -3.850247834      0.1243432826      -0.04235761744    
1275007650        0.1605314755      -0.1046513401     -5.440443491      -1.772841053      
                  -5.440443491      -1.772841053      -0.03015241955    -0.08919966239    
1360007560        -0.1583736592     -0.09828820076    1.082738563       5.589117693       
                  1.082738563       5.589117693       -0.00567519432    0.1019646856      
1445007470        0.0009488633989   0.1353364902      4.346961091       -3.541577655      
                  4.346961091       -3.541577655      0.1472417661      -0.08827292697    
1530007380        0.1783316423      -0.009717832034   -5.282855282      -2.11852242       
                  -5.282855282      -2.11852242       -0.06944628586    -0.06471739946    
1615007290        -0.08982736853    -0.1171208578     0.6724732392      5.537853718       
                  0.6724732392      5.537853718       0.02299834618     0.1423346055      
1700007200        -0.08411308812    0.09088110164     4.588971795       -3.258493533      
                  4.588971795       -3.258493533      0.1109681432      -0.1334747697     
1785007110        0.1199028187      0.02956110888     -5.037278392      -2.445791177      
                  -5.037278392      -2.445791177      -0.1321482415     -0.06427736748    
1870007020        -0.02122792484    -0.1266875843     0.2871801944      5.541268589       
                  0.2871801944      5.541268589       0.06555120083     0.132381536       
1955006930        -0.09864373193    0.01774296208     4.785081105       -2.917221314      
                  4.785081105       -2.917221314      0.08941431014     -0.1940262637     
2040006840        0.07517257887     0.03166684014     -4.80293421       -2.713992789      
                  -4.80293421       -2.713992789      -0.1550499076     -0.04178457897    
2125006750        0.03178373585     -0.08368907942    -0.1096780646     5.567079398       
                  -0.1096780646     5.567079398       0.1309497871      0.1371406485      
2210006660        -0.08107909788    -0.0001357343752  4.863444457       -2.573600654      
                  4.863444457       -2.573600654      0.0480952744      -0.2183455633     
2295006570        0.02567810726     0.0247116995      -4.571549753      -3.024960297      
                  -4.571549753      -3.024960297      -0.1864818472     0.01511736466     
2380006480        0.0187266607      -0.04505940503    -0.459691191      5.4937621         
                  -0.459691191      5.4937621         0.1669097881      0.1140654598      
2465006390        -0.07625725317    -0.009564837456   4.924984298       -2.265923672      
                  4.924984298       -2.265923672      -0.01953865879    -0.2600009259     
2550006300        0.01337715243     -0.01269936736    -4.261736449      -3.353754309      
                  -4.261736449      -3.353754309      -0.1913602591     0.06055448383     
2635006210        0.01066917367     -0.04272978163    -0.7653218414     5.42649539        
                  -0.7653218414     5.42649539        0.2135779842      0.06415174297     
2720006120        -0.07423505304    0.002555673138    4.989554074       -1.905873357      
                  4.989554074       -1.905873357      -0.09068412241    -0.2650783005     
2805006030        0.02687471031     -0.01290165628    -3.987491199      -3.573531844      
                  -3.987491199      -3.573531844      -0.1633750967     0.1232361709      
2890005940        0.003817572139    -0.04323931114    -1.068794903      5.289518478       
                  -1.068794903      5.289518478       0.2323927279      0.008964638435    
2975005850        -0.09290264666    0.01012953194     5.00688336        -1.45763942       
                  5.00688336        -1.45763942       -0.162220204      -0.2481786201     
3060005760        0.03431802613     0.001949861663    -3.702411082      -3.893500037      
                  -3.702411082      -3.893500037      -0.1192002678     0.1686153852      
3145005670        0.02204448546     -0.0582952722     -1.453303437      5.138497872       
                  -1.453303437      5.138497872       0.2321448802      -0.07158456518    
3230005580        -0.1080890084     -0.0151192234     5.108433794       -1.0710516        
                  5.108433794       -1.0710516        -0.2268351989     -0.2084838995     
3315005490        0.03194345037     0.03282885292     -3.455389375      -4.083304748      
                  -3.455389375      -4.083304748      -0.04608966014    0.2027603446      
3400005400        0.05422289628     -0.05188365446    -1.757477682      4.971287512       
                  -1.757477682      4.971287512       0.2020719624      -0.1450318738     
3485005310        -0.1157192201     -0.04862816246    5.180081559       -0.7523774071     
                  5.180081559       -0.7523774071     -0.2820348753     -0.1300184935     
3570005220        0.002488101954    0.06327468944     -3.300690976      -4.20790084       
                  -3.300690976      -4.20790084       0.03358838026     0.2110605756      
3655005130        0.07376143643     -0.02502274018    -1.900486529      4.825327219       
                  -1.900486529      4.825327219       0.1353467272      -0.2087061873     
3740005040        -0.1042864002     -0.08723536806    5.139301755       -0.4484223008     
                  5.139301755       -0.4484223008     -0.3119234725     -0.03993093464    
3825004950        -0.04158497758    0.06755743742     -3.066107203      -4.248191279      
                  -3.066107203      -4.248191279      0.1138166285      0.1768168727      
3910004860        0.08767469888     0.007800294435    -2.228859672      4.605073049       
                  -2.228859672      4.605073049       0.05136449058     -0.2590560022     
3995004770        -0.06803071572    -0.1220692394     5.093534904       -0.2225802203     
                  5.093534904       -0.2225802203     -0.3054076348     0.06529955926     
4080004680        -0.08290789201    0.05361145132     -2.807506001      -4.333538904      
                  -2.807506001      -4.333538904      0.1914152991      0.1289134565      
4165004590        0.07999715847     0.05053178323     -2.457207656      4.444688786       
                  -2.457207656      4.444688786       -0.04597711731    -0.2722902641     
4250004500        -0.02371002371    -0.1204586716     5.110404674       -0.02427583974    
                  5.110404674       -0.02427583974    -0.2657106856     0.1757771419      
4335004410        -0.122264445      0.02986471818     -2.565069781      -4.367765032      
                  -2.565069781      -4.367765032      0.2304837462      0.04477716285     
4420004320        0.04585276541     0.08304581804     -2.55973151       4.312624045       
                  -2.55973151       4.312624045       -0.1637017299     -0.2511828442     
4505004230        0.01571673895     -0.1099802072     4.980113036       0.08051857231     
                  4.980113036       0.08051857231     -0.1969020853     0.2591753028      
4590004140        -0.1452738292     -0.01010621634    -2.321060163      -4.324160899      
                  -2.321060163      -4.324160899      0.2298646508      -0.05763712       
4675004050        0.0109264556      0.09673573979     -2.560059932      4.151514499       
                  -2.560059932      4.151514499       -0.2554897473     -0.1916407536     
4760003960        0.05998030166     -0.08026825946    4.792383392       0.2698815318      
                  4.792383392       0.2698815318      -0.08683453417    0.3114590721      
4845003870        -0.1408150649     -0.04708132802    -2.086611808      -4.286579852      
                  -2.086611808      -4.286579852      0.2005833932      -0.1547796098     
4930003780        -0.03230063061    0.09600804905     -2.650206064      3.922274929       
                  -2.650206064      3.922274929       -0.3199677091     -0.09999417324    
5015003690        0.08282395197     -0.02684535548    4.621861076       0.4702868109      
                  4.621861076       0.4702868109      0.03528505023     0.3350097421      
5100003600        -0.1269006926     -0.06626513768    -1.924589007      -4.228652909      
                  -1.924589007      -4.228652909      0.1198049962      -0.2294105795     
5185003510        -0.07319465783    0.07738991166     -2.667900544      3.664220361       
                  -2.667900544      3.664220361       -0.350071753      0.01118860329     
5270003420        0.07386633937     0.02359443417     4.451275912       0.6762388393      
                  4.451275912       0.6762388393      0.1494640702      0.3002372646      
5355003330        -0.1100000367     -0.06835425869    -1.81074422       -4.165301492      
                  -1.81074422       -4.165301492      -0.002066988288   -0.2794185789     
5440003240        -0.08599218291    0.03574257214     -2.637534391      3.478651464       
                  -2.637534391      3.478651464       -0.3200227574     0.1318534553      
5525003150        0.05640530815     0.04200155654     4.372294745       0.7665545763      
                  4.372294745       0.7665545763      0.2689790776      0.2018916108      
5610003060        -0.07888457297    -0.04258637928    -1.71592376       -4.023733324      
                  -1.71592376       -4.023733324      -0.1365745745     -0.2681912873     
5695002970        -0.05891597883    0.02018700842     -2.630525183      3.249579493       
                  -2.630525183      3.249579493       -0.221699522      0.2528989485      
5780002880        0.05138356381     0.04105108092     4.244526851       0.8308197822      
                  4.244526851       0.8308197822      0.3297918085      0.05839348549     
5865002790        -0.08236021911    -0.001946427389   -1.563223493      -3.838868352      
                  -1.563223493      -3.838868352      -0.2720703896     -0.1858502516     
5950002700        -0.02988948626    0.04319207587     -2.651319456      3.0389358         
                  -2.651319456      3.0389358         -0.08329375416    0.3333994512      
6035002610        0.04142373735     0.01122603941     4.006354538       0.7855609071      
                  4.006354538       0.7855609071      0.2991642679      -0.09708101599    
6120002520        -0.1167323498     0.003568362665    -1.405695324      -3.652632892      
                  -1.405695324      -3.652632892      -0.3583202269     -0.04591210337    
6205002430        -0.001862490626   0.09245167039     -2.584081582      2.847853279       
                  -2.584081582      2.847853279       0.1021660248      0.3380372649      
6290002340        0.08944746363     -0.02250481948    3.807357966       0.7299902226      
                  3.807357966       0.7299902226      0.1957566773      -0.2479720901     
6375002250        -0.1653201843     -0.03994942591    -1.272256283      -3.475052382      
                  -1.272256283      -3.475052382      -0.3762530978     0.1294059154      
6460002160        -0.03003143914    0.181626085       -2.452765065      2.67247636        
                  -2.452765065      2.67247636        0.270989768       0.2727302941      
6545002070        0.172622374       0.006786873377    3.50878486        0.7213251862      
                  3.50878486        0.7213251862      0.02926542075     -0.3204041944     
6630001980        -0.1479822044     -0.131433939      -1.114512287      -3.269616187      
                  -1.114512287      -3.269616187      -0.2990772827     0.3023636314      
6715001890        -0.109902281      0.233427044       -2.268865695      2.393665782       
                  -2.268865695      2.393665782       0.3841213745      0.1565750407      
6800001800        0.2382857556      0.1052928391      3.158342269       0.8300533253      
                  3.158342269       0.8300533253      -0.1311830353     -0.3090125016     
6885001710        -0.04932152927    -0.2337559555     -0.8205641943     -3.032728616      
                  -0.8205641943     -3.032728616      -0.1885018515     0.3884230281      
6970001620        -0.2242357207     0.1877270469      -2.267695156      2.048598419       
                  -2.267695156      2.048598419       0.4236168083      0.02398435105     
7055001530        0.2271189526      0.2339430526      2.890903591       1.000180868       
                  2.890903591       1.000180868       -0.2572334502     -0.2716328553     
7140001440        0.1127217255      -0.2781354738     -0.5575491768     -2.909034786      
                  -0.5575491768     -2.909034786      -0.06375062128    0.4544069973      
7225001350        -0.2925869907     0.05915199131     -2.297543122      1.779016883       
                  -2.297543122      1.779016883       0.4529854293      -0.1030910417     
7310001260        0.1400893767      0.352603382       2.643868729       1.004092944       
                  2.643868729       1.004092944       -0.3589395601     -0.1853147577     
7395001170        0.2992547351      -0.2007418229     -0.2754421829     -2.718378128      
                  -0.2754421829     -2.718378128      0.07686857179     0.4825732446      
7480001080        -0.2802686127     -0.1396323546     -2.174605821      1.509163921       
                  -2.174605821      1.509163921       0.3951326215      -0.2370211596     
7565000990        -0.05959070773    0.3927468051      2.414412861       1.026487022       
                  2.414412861       1.026487022       -0.425481944      -0.084679653      
7650000900        0.4017968308      -0.03470632749    -0.0784514617     -2.446690409      
                  -0.0784514617     -2.446690409      0.2126203705      0.4393885246      
7735000810        -0.1440517964     -0.315104927      -2.156635286      1.283501757       
                  -2.156635286      1.283501757       0.3177335413      -0.3464623145     
7820000720        -0.2225704303     0.3052214385      2.153026464       1.154435773       
                  2.153026464       1.154435773       -0.4067251645     0.02475226293     
7905000630        0.4086988686      0.1522132495      0.08263421477     -2.196967746      
                  0.08263421477     -2.196967746      0.3242979903      0.3630727499      
7990000540        0.08219363746     -0.3911338873     -2.100388343      0.8830707555      
                  -2.100388343      0.8830707555      0.2218588739      -0.4076484334     
8075000450        -0.35729331       0.1053146237      1.814746296       1.36096868        
                  1.814746296       1.36096868        -0.3886284674     0.1187178498      
8160000360        0.2871161827      0.3227064689      0.2367858242      -2.096901537      
                  0.2367858242      -2.096901537      0.3996029091      0.2802584742      
8245000270        0.2676604543      -0.3317020164     -1.963225885      0.5959104163      
                  -1.963225885      0.5959104163      0.1145700413      -0.4447112119     
8330000180        -0.3647541696     -0.144672215      1.575897246       1.440049187       
                  1.575897246       1.440049187       -0.3436152485     0.1932020448      
8415000090        0.06804641116     0.3956576197      0.3703365977      -1.928954608      
                  0.3703365977      -1.928954608      0.4362385785      0.1674869385      
8500000000        0.3879643674      -0.1791511536     -1.781132078      0.4342905995      
                  -1.781132078      0.4342905995      -0.003994603491   -0.4611318895     
