! RsaToolbox (C) 2013 Rohde & Schwarz America
! 
! Number of points: 101
! Number of ports: 2
! Balanced ports?: 0
! 
! 
# Hz S RI R 50
9000              1.015977065       -0.02489455607    0.000242136588    0.0001543081744   
                  0.000242136588    0.0001543081744   1.033964619       -0.03443305645    
85008910          0.002941303205    0.160449898       3.192635132       5.527095717       
                  3.192635132       5.527095717       -0.09254947682    -0.1162452101     
170008820         0.1434773665      -0.04430850079    3.205001331       -5.22804459       
                  3.205001331       -5.22804459       -0.02062288195    0.1712228323      
255008730         -0.1765519483     -0.07619377924    -6.067059946      -0.1746112383     
                  -6.067059946      -0.1746112383     0.07863849305     -0.02575881078    
340008640         -0.06316783012    0.170198735       2.6449509         5.369746965       
                  2.6449509         5.369746965       -0.1264404889     -0.0535923634     
425008550         0.1602938728      -0.0461300631     3.400811365       -4.867479631      
                  3.400811365       -4.867479631      0.01674258719     0.1029548402      
510008460         -0.1023522393     -0.1636328092     -5.914836867      -0.6543231319     
                  -5.914836867      -0.6543231319     0.06992597532     -0.07924979825    
595008370         -0.107878213      0.1404312666      2.230525154       5.436817083       
                  2.230525154       5.436817083       -0.08399412677    -0.01096380543    
680008280         0.2050972482      0.03397138882     3.679469197       -4.574246258      
                  3.679469197       -4.574246258      0.09259334973     0.0753740772      
765008190         0.00898967564     -0.1641065805     -5.736398009      -1.114694678      
                  -5.736398009      -1.114694678      0.05898308186     -0.06079030814    
850008100         -0.1816863809     0.1117364235      1.865596081       5.534590924       
                  1.865596081       5.534590924       -0.07206591418    0.06540634479     
935008010         0.1454281255      0.1228420162      3.960281717       -4.227315499      
                  3.960281717       -4.227315499      0.1028014851      0.03913431258     
1020007920        0.07548849102     -0.1541879655     -5.595107633      -1.457030104      
                  -5.595107633      -1.457030104      -0.004533079634   -0.07585547994    
1105007830        -0.2259073313     -0.008424298664   1.473590566       5.624723541       
                  1.473590566       5.624723541       -0.062701936      0.07496701517     
1190007740        0.07141419266     0.140446627       4.207017342       -3.857245762      
                  4.207017342       -3.857245762      0.1245698264      -0.0426003305     
1275007650        0.1647869624      -0.1093325122     -5.466868938      -1.845064846      
                  -5.466868938      -1.845064846      -0.03075883222    -0.08890605254    
1360007560        -0.1640430143     -0.1012967406     1.033605781       5.655767154       
                  1.033605781       5.655767154       -0.005394679148   0.1020518366      
1445007470        0.0009929996273   0.1423177217      4.42322485        -3.541442641      
                  4.42322485        -3.541442641      0.147954969       -0.08942779223    
1530007380        0.1855682641      -0.01235030922    -5.311219649      -2.197710077      
                  -5.311219649      -2.197710077      -0.06888526173    -0.06407982701    
1615007290        -0.0946935313     -0.1247884883     0.6112782212      5.609288735       
                  0.6112782212      5.609288735       0.02354660986     0.1420601202      
1700007200        -0.08918540589    0.09845781264     4.681206577       -3.243805114      
                  4.681206577       -3.243805114      0.1112651348      -0.1338056528     
1785007110        0.1291514595      0.03192810349     -5.068679948      -2.536777185      
                  -5.068679948      -2.536777185      -0.1306779967     -0.06348809881    
1870007020        -0.02184314847    -0.137321         0.2187907605      5.613981536       
                  0.2187907605      5.613981536       0.0653448169      0.1313926282      
1955006930        -0.1076743169     0.02158806113     4.887956347       -2.884213331      
                  4.887956347       -2.884213331      0.08996807274     -0.193182062      
2040006840        0.0838622954      0.03976053884     -4.828641144      -2.822198054      
                  -4.828641144      -2.822198054      -0.1544629315     -0.04210945511    
2125006750        0.03669322279     -0.09423916045    -0.2004506799     5.643360302       
                  -0.2004506799     5.643360302       0.1308677961      0.1372526972      
2210006660        -0.09279965566    -0.0004946671206  4.98183909        -2.53386778       
                  4.98183909        -2.53386778       0.04779816934     -0.218741928      
2295006570        0.02985372521     0.03798818053     -4.595389417      -3.153564893      
                  -4.595389417      -3.153564893      -0.1854714041     0.01649963992     
2380006480        0.02955575017     -0.05264634492    -0.5652230582     5.580873716       
                  -0.5652230582     5.580873716       0.1664694234      0.1142184725      
2465006390        -0.08899792301    -0.01603959662    5.062296465       -2.211624843      
                  5.062296465       -2.211624843      -0.01940391001    -0.2582165679     
2550006300        0.01172836966     0.001687058998    -4.291569529      -3.492835544      
                  -4.291569529      -3.492835544      -0.1912560907     0.06027080865     
2635006210        0.02642967338     -0.04513936299    -0.9096097076     5.52445448        
                  -0.9096097076     5.52445448        0.2134974316      0.0643786734      
2720006120        -0.08313159169    -0.01134982717    5.13728237        -1.839813833      
                  5.13728237        -1.839813833      -0.0908535498     -0.2640995977     
2805006030        0.01795270448     0.0006969347614   -4.006109549      -3.740584733      
                  -4.006109549      -3.740584733      -0.1628700724     0.1245228329      
2890005940        0.02229274905     -0.03707456586    -1.250637841      5.40039167        
                  -1.250637841      5.40039167        0.231912472       0.008654301076    
2975005850        -0.09590891281    -0.009357169578   5.169324092       -1.38088266       
                  5.169324092       -1.38088266       -0.1631435274     -0.247234743      
3060005760        0.01761619214     0.01034780242     -3.70355011       -4.087001212      
                  -3.70355011       -4.087001212      -0.1186380391     0.1693217142      
3145005670        0.03804657605     -0.04596527653    -1.642346015      5.245958938       
                  -1.642346015      5.245958938       0.2304664089      -0.07096720068    
3230005580        -0.1024358701     -0.0341187404     5.281097914       -0.9787493496     
                  5.281097914       -0.9787493496     -0.2268184862     -0.2080503194     
3315005490        0.01125404165     0.03100985575     -3.433748068      -4.315825409      
                  -3.433748068      -4.315825409      -0.04662303411    0.203048294       
3400005400        0.06249980005     -0.0290507014     -1.99796198       5.0830095         
                  -1.99796198       5.0830095         0.2011650456      -0.1459382203     
3485005310        -0.09821546193    -0.06538902739    5.377518933       -0.6112453224     
                  5.377518933       -0.6112453224     -0.2822838732     -0.130190302      
3570005220        -0.02006181509    0.04900058864     -3.255286406      -4.50408048       
                  -3.255286406      -4.50408048       0.03312009476     0.2104185301      
3655005130        0.06875459055     0.004236338702    -2.197466272      4.950819568       
                  -2.197466272      4.950819568       0.1351195033      -0.2083711574     
3740005040        -0.07714125263    -0.09326057926    5.377701182       -0.255153045      
                  5.377701182       -0.255153045      -0.3116530144     -0.03959472981    
3825004950        -0.05887035407    0.03606755985     -2.976926281      -4.642622809      
                  -2.976926281      -4.642622809      0.1138817341      0.175746113       
3910004860        0.06378697913     0.03925140751     -2.617189369      4.728074557       
                  -2.617189369      4.728074557       0.05029703476     -0.2597484372     
3995004770        -0.03039144773    -0.1118749713     5.407682544       0.06752893094     
                  5.407682544       0.06752893094     -0.3057703029     0.06511410634     
4080004680        -0.08462336194    0.006928882641    -2.706867592      -4.811910567      
                  -2.706867592      -4.811910567      0.1909796317      0.1289100466      
4165004590        0.03950736592     0.06926277085     -2.875626177      4.590370625       
                  -2.875626177      4.590370625       -0.04633852074    -0.2709816987     
4250004500        0.01237806819     -0.08715247405    5.493011553       0.3100357131      
                  5.493011553       0.3100357131      -0.2651735274     0.1744736244      
4335004410        -0.09992818556    -0.02015718585    -2.452611018      -4.919474521      
                  -2.452611018      -4.919474521      0.2299587908      0.04386855713     
4420004320        -0.008023758537   0.08294608437     -3.075054837      4.483619002       
                  -3.075054837      4.483619002       -0.1642660879     -0.2503258659     
4505004230        0.03906010398     -0.05687438054    5.447799631       0.4900795019      
                  5.447799631       0.4900795019      -0.1960270844     0.2590735168      
4590004140        -0.09970903206    -0.0516710397     -2.186486719      -4.96355273       
                  -2.186486719      -4.96355273       0.2292536556      -0.05715684813    
4675004050        -0.04491412043    0.0699722307      -3.181179532      4.364743663       
                  -3.181179532      4.364743663       -0.2561541588     -0.1906901016     
4760003960        0.05643857511     -0.01534476409    5.302520728       0.7267955476      
                  5.302520728       0.7267955476      -0.08661875044    0.3109683262      
4845003870        -0.07572815469    -0.06828052384    -1.939970606      -5.011743478      
                  -1.939970606      -5.011743478      0.2001257653      -0.1547471116     
4930003780        -0.07572521212    0.04011954002     -3.370896323      4.179100078       
                  -3.370896323      4.179100078       -0.3199743374     -0.09818059542    
5015003690        0.04848700673     0.03702526695     5.174776408       0.9661010101      
                  5.174776408       0.9661010101      0.03505679934     0.3341660893      
5100003600        -0.05137551544    -0.05540760691    -1.763559601      -5.086828919      
                  -1.763559601      -5.086828919      0.1199259203      -0.2286467085     
5185003510        -0.09050379524    0.002436720433    -3.421540727      3.958798134       
                  -3.421540727      3.958798134       -0.3496545831     0.01201612563     
5270003420        0.01438155639     0.07078697336     5.039299837       1.2055189         
                  5.039299837       1.2055189         0.1499393467      0.3001385231      
5355003330        -0.04237608993    -0.02145330136    -1.654135965      -5.152389612      
                  -1.654135965      -5.152389612      -0.002697399192   -0.2785825936     
5440003240        -0.07129786809    -0.04002045496    -3.36885886       3.792589372       
                  -3.36885886       3.792589372       -0.3187974149     0.1316863491      
5525003150        -0.01872134695    0.06031302192     5.025031909       1.314150062       
                  5.025031909       1.314150062       0.2687471854      0.2015066036      
5610003060        -0.03834185052    0.02845339861     -1.59785426       -4.991153876      
                  -1.59785426       -4.991153876      -0.1371249056     -0.2669774357     
5695002970        -0.01392220453    -0.04293715367    -3.369096113      3.577520165       
                  -3.369096113      3.577520165       -0.2213769456     0.253034952       
5780002880        -0.02655400387    0.02290941718     4.976931691       1.417011538       
                  4.976931691       1.417011538       0.3294570524      0.05797240103     
5865002790        -0.07723522737    0.07639189947     -1.493746985      -4.725783428      
                  -1.493746985      -4.725783428      -0.2725343251     -0.1849929514     
5950002700        0.0367738205      0.005694023059    -3.397800001      3.371703008       
                  -3.397800001      3.371703008       -0.0835687929     0.3326036915      
6035002610        -0.01857591963    -0.04028118085    4.764963172       1.302457469       
                  4.764963172       1.302457469       0.2984363298      -0.0970383503     
6120002520        -0.1455301894     0.07386849594     -1.386531673      -4.473285424      
                  -1.386531673      -4.473285424      -0.3582656303     -0.04558828998    
6205002430        0.07272120097     0.08803398538     -3.289413688      3.170610957       
                  -3.289413688      3.170610957       0.1022414747      0.3369869874      
6290002340        0.06038366986     -0.09296651315    4.5436585         1.160009865       
                  4.5436585         1.160009865       0.1951401911      -0.2491209547     
6375002250        -0.2170338179     0.008318892348    -1.28766214       -4.168693384      
                  -1.28766214       -4.168693384      -0.3770021418     0.1302862793      
6460002160        0.02908647953     0.2068782583      -3.024565545      2.957757274       
                  -3.024565545      2.957757274       0.2699577807      0.2727512257      
6545002070        0.1753578485      -0.05763314294    4.097483954       1.059358568       
                  4.097483954       1.059358568       0.02827206445     -0.3179704122     
6630001980        -0.2071374021     -0.1103941104     -1.126951975      -3.834310318      
                  -1.126951975      -3.834310318      -0.2969898866     0.2989108257      
6715001890        -0.07124250081    0.272579679       -2.707299609      2.627688875       
                  -2.707299609      2.627688875       0.3794435351      0.1524283109      
6800001800        0.265524659       0.05061792008     3.622447262       1.087700263       
                  3.622447262       1.087700263       -0.1311559924     -0.3073416222     
6885001710        -0.1043499793     -0.2411295684     -0.8498369491     -3.485432764      
                  -0.8498369491     -3.485432764      -0.1855630949     0.382933415       
6970001620        -0.205316785      0.2330223663      -2.618830605      2.242043183       
                  -2.618830605      2.242043183       0.4205411685      0.02204439444     
7055001530        0.2620733904      0.2056334312      3.221008016       1.238153402       
                  3.221008016       1.238153402       -0.2577949413     -0.2720508806     
7140001440        0.0807052806      -0.2999564391     -0.5269241042     -3.217712471      
                  -0.5269241042     -3.217712471      -0.06786277916    0.4469878225      
7225001350        -0.2943948972     0.09182647973     -2.558942471      1.878999462       
                  -2.558942471      1.878999462       0.4475654502      -0.1044443445     
7310001260        0.1727997027      0.3397308576      2.841480901       1.134441221       
                  2.841480901       1.134441221       -0.3524872864     -0.184900641      
7395001170        0.2850890436      -0.2294511629     -0.2678804054     -2.9475835        
                  -0.2678804054     -2.9475835        0.08326814908     0.4764334102      
7480001080        -0.2987814081     -0.1073963899     -2.404146427      1.632812912       
                  -2.404146427      1.632812912       0.3948081646      -0.2389702703     
7565000990        -0.03032480236    0.4024182719      2.629695816       1.163601043       
                  2.629695816       1.163601043       -0.4270817355     -0.08467486278    
7650000900        0.4008275644      -0.05621501245    -0.05174683852    -2.618748676      
                  -0.05174683852    -2.618748676      0.2133553855      0.4395397455      
7735000810        -0.1604108337     -0.3080857857     -2.298914189      1.345319421       
                  -2.298914189      1.345319421       0.3180734615      -0.346645748      
7820000720        -0.2063054215     0.3165713434      2.276214167       1.236212381       
                  2.276214167       1.236212381       -0.4047541879     0.02492935587     
7905000630        0.4167264214      0.1369592173      0.09031411508     -2.302959844      
                  0.09031411508     -2.302959844      0.3255458546      0.3618158377      
7990000540        0.06600786768     -0.390519997      -2.219628729      0.9314080574      
                  -2.219628729      0.9314080574      0.2214690622      -0.4078172416     
8075000450        -0.3500466242     0.1195548286      1.906420275       1.435031992       
                  1.906420275       1.435031992       -0.3880947908     0.1184805002      
8160000360        0.2963605512      0.3127631048      0.2523076759      -2.180586087      
                  0.2523076759      -2.180586087      0.3982543179      0.279212713       
8245000270        0.2553298639      -0.3335502969     -2.021733212      0.6159722295      
                  -2.021733212      0.6159722295      0.1157560933      -0.4387152637     
8330000180        -0.3604245303     -0.127587569      1.618160937       1.482092117       
                  1.618160937       1.482092117       -0.3388754389     0.1904513667      
8415000090        0.07727859308     0.3908921332      0.3964734416      -1.985399905      
                  0.3964734416      -1.985399905      0.4375393215      0.1708983952      
8500000000        0.3840142982      -0.1811677566     -1.826339979      0.435428928       
                  -1.826339979      0.435428928       -0.0008647457451  -0.4587726087     
