! RsaToolbox (C) 2013 Rohde & Schwarz America
! 
! Number of points: 101
! Number of ports: 2
! Balanced ports?: 0
! 
! 
# Hz S RI R 50
9000              1.006046274       -0.01764129193    6.190110184e-05   9.141148153e-06   
                  6.190110184e-05   9.141148153e-06   1.015238336       -0.02444493797    
85008910          0.001534370102    0.1570299579      3.190886177       5.477307587       
                  3.190886177       5.477307587       -0.09219694595    -0.1158733672     
170008820         0.1408720475      -0.0427693545     3.17309265        -5.212223324      
                  3.17309265        -5.212223324      -0.02065671739    0.1716079243      
255008730         -0.1745239476     -0.07523059314    -6.044126322      -0.1571778322     
                  -6.044126322      -0.1571778322     0.07768235841     -0.0266167351     
340008640         -0.06362032827    0.1680146528      2.653318175       5.336996756       
                  2.653318175       5.336996756       -0.1267632268     -0.05386410473    
425008550         0.1577723234      -0.045889785      3.371810192       -4.86298232       
                  3.371810192       -4.86298232       0.01658864042     0.1028083357      
510008460         -0.100739003      -0.1622125233     -5.894054351      -0.6322632988     
                  -5.894054351      -0.6322632988     0.07080672815     -0.07970495302    
595008370         -0.1066164115     0.138246206       2.234196632       5.408164453       
                  2.234196632       5.408164453       -0.08385593899    -0.01210258852    
680008280         0.2027944605      0.03366257834     3.644560364       -4.574745967      
                  3.644560364       -4.574745967      0.09209516705     0.07525471442     
765008190         0.009895440058    -0.1619971914     -5.721180811      -1.086396765      
                  -5.721180811      -1.086396765      0.06011762768     -0.06062502868    
850008100         -0.1806404255     0.1104697517      1.881604898       5.506782648       
                  1.881604898       5.506782648       -0.0717170726     0.06498337865     
935008010         0.1441449645      0.1225636736      3.926716437       -4.23149806       
                  3.926716437       -4.23149806       0.1020247448      0.03893598627     
1020007920        0.07515344694     -0.1521489615     -5.579150827      -1.430414193      
                  -5.579150827      -1.430414193      -0.004740252264   -0.07573705612    
1105007830        -0.2237082505     -0.00861836159    1.494614147       5.598401994       
                  1.494614147       5.598401994       -0.06304392016    0.07520759923     
1190007740        0.07038035885     0.1386611976      4.174732686       -3.860348916      
                  4.174732686       -3.860348916      0.1241835531      -0.04248604362    
1275007650        0.1631030924      -0.1073646512     -5.460709993      -1.807912946      
                  -5.460709993      -1.807912946      -0.03011992606    -0.08906203232    
1360007560        -0.161806671      -0.09995464883    1.06316097        5.624522939       
                  1.06316097        5.624522939       -0.005557860813   0.1019210965      
1445007470        0.0005763091867   0.1398684653      4.387959003       -3.545416224      
                  4.387959003       -3.545416224      0.1471708315      -0.08840874016    
1530007380        0.1825442065      -0.01064690652    -5.300536406      -2.161666081      
                  -5.300536406      -2.161666081      -0.06934084103    -0.06464196352    
1615007290        -0.09275561543    -0.1219267342     0.6407633981      5.581031541       
                  0.6407633981      5.581031541       0.02311936238     0.1421601336      
1700007200        -0.08720344366    0.0950288907      4.640375579       -3.251479015      
                  4.640375579       -3.251479015      0.1109324194      -0.133471059      
1785007110        0.1255492556      0.03127248358     -5.057585223      -2.498546095      
                  -5.057585223      -2.498546095      -0.1319588277     -0.06410003997    
1870007020        -0.02141515757    -0.1330809269     0.2488618024      5.586447315       
                  0.2488618024      5.586447315       0.06572700252     0.1321714068      
1955006930        -0.1044567996     0.02013229467     4.844808833       -2.901656392      
                  4.844808833       -2.901656392      0.08929134612     -0.1939788553     
2040006840        0.08027793922     0.03688355111     -4.821494763      -2.778326046      
                  -4.821494763      -2.778326046      -0.1549512936     -0.0416090005     
2125006750        0.03502087169     -0.09003782416    -0.162347717      5.613861278       
                  -0.162347717      5.613861278       0.1309618627      0.1369220286      
2210006660        -0.08890642979    -0.0009436062312  4.935771268       -2.549743544      
                  4.935771268       -2.549743544      0.04798900216     -0.2181487353     
2295006570        0.02807838298     0.03312836998     -4.588846712      -3.103009718      
                  -4.588846712      -3.103009718      -0.1861939339     0.01530362408     
2380006480        0.0260310228      -0.05016729891    -0.5214554747     5.547801335       
                  -0.5214554747     5.547801335       0.1668775193      0.1140540801      
2465006390        -0.08419500106    -0.01470934712    5.008443269       -2.232653115      
                  5.008443269       -2.232653115      -0.01960292697    -0.2596321374     
2550006300        0.01185189457     -0.003112639885   -4.277738667      -3.43896123       
                  -4.277738667      -3.43896123       -0.1911060908     0.06037677671     
2635006210        0.02143902541     -0.04391465525    -0.8537918668     5.486570989       
                  -0.8537918668     5.486570989       0.2136032028      0.06416508126     
2720006120        -0.07980223399    -0.007433731708   5.081817695       -1.862049736      
                  5.081817695       -1.862049736      -0.09058151313    -0.2646495713     
2805006030        0.01986036973     -0.003889763116   -3.995293531      -3.680958214      
                  -3.995293531      -3.680958214      -0.1630593723     0.1232622325      
2890005940        0.01648394766     -0.03804110599    -1.184756975      5.358883044       
                  -1.184756975      5.358883044       0.2321718882      0.00907110631     
2975005850        -0.09392996995    -0.003215152372   5.11026344        -1.405948854      
                  5.11026344        -1.405948854      -0.1620515223     -0.2477527029     
3060005760        0.0225914262      0.007309665052    -3.699000744      -4.016380782      
                  -3.699000744      -4.016380782      -0.1190027418     0.1687666846      
3145005670        0.03208586247     -0.04790937379    -1.579087491      5.203772196       
                  -1.579087491      5.203772196       0.2318876626      -0.07148491849    
3230005580        -0.1029856189     -0.02811052341    5.214708451       -1.006745558      
                  5.214708451       -1.006745558      -0.2267967032     -0.208094718      
3315005490        0.01667766311     0.03159831639     -3.432870949      -4.23381563       
                  -3.432870949      -4.23381563       -0.04607654682    0.2027870531      
3400005400        0.05906912372     -0.03460292347    -1.920764847      5.038179396       
                  -1.920764847      5.038179396       0.2017862596      -0.1448508559     
3485005310        -0.1020066701     -0.05960308938    5.308637289       -0.6531862795     
                  5.308637289       -0.6531862795     -0.2820887643     -0.1297109908     
3570005220        -0.0146089202     0.05213078423     -3.259312069      -4.408241358      
                  -3.259312069      -4.408241358      0.03345186118     0.2108212917      
3655005130        0.06965219543     -0.002983445879   -2.103834082      4.901915955       
                  -2.103834082      4.901915955       0.134963083       -0.2087220212     
3740005040        -0.08349159797    -0.09159083095    5.291314465       -0.3105155301     
                  5.291314465       -0.3105155301     -0.3120327542     -0.0395884824     
3825004950        -0.05475361571    0.04359656964     -2.998380028      -4.519234187      
                  -2.998380028      -4.519234187      0.1135332737      0.1763355671      
3910004860        0.06890998554     0.03100986027     -2.504413409      4.683313287       
                  -2.504413409      4.683313287       0.050717183       -0.2589294021     
3995004770        -0.03883273606    -0.1133074721     5.308838125       -0.009207734959   
                  5.308838125       -0.009207734959   -0.3054385508     0.06521276741     
4080004680        -0.08418338165    0.01739228138     -2.723814416      -4.681422022      
                  -2.723814416      -4.681422022      0.1908861731      0.1285002899      
4165004590        0.04820357524     0.06614430479     -2.77056382       4.535660815       
                  -2.77056382       4.535660815       -0.04619625582    -0.2719059321     
4250004500        0.004246665496    -0.09496681447    5.384136226       0.2323924815      
                  5.384136226       0.2323924815      -0.2657681821     0.1755890949      
4335004410        -0.1057289191     -0.009648739311   -2.472314142      -4.775237195      
                  -2.472314142      -4.775237195      0.2300974669      0.04477068143     
4420004320        0.003655394065    0.08377373101     -2.946361091      4.42309967        
                  -2.946361091      4.42309967        -0.1637148657     -0.250960543      
4505004230        0.03375332148     -0.06793162294    5.31872378        0.3895341305      
                  5.31872378        0.3895341305      -0.1969255646     0.2590146112      
4590004140        -0.109648649      -0.04355780322    -2.215418007      -4.793067554      
                  -2.215418007      -4.793067554      0.2297699589      -0.057433453      
4675004050        -0.03353978567    0.07641239581     -3.01677801       4.300449862       
                  -3.01677801       4.300449862       -0.2553773443     -0.1915175654     
4760003960        0.05822073975     -0.02960287243    5.159797824       0.6093030372      
                  5.159797824       0.6093030372      -0.08663741964    0.3112950781      
4845003870        -0.09041809259    -0.06473881048    -1.975606907      -4.820012371      
                  -1.975606907      -4.820012371      0.2004456304      -0.1548560782     
4930003780        -0.06764958698    0.05309256131     -3.170764247      4.110167972       
                  -3.170764247      4.110167972       -0.3197329165     -0.09984108551    
5015003690        0.05772174617     0.02406954178     5.023871956       0.8382727797      
                  5.023871956       0.8382727797      0.03556044369     0.3348089345      
5100003600        -0.06838469607    -0.05936677788    -1.814632221      -4.853093502      
                  -1.814632221      -4.853093502      0.1196359563      -0.229245509      
5185003510        -0.08792421045    0.02096884334     -3.207768428      3.880434586       
                  -3.207768428      3.880434586       -0.3497662709     0.01132267222     
5270003420        0.02850238308     0.06168180278     4.877620497       1.055092608       
                  4.877620497       1.055092608       0.1496013291      0.2998789822      
5355003330        -0.05733037602    -0.03413585882    -1.712210859      -4.871846819      
                  -1.712210859      -4.871846819      -0.002074315419   -0.2792779625     
5440003240        -0.07620278975    -0.02203628943    -3.154426774      3.706537851       
                  -3.154426774      3.706537851       -0.3197342511     0.1320056322      
5525003150        -0.0008668292349  0.05752192196     4.842442035       1.156504812       
                  4.842442035       1.156504812       0.2689878707      0.2016812727      
5610003060        -0.04719856371    0.01017165255     -1.64637982       -4.708495078      
                  -1.64637982       -4.708495078      -0.1365981148     -0.2679988712     
5695002970        -0.02585146777    -0.02856203405    -3.145210205      3.484894957       
                  -3.145210205      3.484894957       -0.2215584091     0.2528540433      
5780002880        -0.007411229719   0.0288091789      4.766774572       1.23017083        
                  4.766774572       1.23017083        0.3296124044      0.058189694       
5865002790        -0.07661211627    0.05673957862     -1.528200403      -4.458415318      
                  -1.528200403      -4.458415318      -0.2722220883     -0.1855634462     
5950002700        0.01929370273     0.01331494328     -3.172342607      3.275370934       
                  -3.172342607      3.275370934       -0.0829870549     0.3331908479      
6035002610        -0.004200601336   -0.02541679733    4.538319145       1.135294297       
                  4.538319145       1.135294297       0.298834224       -0.09714893843    
6120002520        -0.1364786815     0.05711201219     -1.394473147      -4.221615612      
                  -1.394473147      -4.221615612      -0.3584435849     -0.04563751525    
6205002430        0.05301723925     0.08803718422     -3.074097755      3.070024149       
                  -3.074097755      3.070024149       0.1021585119      0.3378268901      
6290002340        0.06661104335     -0.07299493889    4.314198924       1.026036735       
                  4.314198924       1.026036735       0.1952786752      -0.2479639171     
6375002250        -0.2016767719     -0.002266381129   -1.278183761      -3.964217119      
                  -1.278183761      -3.964217119      -0.3761792931     0.1297321228      
6460002160        0.015452446       0.19870196        -2.867364111      2.873215346       
                  -2.867364111      2.873215346       0.2709008814      0.2725200051      
6545002070        0.1738284727      -0.04309436577    3.939378086       0.9625201066      
                  3.939378086       0.9625201066      0.028977122       -0.3202311663     
6630001980        -0.1920055979     -0.1143274004     -1.124672142      -3.687163382      
                  -1.124672142      -3.687163382      -0.2987654697     0.3022129674      
6715001890        -0.08003316705    0.2636888809      -2.603153029      2.563356167       
                  -2.603153029      2.563356167       0.3840077358      0.1563279185      
6800001800        0.257681659       0.06704204398     3.495243412       1.043188536       
                  3.495243412       1.043188536       -0.131381954      -0.3089378503     
6885001710        -0.09005211023    -0.2373371194     -0.8143840618     -3.373552229      
                  -0.8143840618     -3.373552229      -0.1882368149     0.3880634461      
6970001620        -0.2119176033     0.2218440195      -2.541235769      2.171435409       
                  -2.541235769      2.171435409       0.4232655392      0.02397609301     
7055001530        0.2531249443      0.2129272379      3.130511591       1.18249602        
                  3.130511591       1.18249602        -0.2570659865     -0.2718075148     
7140001440        0.08864447065     -0.2929002008     -0.5367747626     -3.143349318      
                  -0.5367747626     -3.143349318      -0.06346013613    0.4541271164      
7225001350        -0.2943532471     0.0872127902      -2.507427655      1.859271991       
                  -2.507427655      1.859271991       0.4528396124      -0.1033973555     
7310001260        0.1621049123      0.3472661353      2.802676912       1.127049324       
                  2.802676912       1.127049324       -0.3587052386     -0.1851630808     
7395001170        0.2876745832      -0.2199466155     -0.2459346337     -2.899748931      
                  -0.2459346337     -2.899748931      0.0771006314      0.4822052551      
7480001080        -0.2933682785     -0.1176208102     -2.354570121      1.577565974       
                  -2.354570121      1.577565974       0.3948781569      -0.237145953      
7565000990        -0.03816215766    0.3969960588      2.559465898       1.135373813       
                  2.559465898       1.135373813       -0.4250847391     -0.08450231345    
7650000900        0.4000508516      -0.05052819585    -0.05309296071    -2.566552863      
                  -0.05309296071    -2.566552863      0.2128089859      0.4390695869      
7735000810        -0.1561903632     -0.3083897195     -2.26282034       1.322373796       
                  -2.26282034       1.322373796       0.3175972669      -0.3461746661     
7820000720        -0.2108438034     0.3133930768      2.240116025       1.224922721       
                  2.240116025       1.224922721       -0.4063242842     0.02493247441     
7905000630        0.4119440019      0.1423292637      0.09987174489     -2.272018761      
                  0.09987174489     -2.272018761      0.3243334341      0.3628138993      
7990000540        0.07045251006     -0.3899659702     -2.187265551      0.9062349705      
                  -2.187265551      0.9062349705      0.2216656383      -0.4073401433     
8075000450        -0.3517157737     0.1158625329      1.87702621        1.42013555        
                  1.87702621        1.42013555        -0.3882402136     0.1188102262      
8160000360        0.2940970098      0.3152833275      0.2546847747      -2.165000019      
                  0.2546847747      -2.165000019      0.3996155845      0.2801063662      
8245000270        0.2601124222      -0.3349793343     -2.021032054      0.6044295573      
                  -2.021032054      0.6044295573      0.1144873752      -0.4444224539     
8330000180        -0.3651117075     -0.135732969      1.617038364       1.488635249       
                  1.617038364       1.488635249       -0.3432870547     0.1930354961      
8415000090        0.07539485814     0.3929421307      0.3863889947      -1.978676391      
                  0.3863889947      -1.978676391      0.4358871324      0.1673482804      
8500000000        0.3839218979      -0.1837727136     -1.820264866      0.4390404342      
                  -1.820264866      0.4390404342      -0.004422436137   -0.4607907988     
