! RsaToolbox (C) 2013 Rohde & Schwarz America
! 
! Number of points: 101
! Number of ports: 2
! Balanced ports?: 0
! 
! 
# Hz S RI R 50
9000              1.010827671       -0.01839824872    5.440278728e-05   4.200589732e-06   
                  5.440278728e-05   4.200589732e-06   1.019915516       -0.0247989279     
85008910          0.002421479685    0.1589632291      3.196165527       5.50987931        
                  3.196165527       5.50987931        -0.09217099029    -0.1154566164     
170008820         0.1422121865      -0.04422216331    3.188094916       -5.226331561      
                  3.188094916       -5.226331561      -0.02036285948    0.1717546013      
255008730         -0.1760623349     -0.07567276292    -6.05963108       -0.1648322001     
                  -6.05963108       -0.1648322001     0.07751525107     -0.0265505752     
340008640         -0.06346857877    0.1697307462      2.653989042       5.354514549       
                  2.653989042       5.354514549       -0.1268422188     -0.05375882201    
425008550         0.1593428356      -0.04630190756    3.39059044        -4.86872316       
                  3.39059044        -4.86872316       0.01680286285     0.1029077581      
510008460         -0.1017122315     -0.1632921316     -5.906280081      -0.6427748371     
                  -5.906280081      -0.6427748371     0.07081265206     -0.0795912634     
595008370         -0.1073637546     0.1398141744      2.231236208       5.426181353       
                  2.231236208       5.426181353       -0.0836130406     -0.01192618096    
680008280         0.2042416986      0.0340079781      3.661684945       -4.578697136      
                  3.661684945       -4.578697136      0.09201979748     0.07535616227     
765008190         0.009358600703    -0.1635801269     -5.732936293      -1.10041113       
                  -5.732936293      -1.10041113       0.06029947195     -0.06043726608    
850008100         -0.1817004469     0.1114734445      1.87347773        5.523563734       
                  1.87347773        5.523563734       -0.07184353099    0.06520862337     
935008010         0.1456800108      0.1234363823      3.944954372       -4.233896194      
                  3.944954372       -4.233896194      0.1022961323      0.03889784212     
1020007920        0.07557013457     -0.153963837      -5.59075169       -1.444811158      
                  -5.59075169       -1.444811158      -0.004672729276   -0.07553738223    
1105007830        -0.2251971426     -0.008328082324   1.482479283       5.616044457       
                  1.482479283       5.616044457       -0.06277391929    0.07526740301     
1190007740        0.07128305624     0.1402812177      4.193363848       -3.861521339      
                  4.193363848       -3.861521339      0.124304672       -0.04240266761    
1275007650        0.1643665544      -0.1085361232     -5.469431111      -1.82677154       
                  -5.469431111      -1.82677154       -0.03010322013    -0.08913385441    
1360007560        -0.1635153744     -0.1004894535     1.046731016       5.642388197       
                  1.046731016       5.642388197       -0.005453638715   0.101687347       
1445007470        0.0003566592046   0.1417650503      4.408574333       -3.543954965      
                  4.408574333       -3.543954965      0.147207142       -0.08841633013    
1530007380        0.1844985887      -0.01143241251    -5.308010765      -2.18417958       
                  -5.308010765      -2.18417958       -0.06918686838    -0.06453571075    
1615007290        -0.09408411139    -0.123855196      0.6222798318      5.601970333       
                  0.6222798318      5.601970333       0.02292637193     0.1420869867      
1700007200        -0.08844586347    0.09714785233     4.665588648       -3.245083982      
                  4.665588648       -3.245083982      0.1109227163      -0.1334844154     
1785007110        0.1281826638      0.03176181994     -5.065013342      -2.525666971      
                  -5.065013342      -2.525666971      -0.1318411795     -0.06403826459    
1870007020        -0.02184879255    -0.1356845905     0.2287914389      5.604949106       
                  0.2287914389      5.604949106       0.06592072818     0.132116444       
1955006930        -0.1066871746     0.02154852683     4.8739241         -2.891459638      
                  4.8739241         -2.891459638      0.08909303823     -0.1940069485     
2040006840        0.08293916235     0.03899037076     -4.828593545      -2.809351815      
                  -4.828593545      -2.809351815      -0.1547463717     -0.04153498126    
2125006750        0.03626270749     -0.09282927313    -0.1882382741     5.636035032       
                  -0.1882382741     5.636035032       0.1311481286      0.1367562023      
2210006660        -0.09222984376    -0.0008719895755  4.970263541       -2.536703627      
                  4.970263541       -2.536703627      0.04787997713     -0.2180920466     
2295006570        0.02947095039     0.03652872581     -4.596238033      -3.139710118      
                  -4.596238033      -3.139710118      -0.1858693118     0.01538429855     
2380006480        0.0286903147      -0.05248474324    -0.5523581206     5.572387446       
                  -0.5523581206     5.572387446       0.1669512594      0.1139491895      
2465006390        -0.08765168223    -0.01625678831    5.047808241       -2.218074393      
                  5.047808241       -2.218074393      -0.0196857046     -0.2593110838     
2550006300        0.01161762056     0.001208280958    -4.288031529      -3.478053261      
                  -4.288031529      -3.478053261      -0.1910403372     0.06065959199     
2635006210        0.02541449933     -0.044952269      -0.891040456      5.514483564       
                  -0.891040456      5.514483564       0.2135270447      0.06433462769     
2720006120        -0.08234480248    -0.01057322213    5.122868402       -1.84563992       
                  5.122868402       -1.84563992       -0.09062946913    -0.2644733328     
2805006030        0.01768946336     -0.0001761381484  -4.002533453      -3.726127525      
                  -4.002533453      -3.726127525      -0.1630277081     0.1235337459      
2890005940        0.02102952097     -0.03694246944    -1.23052664       5.389174253       
                  -1.23052664       5.389174253       0.2319785991      0.00896123792     
2975005850        -0.09504178881    -0.007708706441   5.154324615       -1.389208393      
                  5.154324615       -1.389208393      -0.1621552683     -0.2472528629     
3060005760        0.01876139193     0.009730909492    -3.70304185       -4.067880539      
                  -3.70304185       -4.067880539      -0.1189659159     0.1687609474      
3145005670        0.03603432599     -0.04483423015    -1.628969571      5.235316659       
                  -1.628969571      5.235316659       0.231778878       -0.07134525583    
3230005580        -0.1019899729     -0.0327063318     5.26274367        -0.9845125242     
                  5.26274367        -0.9845125242     -0.2269312407     -0.2079834217     
3315005490        0.01207709112     0.0318395223      -3.429837903      -4.29446009       
                  -3.429837903      -4.29446009       -0.04589570453    0.2026812592      
3400005400        0.06110203034     -0.02961757073    -1.983203339      5.06982006        
                  -1.983203339      5.06982006        0.20146882        -0.1448829867     
3485005310        -0.09832581656    -0.06344076589    5.363218281       -0.6205517327     
                  5.363218281       -0.6205517327     -0.2823887567     -0.1294618681     
3570005220        -0.01969213064    0.04959038701     -3.250355535      -4.482865318      
                  -3.250355535      -4.482865318      0.03346550497     0.2109707116      
3655005130        0.06879991245     0.003309432901    -2.1781001        4.93470477        
                  -2.1781001        4.93470477        0.1347341724      -0.2085984924     
3740005040        -0.07792500491    -0.09335127797    5.352568423       -0.264332699      
                  5.352568423       -0.264332699      -0.3119350794     -0.03942176252    
3825004950        -0.05836536182    0.03777520667     -2.978472871      -4.614232022      
                  -2.978472871      -4.614232022      0.1133314265      0.1760637013      
3910004860        0.0643626045      0.03684272264     -2.596609672      4.712413442       
                  -2.596609672      4.712413442       0.05019741732     -0.2592982846     
3995004770        -0.03182014994    -0.1117603146     5.382764199       0.05755790834     
                  5.382764199       0.05755790834     -0.3051875457     0.06534232548     
4080004680        -0.08486409719    0.008791436257    -2.702606649      -4.785382293      
                  -2.702606649      -4.785382293      0.1905622001      0.1282851656      
4165004590        0.04064682064     0.07007395205     -2.861702544      4.572226224       
                  -2.861702544      4.572226224       -0.04655905914    -0.2715108226     
4250004500        0.01098175849     -0.08871218004    5.46785323        0.3041210923      
                  5.46785323        0.3041210923      -0.2658150126     0.1754485933      
4335004410        -0.101977884      -0.01898585814    -2.447034184      -4.893641695      
                  -2.447034184      -4.893641695      0.2298775132      0.04510647965     
4420004320        -0.00646059387    0.08386205809     -3.062562202      4.457755695       
                  -3.062562202      4.457755695       -0.1636850069     -0.2508266065     
4505004230        0.03799860566     -0.05794660404    5.416124729       0.4817120176      
                  5.416124729       0.4817120176      -0.196520005      0.2590835012      
4590004140        -0.1010711576     -0.0515367755     -2.180207063      -4.92798115       
                  -2.180207063      -4.92798115       0.2295906003      -0.05764250616    
4675004050        -0.04417042369    0.07129446103     -3.15711839       4.338747267       
                  -3.15711839       4.338747267       -0.2555092481     -0.191165051      
4760003960        0.05766543829     -0.0173126334     5.266032159       0.7163156623      
                  5.266032159       0.7163156623      -0.08638377579    0.3111351148      
4845003870        -0.07787838658    -0.06858730646    -1.931320321      -4.976327026      
                  -1.931320321      -4.976327026      0.2003474825      -0.1550169893     
4930003780        -0.07607616918    0.04219375867     -3.337451405      4.155025993       
                  -3.337451405      4.155025993       -0.3192904987     -0.09965463203    
5015003690        0.05109891203     0.03679830273     5.137378862       0.9569669968      
                  5.137378862       0.9569669968      0.03601953854     0.3345385448      
5100003600        -0.05311534477    -0.05716424356    -1.758849396      -5.0452853        
                  -1.758849396      -5.0452853        0.1195175851      -0.2293496481     
5185003510        -0.09104801517    0.005816638305    -3.390254499      3.932180518       
                  -3.390254499      3.932180518       -0.349503789      0.01180630364     
5270003420        0.01607568003     0.07123122263     5.001398174       1.187819967       
                  5.001398174       1.187819967       0.1497990258      0.2999215925      
5355003330        -0.0429898847     -0.0242386049     -1.644748451      -5.101981862      
                  -1.644748451      -5.101981862      -0.002311002407   -0.2790114146     
5440003240        -0.07273233745    -0.03789784039    -3.337561711      3.764800106       
                  -3.337561711      3.764800106       -0.3193632503     0.1320921925      
5525003150        -0.01671426118    0.06132520839     4.981672722       1.30187866        
                  4.981672722       1.30187866        0.2688719811      0.201364743       
5610003060        -0.03853337642    0.0256019546      -1.587484295      -4.94315953       
                  -1.587484295      -4.94315953       -0.1367513906     -0.2677706113     
5695002970        -0.01572483965    -0.04242553637    -3.336919677      3.548023001       
                  -3.336919677      3.548023001       -0.2211864257     0.2529102542      
5780002880        -0.02474694852    0.02493745786     4.930437176       1.394710514       
                  4.930437176       1.394710514       0.3293819872      0.05804946203     
5865002790        -0.07565639484    0.07394871946     -1.485857791      -4.682752009      
                  -1.485857791      -4.682752009      -0.2720713735     -0.1852904751     
5950002700        0.03411439802     0.004890783804    -3.370779206      3.339410866       
                  -3.370779206      3.339410866       -0.08293466157    0.3329546708      
6035002610        -0.01810314572    -0.03700162762    4.715780341       1.293297104       
                  4.715780341       1.293297104       0.2984347768      -0.09744540165    
6120002520        -0.1428358395     0.0723502872      -1.367045852      -4.429475768      
                  -1.367045852      -4.429475768      -0.3583782657     -0.04546620994    
6205002430        0.06929575345     0.08719752056     -3.260124587      3.134027984       
                  -3.260124587      3.134027984       0.1022196258      0.3368125781      
6290002340        0.05991505236     -0.08860354561    4.492206484       1.157737237       
                  4.492206484       1.157737237       0.1948150491      -0.2478645632     
6375002250        -0.2128044967     0.008086228706    -1.266343305      -4.138621928      
                  -1.266343305      -4.138621928      -0.3761441347     0.1300686342      
6460002160        0.02839864526     0.2044495398      -3.019811793      2.935949449       
                  -3.019811793      2.935949449       0.2708052873      0.2723843063      
6545002070        0.1751216231      -0.0581078041     4.092386258       1.063415134       
                  4.092386258       1.063415134       0.0284310541      -0.3202305139     
6630001980        -0.2051101589     -0.1103403323     -1.122514255      -3.836303427      
                  -1.122514255      -3.836303427      -0.2982857303     0.3022307067      
6715001890        -0.0720344535     0.2730332941      -2.721512692      2.620274561       
                  -2.721512692      2.620274561       0.3838195323      0.1561651473      
6800001800        0.2641416636      0.05614999453     3.612136368       1.123160668       
                  3.612136368       1.123160668       -0.1314657997     -0.3088186241     
6885001710        -0.1015578198     -0.2394801465     -0.8114388796     -3.491361127      
                  -0.8114388796     -3.491361127      -0.1880924553     0.388048609       
6970001620        -0.2091445302     0.2320575304      -2.634112056      2.215269968       
                  -2.634112056      2.215269968       0.4233375586      0.023208025       
7055001530        0.261560023       0.2076236203      3.211929742       1.241384123       
                  3.211929742       1.241384123       -0.2568911935     -0.2713451367     
7140001440        0.08224833972     -0.2983912447     -0.535658523      -3.221841782      
                  -0.535658523      -3.221841782      -0.06334423473    0.453798531       
7225001350        -0.2959183376     0.09505593325     -2.575193859      1.889929646       
                  -2.575193859      1.889929646       0.4526614904      -0.1035821493     
7310001260        0.1689569706      0.3468309645      2.857735902       1.161949857       
                  2.857735902       1.161949857       -0.3587749229     -0.1853798619     
7395001170        0.2850969525      -0.2262586616     -0.2421130601     -2.960284237      
                  -0.2421130601     -2.960284237      0.07722439854     0.4819746464      
7480001080        -0.2977998588     -0.1113550496     -2.412012405      1.605343271       
                  -2.412012405      1.605343271       0.3949041324      -0.2371977454     
7565000990        -0.03184300325    0.3992227414      2.60920732        1.165377848       
                  2.60920732        1.165377848       -0.424937184      -0.0844297666     
7650000900        0.4002853837      -0.0558026147     -0.05027316373    -2.606160594      
                  -0.05027316373    -2.606160594      0.2128845807      0.4388994551      
7735000810        -0.1603672798     -0.3065922161     -2.295870049      1.341583526       
                  -2.295870049      1.341583526       0.3176067677      -0.3461600494     
7820000720        -0.2076400734     0.316531509       2.272375172       1.242682949       
                  2.272375172       1.242682949       -0.4060544047     0.02518036228     
7905000630        0.4137780005      0.1391189608      0.09937028068     -2.298264297      
                  0.09937028068     -2.298264297      0.3244357469      0.3622861573      
7990000540        0.06677707491     -0.3902054096     -2.214349351      0.9211857313      
                  -2.214349351      0.9211857313      0.2216035304      -0.4068398142     
8075000450        -0.350652157      0.1192852525      1.902905123       1.434897689       
                  1.902905123       1.434897689       -0.3880028979     0.1189710943      
8160000360        0.2963481504      0.3136405179      0.2547663515      -2.188366537      
                  0.2547663515      -2.188366537      0.3995160664      0.2802894684      
8245000270        0.257807249       -0.3366516172     -2.03890622       0.6127270437      
                  -2.03890622       0.6127270437      0.1143711193      -0.4439075367     
8330000180        -0.3660428863     -0.1327697183     1.634121093       1.500848959       
                  1.634121093       1.500848959       -0.3432698053     0.193383456       
8415000090        0.07796615465     0.3930227203      0.3867162955      -1.99563009       
                  0.3867162955      -1.99563009       0.4357322411      0.1675067528      
8500000000        0.3829562294      -0.1856402695     -1.831615187      0.4441972366      
                  -1.831615187      0.4441972366      -0.004682098402   -0.4604511802     
