! RsaToolbox (C) 2013 Rohde & Schwarz America
! 
! Number of points: 101
! Number of ports: 2
! Balanced ports?: 0
! 
! 
# Hz S RI R 50
9000              1.025499539       -0.04965266596    4.488404793e-06   -4.108992005e-05  
                  4.488404793e-06   -4.108992005e-05  1.002920226       -0.0514800566     
85008910          0.00190552954     0.159267381       3.189559543       5.532222088       
                  3.189559543       5.532222088       -0.09306095926    -0.1146762661     
170008820         0.1429520995      -0.04504927793    3.20232858        -5.228454139      
                  3.20232858        -5.228454139      -0.01991847946    0.172593638       
255008730         -0.1765916732     -0.07605213016    -6.066999418      -0.1812119815     
                  -6.066999418      -0.1812119815     0.0774152267      -0.02663533827    
340008640         -0.06338760821    0.1702478829      2.646213672       5.364778776       
                  2.646213672       5.364778776       -0.1265468751     -0.05383879448    
425008550         0.1602035863      -0.04626705776    3.403267707       -4.869109841      
                  3.403267707       -4.869109841      0.01714301033     0.103002422       
510008460         -0.1024272049     -0.1635582765     -5.913564617      -0.6548797543     
                  -5.913564617      -0.6548797543     0.06957580878     -0.07964577484    
595008370         -0.1074577866     0.1404344712      2.215693651       5.437929964       
                  2.215693651       5.437929964       -0.08399143822    -0.01197522994    
680008280         0.2050535673      0.03368157766     3.678155037       -4.578255957      
                  3.678155037       -4.578255957      0.09420344614     0.07566064162     
765008190         0.009574286334    -0.1641676592     -5.739297864      -1.117311651      
                  -5.739297864      -1.117311651      0.0610504675      -0.06051072343    
850008100         -0.1819886165     0.111669971       1.863620445       5.537006473       
                  1.863620445       5.537006473       -0.07163074133    0.06539559127     
935008010         0.1455086034      0.1239986749      3.963654935       -4.224964234      
                  3.963654935       -4.224964234      0.101954587       0.03917462528     
1020007920        0.07576523878     -0.1543203928     -5.596213545      -1.460877908      
                  -5.596213545      -1.460877908      -0.004369667431   -0.07498354224    
1105007830        -0.2256132139     -0.007819233296   1.472357677       5.626790652       
                  1.472357677       5.626790652       -0.06304291588    0.07561062328     
1190007740        0.07101107128     0.1406034956      4.208635186       -3.852505404      
                  4.208635186       -3.852505404      0.1231232575      -0.04239835226    
1275007650        0.1646631439      -0.1090998979     -5.471717461      -1.842182399      
                  -5.471717461      -1.842182399      -0.03003891656    -0.08807085821    
1360007560        -0.1642476189     -0.1015388321     1.028432782       5.650513648       
                  1.028432782       5.650513648       -0.00525277054    0.1009835216      
1445007470        0.0009993085283   0.14281034        4.419339308       -3.542832347      
                  4.419339308       -3.542832347      0.1480983559      -0.08811656883    
1530007380        0.1849121127      -0.01139593657    -5.306522319      -2.199300155      
                  -5.306522319      -2.199300155      -0.06889859957    -0.06392581406    
1615007290        -0.094515632      -0.1245139024     0.611405126       5.608787852       
                  0.611405126       5.608787852       0.02289432506     0.1421023538      
1700007200        -0.08946913025    0.09748689119     4.678299433       -3.239186855      
                  4.678299433       -3.239186855      0.1106508039      -0.133349891      
1785007110        0.1289228947      0.03195137378     -5.069671794      -2.540269367      
                  -5.069671794      -2.540269367      -0.1318347222     -0.06465061402    
1870007020        -0.0222306648     -0.1366424533     0.215789961       5.61648858        
                  0.215789961       5.61648858        0.06576464264     0.1323955169      
1955006930        -0.1074607366     0.02186270491     4.885707122       -2.885431009      
                  4.885707122       -2.885431009      0.08985090145     -0.1933463248     
2040006840        0.0828009771      0.04017487057     -4.827767614      -2.822770801      
                  -4.827767614      -2.822770801      -0.1539127819     -0.0415630131     
2125006750        0.03578922844     -0.09459037298    -0.2056708191     5.644188804       
                  -0.2056708191     5.644188804       0.1305839851      0.1380443021      
2210006660        -0.09340484021    -0.0007099579547  4.980699784       -2.532132247      
                  4.980699784       -2.532132247      0.04801758261     -0.2172182815     
2295006570        0.02954568134     0.03750370082     -4.598977807      -3.151534504      
                  -4.598977807      -3.151534504      -0.1866656593     0.01578688013     
2380006480        0.02928074826     -0.05335020208    -0.5664610507     5.581155495       
                  -0.5664610507     5.581155495       0.1668764156      0.1135992853      
2465006390        -0.08862212029    -0.01676590643    5.0634319         -2.208021754      
                  5.0634319         -2.208021754      -0.02057360507    -0.259160929      
2550006300        0.01127664724     0.002209926048    -4.291482996      -3.491077175      
                  -4.291482996      -3.491077175      -0.1911915362     0.06041931972     
2635006210        0.02689011932     -0.04500237171    -0.9053917398     5.521693278       
                  -0.9053917398     5.521693278       0.2132970053      0.06457224171     
2720006120        -0.08314102529    -0.01179976844    5.139809195       -1.837263644      
                  5.139809195       -1.837263644      -0.09061504002    -0.2652511555     
2805006030        0.01716287093     0.000158652479    -4.003446893      -3.742838917      
                  -4.003446893      -3.742838917      -0.1634322463     0.1220775891      
2890005940        0.02196576461     -0.03661133253    -1.242932733      5.400767669       
                  -1.242932733      5.400767669       0.2318019093      0.008992779661    
2975005850        -0.09548147962    -0.009612230634   5.17129635        -1.379504315      
                  5.17129635        -1.379504315      -0.1619881404     -0.247740947      
3060005760        0.01797731525     0.009984514961    -3.708303433      -4.087211886      
                  -3.708303433      -4.087211886      -0.118460348      0.16795761        
3145005670        0.03615525658     -0.04449966173    -1.641356496      5.246557208       
                  -1.641356496      5.246557208       0.231001545       -0.07089073185    
3230005580        -0.1019540193     -0.03378942538    5.279200381       -0.9814350563     
                  5.279200381       -0.9814350563     -0.2264597921     -0.2077524108     
3315005490        0.01072878055     0.03200394282     -3.433464149      -4.310983091      
                  -3.433464149      -4.310983091      -0.04542962901    0.2029084796      
3400005400        0.06183384861     -0.0286428134     -1.999165922      5.078452243       
                  -1.999165922      5.078452243       0.2007365506      -0.1438358066     
3485005310        -0.09758114641    -0.06408136563    5.379588944       -0.6133921712     
                  5.379588944       -0.6133921712     -0.281688183      -0.128459902      
3570005220        -0.02080073521    0.04978561267     -3.250465015      -4.506927587      
                  -3.250465015      -4.506927587      0.03330122302     0.2096099424      
3655005130        0.0693667553      0.004097920067    -2.19777461       4.949912426       
                  -2.19777461       4.949912426       0.1352591304      -0.2082396546     
3740005040        -0.07761789059    -0.09212193679    5.370764189       -0.2588212506     
                  5.370764189       -0.2588212506     -0.3106858046     -0.04041698593    
3825004950        -0.05998515252    0.03577251503     -2.979545316      -4.641294485      
                  -2.979545316      -4.641294485      0.11298165        0.1767209514      
3910004860        0.06367438793     0.03939635935     -2.617750769      4.729637463       
                  -2.617750769      4.729637463       0.04979535568     -0.2585556384     
3995004770        -0.03043166042    -0.1100315722     5.404307028       0.06838447177     
                  5.404307028       0.06838447177     -0.305748225      0.06554574822     
4080004680        -0.08467725094    0.007938961234    -2.706341077      -4.810442446      
                  -2.706341077      -4.810442446      0.1912251754      0.1282135765      
4165004590        0.03910451623     0.06953852871     -2.877028418      4.592518747       
                  -2.877028418      4.592518747       -0.04788568104    -0.2698902503     
4250004500        0.0114140595      -0.08769319317    5.493186869       0.3132527162      
                  5.493186869       0.3132527162      -0.2671564855     0.1749533325      
4335004410        -0.1019897837     -0.020487382      -2.453284861      -4.920954045      
                  -2.453284861      -4.920954045      0.2290242752      0.04558852026     
4420004320        -0.007351056955   0.08288342292     -3.083119294      4.479176664       
                  -3.083119294      4.479176664       -0.1649667673     -0.249959308      
4505004230        0.03846239688     -0.05624177287    5.447852996       0.4944167463      
                  5.447852996       0.4944167463      -0.1970384806     0.2594956326      
4590004140        -0.0990986864     -0.05209574122    -2.18383595       -4.963723509      
                  -2.18383595       -4.963723509      0.2295705596      -0.05775340879    
4675004050        -0.04585850536    0.07059033974     -3.184233669      4.361964976       
                  -3.184233669      4.361964976       -0.2547351857     -0.1908874742     
4760003960        0.05663269693     -0.01616456864    5.291905716       0.7308075014      
                  5.291905716       0.7308075014      -0.08578356336    0.3111704365      
4845003870        -0.07488057412    -0.06814320735    -1.937487577      -5.015026759      
                  -1.937487577      -5.015026759      0.2001934491      -0.1552435702     
4930003780        -0.07589168863    0.0396611927      -3.369500709      4.182586479       
                  -3.369500709      4.182586479       -0.3191225998     -0.09965500518    
5015003690        0.04985284618     0.03867392566     5.178424633       0.966214944       
                  5.178424633       0.966214944       0.03516940331     0.3344626502      
5100003600        -0.0513353454     -0.05583643241    -1.766764405      -5.090592621      
                  -1.766764405      -5.090592621      0.1192585618      -0.2298997762     
5185003510        -0.09042430618    0.003957279911    -3.426001641      3.96159886        
                  -3.426001641      3.96159886        -0.3493094639     0.01256136526     
5270003420        0.01355995093     0.07172104577     5.037943338       1.202739576       
                  5.037943338       1.202739576       0.1499239873      0.2997778344      
5355003330        -0.0413854906     -0.02170995316    -1.653233831      -5.150775738      
                  -1.653233831      -5.150775738      -0.003217058679   -0.2776975087     
5440003240        -0.07101621078    -0.03931799421    -3.367210412      3.793265408       
                  -3.367210412      3.793265408       -0.3190689725     0.1317915604      
5525003150        -0.01842486149    0.06001750262     5.02433037        1.31547745        
                  5.02433037        1.31547745        0.2683346625      0.201100872       
5610003060        -0.03884729165    0.02845300622     -1.601358308      -4.992985494      
                  -1.601358308      -4.992985494      -0.1379863587     -0.2682022192     
5695002970        -0.01278967995    -0.04379003687    -3.370259987      3.578065248       
                  -3.370259987      3.578065248       -0.2210177379     0.2522154965      
5780002880        -0.02525851004    0.02257184173     4.977880022       1.410407808       
                  4.977880022       1.410407808       0.3291702016      0.05675684708     
5865002790        -0.07753664832    0.0760981981      -1.495799974      -4.725510561      
                  -1.495799974      -4.725510561      -0.2716537452     -0.1860757093     
5950002700        0.03709201578     0.005516463084    -3.403562519      3.367973786       
                  -3.403562519      3.367973786       -0.08265858078    0.3324944757      
6035002610        -0.01791518253    -0.04075734479    4.761315732       1.30123985        
                  4.761315732       1.30123985        0.2989474844      -0.09693468223    
6120002520        -0.1450451046     0.07367430689     -1.383941604      -4.472186977      
                  -1.383941604      -4.472186977      -0.3582583796     -0.04554837754    
6205002430        0.07231473981     0.08863130123     -3.289765613      3.168862023       
                  -3.289765613      3.168862023       0.1022698103      0.3365419271      
6290002340        0.06050620115     -0.09270329296    4.542731888       1.15998034        
                  4.542731888       1.15998034        0.1956865456      -0.2489278241     
6375002250        -0.2167017577     0.008352205068    -1.2873925        -4.169964194      
                  -1.2873925        -4.169964194      -0.3765201574     0.1299996632      
6460002160        0.02883442254     0.2072089081      -3.025810054      2.957341324       
                  -3.025810054      2.957341324       0.2693734278      0.2718294667      
6545002070        0.1746836694      -0.05840523673    4.09793301        1.063990308       
                  4.09793301        1.063990308       0.02848229531     -0.317067171      
6630001980        -0.2068788731     -0.1101185672     -1.127031599      -3.833124665      
                  -1.127031599      -3.833124665      -0.2983488904     0.2996557277      
6715001890        -0.07214529773    0.2722993415      -2.706957139      2.627631761       
                  -2.706957139      2.627631761       0.3791811626      0.1534372067      
6800001800        0.2648298983      0.05077581973     3.621233007       1.09195426        
                  3.621233007       1.09195426        -0.131383718      -0.3074722784     
6885001710        -0.1040807301     -0.2413258243     -0.8560300756     -3.485967247      
                  -0.8560300756     -3.485967247      -0.183578529      0.3818149488      
6970001620        -0.2054246614     0.2325109389      -2.61892953       2.244112527       
                  -2.61892953       2.244112527       0.4210892513      0.02188484362     
7055001530        0.262176279       0.2055729883      3.219958208       1.240338119       
                  3.219958208       1.240338119       -0.2576937926     -0.2725217886     
7140001440        0.08085759698     -0.3003124398     -0.5266574721     -3.220395954      
                  -0.5266574721     -3.220395954      -0.06817863049    0.4476530631      
7225001350        -0.2933904766     0.09124676797     -2.560183921      1.876756594       
                  -2.560183921      1.876756594       0.4480673943      -0.104001491      
7310001260        0.173266331       0.3382254861      2.842288079       1.132373508       
                  2.842288079       1.132373508       -0.3515580686     -0.1859636852     
7395001170        0.2851795021      -0.2295445358     -0.2735676508     -2.950815117      
                  -0.2735676508     -2.950815117      0.08210462648     0.4774979921      
7480001080        -0.2978503921     -0.107370863      -2.4060366        1.633592919       
                  -2.4060366        1.633592919       0.3944179644      -0.2394186626     
7565000990        -0.03081736427    0.403987548       2.631226822       1.166015108       
                  2.631226822       1.166015108       -0.4268297844     -0.08243895816    
7650000900        0.4002491928      -0.05614088369    -0.05019190109    -2.617094068      
                  -0.05019190109    -2.617094068      0.2108788482      0.4400861837      
7735000810        -0.1610477129     -0.3076864163     -2.299030195      1.346332792       
                  -2.299030195      1.346332792       0.3177010329      -0.346380649      
7820000720        -0.2041398707     0.3173673479      2.27726697        1.236718459       
                  2.27726697        1.236718459       -0.4036495404     0.02420193778     
7905000630        0.4137069117      0.1384494165      0.09199518445     -2.302250094      
                  0.09199518445     -2.302250094      0.3258408656      0.3635052875      
7990000540        0.06524606693     -0.3905670122     -2.217953271      0.9307917126      
                  -2.217953271      0.9307917126      0.2213802353      -0.4074059752     
8075000450        -0.3498389573     0.1209963134      1.906667273       1.43480165        
                  1.906667273       1.43480165        -0.3871365181     0.1185086792      
8160000360        0.2962109755      0.3115099573      0.2506452125      -2.181155532      
                  0.2506452125      -2.181155532      0.3993659496      0.2798621652      
8245000270        0.2550407963      -0.3340827172     -2.023629084      0.6169022877      
                  -2.023629084      0.6169022877      0.1140935387      -0.4395124488     
8330000180        -0.3603810903     -0.1299533047     1.62128926        1.482148431       
                  1.62128926        1.482148431       -0.3406834152     0.1905007112      
8415000090        0.07713816441     0.390735957       0.3951859542      -1.983362712      
                  0.3951859542      -1.983362712      0.4366410974      0.1695238325      
8500000000        0.3847770263      -0.1817479402     -1.828604297      0.4335698819      
                  -1.828604297      0.4335698819      -0.001174942886   -0.4602353292     
