! RsaToolbox (C) 2013 Rohde & Schwarz America
! 
! Number of points: 101
! Number of ports: 2
! Balanced ports?: 0
! 
! 
# Hz S RI R 50
9000              0.9716013021      -0.005299110001   7.310697613e-05   -1.455772953e-05  
                  7.310697613e-05   -1.455772953e-05  0.987104689       -0.01419827953    
85008910          -0.1152351988     -0.1550832443     1.617831079       2.525900592       
                  1.617831079       2.525900592       -0.0923835059     -0.1175771239     
170008820         -0.05752235953    0.1493765666      1.542875964       -2.909545117      
                  1.542875964       -2.909545117      -0.02147346507    0.1720325952      
255008730         0.08319751692     0.01858126021     -3.239666292      0.2264451757      
                  -3.239666292      0.2264451757      0.07811028294     -0.02684120107    
340008640         -0.06608445792    -0.08301766711    1.780402948       2.800261036       
                  1.780402948       2.800261036       -0.1274032945     -0.05475519414    
425008550         -0.07368214074    0.05492356563     1.501801079       -2.876573001      
                  1.501801079       -2.876573001      0.01612068238     0.1031363897      
510008460         0.07509741168     0.01009864954     -3.277923934      0.07090547315     
                  -3.277923934      0.07090547315     0.07117032418     -0.08031979149    
595008370         0.004704541796    -0.08468023761    1.721587896       2.921570161       
                  1.721587896       2.921570161       -0.08459112982    -0.01254345314    
680008280         -0.04000731165    0.04586586435     1.62265715        -2.826470954      
                  1.62265715        -2.826470954      0.09223757553     0.07605818371     
765008190         0.05842955589     0.09746813561     -3.391060814      -0.002674295387   
                  -3.391060814      -0.002674295387   0.06056739649     -0.06121162891    
850008100         -0.005354213393   -0.05815499553    1.563845812       2.896356557       
                  1.563845812       2.896356557       -0.07253277571    0.06501063604     
935008010         -0.06992734868    -0.01317364253    1.736181837       -2.884295549      
                  1.736181837       -2.884295549      0.1025093715      0.03899446081     
1020007920        -0.009536075193   0.1133677208      -3.373747303      -0.04000259755    
                  -3.373747303      -0.04000259755    -0.005155851901   -0.07678362542    
1105007830        0.001904396755    -0.07737168731    1.46025288        2.898211056       
                  1.46025288        2.898211056       -0.06397021935    0.07544215144     
1190007740        -0.03706366833    -0.1507201838     1.783379211       -2.867716448      
                  1.783379211       -2.867716448      0.1246154592      -0.04233037532    
1275007650        -0.001295196653   0.09098480896     -3.339463872      -0.2559592946     
                  -3.339463872      -0.2559592946     -0.03073078701    -0.08966075911    
1360007560        0.08445343324     -0.01272153837    1.416169557       3.002603935       
                  1.416169557       3.002603935       -0.006152280307   0.1025829394      
1445007470        0.04553301929     -0.1788255961     1.860242754       -2.820428365      
                  1.860242754       -2.820428365      0.1477755284      -0.08843622543    
1530007380        -0.0797143472     0.08451818038     -3.198321901      -0.281500304      
                  -3.198321901      -0.281500304      -0.070240432      -0.06519541737    
1615007290        0.1011578033      0.1426861764      1.416855914       2.892900049       
                  1.416855914       2.892900049       0.02267631916     0.1430338133      
1700007200        0.09314219356     -0.1774025789     1.745594752       -2.657395244      
                  1.745594752       -2.657395244      0.1113736624      -0.1340923065     
1785007110        -0.2053127844     -0.05243766168    -3.177039494      -0.2534749693     
                  -3.177039494      -0.2534749693     -0.1332667037     -0.06466092939    
1870007020        0.01452073783     0.2114649664      1.365216829       2.937379655       
                  1.365216829       2.937379655       0.0652700766      0.1330114858      
1955006930        0.2000615163      -0.1370330634     1.787109074       -2.61756668       
                  1.787109074       -2.61756668       0.08969123964     -0.1949507003     
2040006840        -0.1887461929     -0.219137065      -3.178448285      -0.3284854882     
                  -3.178448285      -0.3284854882     -0.1562181376     -0.04197363891    
2125006750        -0.1036502837     0.2442138168      1.301080743       2.87257905        
                  1.301080743       2.87257905        0.1312759509      0.1376113358      
2210006660        0.2946471193      -0.001815570274   1.783774275       -2.46979559       
                  1.783774275       -2.46979559       0.04822289578     -0.2195199514     
2295006570        -0.101041105      -0.3288208667     -3.018543883      -0.3976970878     
                  -3.018543883      -0.3976970878     -0.1874130911     0.01503707247     
2380006480        -0.2567048238     0.1870011291      1.129605459       2.869817241       
                  1.129605459       2.869817241       0.1675604243      0.1141148457      
2465006390        0.2749992228      0.1653111863      1.807915238       -2.301126401      
                  1.807915238       -2.301126401      -0.01976960149    -0.2612613679     
2550006300        0.06197860428     -0.3774972062     -2.947428483      -0.6084968362     
                  -2.947428483      -0.6084968362     -0.1918945412     0.06096259773     
2635006210        -0.3389981818     0.04153077246     0.9130998273      2.84333377        
                  0.9130998273      2.84333377        0.214613432       0.0637496654      
2720006120        0.1599942584      0.3132376687      1.924404111       -2.122837379      
                  1.924404111       -2.122837379      -0.09087434844    -0.2664356319     
2805006030        0.227777229       -0.3183217543     -2.773160152      -0.7271453756     
                  -2.773160152      -0.7271453756     -0.1636658548     0.1231705734      
2890005940        -0.3497689507     -0.1282069315     0.7233483682      2.715814974       
                  0.7233483682      2.715814974       0.2337209565      0.00823134503     
2975005850        -0.02992297613    0.3866956321      2.044448208       -1.819128156      
                  2.044448208       -1.819128156      -0.1624084323     -0.249930535      
3060005760        0.3422093356      -0.1636163899     -2.68061057       -1.023707299      
                  -2.68061057       -1.023707299      -0.1191174961     0.1687294788      
3145005670        -0.2511142694     -0.2882506131     0.4148965065      2.765629711       
                  0.4148965065      2.765629711       0.2335321386      -0.0725108093     
3230005580        -0.2193419193     0.3230505722      2.299061692       -1.577514196      
                  2.299061692       -1.577514196      -0.2270977187     -0.2093919217     
3315005490        0.3772269306      0.01612429633     -2.482338239      -1.174425427      
                  -2.482338239      -1.174425427      -0.04554445227    0.2032501194      
3400005400        -0.09156272305    -0.3718137575     0.1257497212      2.722033573       
                  0.1257497212      2.722033573       0.2038149015      -0.1456064497     
3485005310        -0.355445723      0.1963200114      2.366745476       -1.337154364      
                  2.366745476       -1.337154364      -0.2820798568     -0.1308329863     
3570005220        0.3201176504      0.1921704004      -2.304605643      -1.31281641       
                  -2.304605643      -1.31281641       0.03448452118     0.2123312842      
3655005130        0.07276681107     -0.3716984296     -0.05598288206    2.594167853       
                  -0.05598288206    2.594167853       0.1370081055      -0.2084944276     
3740005040        -0.4122687714     0.02854348389     2.322656667       -1.104137859      
                  2.322656667       -1.104137859      -0.3115946676     -0.04012782555    
3825004950        0.1842120138      0.3142461781      -2.067718152      -1.427243918      
                  -2.067718152      -1.427243918      0.115109164       0.1794645999      
3910004860        0.2372112291      -0.294594289      -0.297797185      2.47798331        
                  -0.297797185      2.47798331        0.05397248718     -0.2584229914     
3995004770        -0.3861981608     -0.1505389158     2.285319702       -0.8763230604     
                  2.285319702       -0.8763230604     -0.3059164154     0.06630894258     
4080004680        0.005749211307    0.3635435771      -1.880674919      -1.573570121      
                  -1.880674919      -1.573570121      0.1947160538      0.128683683       
4165004590        0.3349981688      -0.1513793306     -0.5033873045     2.439496679       
                  -0.5033873045     2.439496679       -0.04660528769    -0.2765610239     
4250004500        -0.2883837119     -0.2783024801     2.336708315       -0.676428387      
                  2.336708315       -0.676428387      -0.2642066955     0.1773136053      
4335004410        -0.1769613506     0.3336939647      -1.706957294      -1.678378229      
                  -1.706957294      -1.678378229      0.2330410159      0.04435977224     
4420004320        0.3456046282      0.02055111535     -0.6947629629     2.370705289       
                  -0.6947629629     2.370705289       -0.1640207874     -0.2524650628     
4505004230        -0.1448700996     -0.3536573671     2.324036032       -0.5152911751     
                  2.324036032       -0.5152911751     -0.197243027      0.2604396214      
4590004140        -0.3126210257     0.2250802167      -1.522495774      -1.750180476      
                  -1.522495774      -1.750180476      0.2311303157      -0.0576357803     
4675004050        0.2898056608      0.1668141558      -0.8040300782     2.212745758       
                  -0.8040300782     2.212745758       -0.2564591102     -0.1924677619     
4760003960        0.022091583       -0.3618756725     2.24516473        -0.333961212      
                  2.24516473        -0.333961212      -0.08768738723    0.3124529364      
4845003870        -0.3748175106     0.07741402094     -1.343915306      -1.825156135      
                  -1.343915306      -1.825156135      0.201456128       -0.1551033355     
4930003780        0.1634605768      0.2760335293      -0.9762520534     2.088154901       
                  -0.9762520534     2.088154901       -0.3216699222     -0.1006716899     
5015003690        0.1671070013      -0.2889904715     2.191264561       -0.1425764571     
                  2.191264561       -0.1425764571     0.03566132702     0.3370392597      
5100003600        -0.3741838351     -0.06436522013    -1.176818437      -1.822406453      
                  -1.176818437      -1.822406453      0.1200270549      -0.2302580004     
5185003510        0.0141354908      0.3191197645      -1.09054536       1.911972358       
                  -1.09054536       1.911972358       -0.3520214427     0.0106480171      
5270003420        0.2584223468      -0.1586639875     2.178459541       0.07876239803     
                  2.178459541       0.07876239803     0.1489539089      0.3021379324      
5355003330        -0.3169323306     -0.1764642642     -1.043844564      -1.84420901       
                  -1.043844564      -1.84420901       -0.001606271155   -0.2811121314     
5440003240        -0.1117125968     0.2880822126      -1.169080785      1.813931729       
                  -1.169080785      1.813931729       -0.3220447738     0.1314120077      
5525003150        0.2843596973      -0.02701639848    2.160725763       0.195512508       
                  2.160725763       0.195512508       0.2693208434      0.2035265866      
5610003060        -0.2100929506     -0.2305787123     -0.970345846      -1.862043519      
                  -0.970345846      -1.862043519      -0.1357071873     -0.2699281425     
5695002970        -0.1872746864     0.2255905462      -1.221142832      1.685188678       
                  -1.221142832      1.685188678       -0.2234524583     0.2526705587      
5780002880        0.2658362622      0.0878788354      2.105726974       0.2991055408      
                  2.105726974       0.2991055408      0.3307337807      0.0605642067      
5865002790        -0.1153326221     -0.237213497      -0.828847603      -1.822395801      
                  -0.828847603      -1.822395801      -0.271013752      -0.1877263428     
5950002700        -0.2260630889     0.1640822196      -1.261920921      1.557765978       
                  -1.261920921      1.557765978       -0.08478629394    0.3346832777      
6035002610        0.2057897268      0.1513577461      1.988036239       0.3501074732      
                  1.988036239       0.3501074732      0.3014606235      -0.09440287545    
6120002520        -0.03580206631    -0.219136243      -0.7134341948     -1.802135018      
                  -0.7134341948     -1.802135018      -0.357677779      -0.04767881891    
6205002430        -0.2264207429     0.1104070568      -1.272339226      1.470723637       
                  -1.272339226      1.470723637       0.102311551       0.340495346       
6290002340        0.1708598533      0.1807591022      1.89701241        0.3825394304      
                  1.89701241        0.3825394304      0.1989836243      -0.2475169603     
6375002250        0.006304540471    -0.2088011901     -0.6187642854     -1.768296503      
                  -0.6187642854     -1.768296503      -0.3765676454     0.1274252995      
6460002160        -0.2391626647     0.09802252283     -1.25531817       1.388088922       
                  -1.25531817       1.388088922       0.2715560672      0.2743855472      
6545002070        0.1563199692      0.2256225756      1.783224025       0.404845255       
                  1.783224025       0.404845255       0.03121936042     -0.3211949486     
6630001980        0.07718451002     -0.2090976444     -0.520308383      -1.69211587       
                  -0.520308383      -1.69211587       -0.3004318669     0.3021786454      
6715001890        -0.263024625      0.06998971138     -1.201992765      1.24401637        
                  -1.201992765      1.24401637        0.3845624567      0.1583162066      
6800001800        0.1339361903      0.2905703703      1.635956554       0.4629115578      
                  1.635956554       0.4629115578      -0.1303994807     -0.3097786304     
6885001710        0.1780878437      -0.204446998      -0.3734928415     -1.607588208      
                  -0.3734928415     -1.607588208      -0.18994056       0.3890165138      
6970001620        -0.2910302795     -0.024122043      -1.238446747      1.072655176       
                  -1.238446747      1.072655176       0.4242715886      0.02584208529     
7055001530        0.06163683097     0.3548800116      1.542030422       0.5508522258      
                  1.542030422       0.5508522258      -0.2572904105     -0.2724569695     
7140001440        0.2909297734      -0.1573842748     -0.269513287      -1.59803283       
                  -0.269513287      -1.59803283       -0.06530393162    0.4551038401      
7225001350        -0.2653091273     -0.1530094579     -1.278756259      0.9532082129      
                  -1.278756259      0.9532082129      0.4535804894      -0.1017466494     
7310001260        -0.04811249772    0.3874375296      1.462555402       0.5651246886      
                  1.462555402       0.5651246886      -0.3596416836     -0.1861724309     
7395001170        0.3948637719      -0.02675027365    -0.1309215764     -1.515856654      
                  -0.1309215764     -1.515856654      0.07562419137     0.4831465071      
7480001080        -0.1654667039     -0.3044567799     -1.247163497      0.8170628171      
                  -1.247163497      0.8170628171      0.3956999888      -0.2365857666     
7565000990        -0.2383970233     0.3435039281      1.347459824       0.610190789       
                  1.347459824       0.610190789       -0.426822408      -0.08608653472    
7650000900        0.4151907169      0.1467817503      -0.03739754693    -1.413403282      
                  -0.03739754693    -1.413403282      0.2114570267      0.4405454313      
7735000810        0.01848378376     -0.3978706075     -1.277455524      0.7207698149      
                  -1.277455524      0.7207698149      0.3183523085      -0.3470661596     
7820000720        -0.3560580341     0.1936833483      1.256440853       0.7101390829      
                  1.256440853       0.7101390829      -0.4085865368     0.02339837534     
7905000630        0.3510649317      0.3036629453      0.05874628309     -1.32627232       
                  0.05874628309     -1.32627232       0.3237801966      0.3643633167      
7990000540        0.2426399346      -0.392621086      -1.279430651      0.4969197689      
                  -1.279430651      0.4969197689      0.2223932147      -0.4094279836     
8075000450        -0.4228602725     -0.04724058725    1.079444006       0.8703319065      
                  1.079444006       0.8703319065      -0.3906303609     0.1181277027      
8160000360        0.1768681334      0.4351718955      0.1725987024      -1.279571381      
                  0.1725987024      -1.279571381      0.4001265453      0.2808624128      
8245000270        0.3962531295      -0.2739383039     -1.239631406      0.3642058748      
                  -1.239631406      0.3642058748      0.1144480963      -0.4459345007     
8330000180        -0.3535549208     -0.2920231275     0.963155535       0.9216980243      
                  0.963155535       0.9216980243      -0.3442247252     0.1931270755      
8415000090        -0.06783861544    0.4428648057      0.2562694897      -1.211561817      
                  0.2562694897      -1.211561817      0.4375472176      0.1676133091      
8500000000        0.4737489785      -0.08369720551    -1.155371477      0.2814976455      
                  -1.155371477      0.2814976455      -0.003338132128   -0.4632470635     
