! RsaToolbox (C) 2013 Rohde & Schwarz America
! 
! Number of points: 101
! Number of ports: 2
! Balanced ports?: 0
! 
! 
# Hz S RI R 50
9000              1.018976303       -0.02467848227    8.720985839e-05   -6.717841851e-05  
                  8.720985839e-05   -6.717841851e-05  1.009342739       -0.02079852448    
85008910          0.002547460572    0.159504397       3.19317691        5.530262702       
                  3.19317691        5.530262702       -0.09258441306    -0.1154698825     
170008820         0.1424057809      -0.04415497281    3.19947035        -5.225454594      
                  3.19947035        -5.225454594      -0.02016902839    0.1703634561      
255008730         -0.1765843447     -0.0759431895     -6.067393535      -0.1722610582     
                  -6.067393535      -0.1722610582     0.0773023041      -0.0263669929     
340008640         -0.06338052678    0.1702962554      2.64891986        5.364332597       
                  2.64891986        5.364332597       -0.1268589869     -0.05342193842    
425008550         0.1597546669      -0.0466005706     3.401828379       -4.8693773        
                  3.401828379       -4.8693773        0.01720153636     0.1028163767      
510008460         -0.1015776947     -0.1638093951     -5.910096544      -0.6548278429     
                  -5.910096544      -0.6548278429     0.07118498279     -0.0795724684     
595008370         -0.1073113358     0.1401883566      2.225500188       5.435197516       
                  2.225500188       5.435197516       -0.08344048249    -0.01204869334    
680008280         0.204444917       0.03402591677     3.67479583        -4.575751405      
                  3.67479583        -4.575751405      0.09228762483     0.07507832601     
765008190         0.009424346297    -0.1642278155     -5.73692268       -1.111086087      
                  -5.73692268       -1.111086087      0.06043553027     -0.06067361577    
850008100         -0.182178126      0.1121054701      1.864660033       5.531889665       
                  1.864660033       5.531889665       -0.0719846203     0.06560866115     
935008010         0.1462662027      0.1236887717      3.95752159        -4.23249225       
                  3.95752159        -4.23249225       0.1015525537      0.03882818889     
1020007920        0.07536228511     -0.1548042828     -5.591512355      -1.456793949      
                  -5.591512355      -1.456793949      -0.004598526946   -0.07569803798    
1105007830        -0.2254893233     -0.008120114481   1.47181562        5.62641665        
                  1.47181562        5.62641665        -0.06298468264    0.07539382212     
1190007740        0.07197451294     0.1410470003      4.204128542       -3.862492527      
                  4.204128542       -3.862492527      0.1244096233      -0.04274950316    
1275007650        0.1638480798      -0.1091152121     -5.472745203      -1.8367588        
                  -5.472745203      -1.8367588        -0.0299786751     -0.08911192106    
1360007560        -0.1641166875     -0.1008557094     1.036250092       5.652532568       
                  1.036250092       5.652532568       -0.005959252518   0.1021518736      
1445007470        0.0007001474832   0.1426216554      4.418710226       -3.545435196      
                  4.418710226       -3.545435196      0.1474135821      -0.08864525142    
1530007380        0.1852562367      -0.01155440695    -5.311929325      -2.196767182      
                  -5.311929325      -2.196767182      -0.06902268752    -0.06483403393    
1615007290        -0.09457375486    -0.1247774524     0.6122528861      5.607175595       
                  0.6122528861      5.607175595       0.02344883757     0.1417908311      
1700007200        -0.08902536538    0.09806057633     4.677835828       -3.242331438      
                  4.677835828       -3.242331438      0.1107636219      -0.1334480955     
1785007110        0.1284685064      0.03199563155     -5.067149626      -2.535198999      
                  -5.067149626      -2.535198999      -0.1315503275     -0.06428563717    
1870007020        -0.022124976      -0.1367885921     0.2149659236      5.615147926       
                  0.2149659236      5.615147926       0.06581936191     0.1321062368      
1955006930        -0.1076269925     0.02186608947     4.884945639       -2.883181637      
                  4.884945639       -2.883181637      0.08935237605     -0.1938069315     
2040006840        0.08364387491     0.03941802824     -4.830065534      -2.824351567      
                  -4.830065534      -2.824351567      -0.1548592807     -0.04210921806    
2125006750        0.03688180406     -0.09365611405    -0.1972623857     5.641981824       
                  -0.1972623857     5.641981824       0.1312117605      0.136790568       
2210006660        -0.09338722182    -0.001254462536   4.982729234       -2.530133859      
                  4.982729234       -2.530133859      0.0477959979      -0.2181919988     
2295006570        0.02953747644     0.03721508527     -4.597125498      -3.155020637      
                  -4.597125498      -3.155020637      -0.1860626735     0.01533538498     
2380006480        0.03046411149     -0.05312657227    -0.5644479011     5.579532179       
                  -0.5644479011     5.579532179       0.1664694296      0.1135053041      
2465006390        -0.08863163035    -0.01720708095    5.061992553       -2.212452198      
                  5.061992553       -2.212452198      -0.02012747164    -0.259147538      
2550006300        0.01237461003     0.002125120829    -4.295079103      -3.49207483       
                  -4.295079103      -3.49207483       -0.190744144      0.06041850818     
2635006210        0.02657176769     -0.04487180252    -0.9031199762     5.522469777       
                  -0.9031199762     5.522469777       0.2130399511      0.06389315669     
2720006120        -0.08274435077    -0.01090900227    5.135816695       -1.841530205      
                  5.135816695       -1.841530205      -0.0909975726     -0.2638781537     
2805006030        0.01741817527     0.0009859815861   -4.006234643      -3.739504064      
                  -4.006234643      -3.739504064      -0.1634490349     0.1239640471      
2890005940        0.022521032       -0.03603979293    -1.246847306      5.398941994       
                  -1.246847306      5.398941994       0.2313047866      0.00828079293     
2975005850        -0.09494145136    -0.008359917647   5.169270742       -1.380998566      
                  5.169270742       -1.380998566      -0.1625055144     -0.247727615      
3060005760        0.01765162491     0.01015271604     -3.707310134      -4.084536767      
                  -3.707310134      -4.084536767      -0.1188710612     0.1687521289      
3145005670        0.03670955852     -0.04438163582    -1.640407683      5.24518502        
                  -1.640407683      5.24518502        0.2315808777      -0.07113211587    
3230005580        -0.1018805093     -0.03380184328    5.280299553       -0.9829181899     
                  5.280299553       -0.9829181899     -0.2266720674     -0.2076377731     
3315005490        0.01060491869     0.03223654762     -3.432090827      -4.311371471      
                  -3.432090827      -4.311371471      -0.0454156634     0.2021806693      
3400005400        0.06110759706     -0.02823204491    -2.000141136      5.080620955       
                  -2.000141136      5.080620955       0.2019617865      -0.1447560272     
3485005310        -0.0979622771     -0.06427660904    5.381396291       -0.6148320847     
                  5.381396291       -0.6148320847     -0.281862981      -0.1291100046     
3570005220        -0.02036218581    0.04900440261     -3.254099508      -4.502487572      
                  -3.254099508      -4.502487572      0.03452034153     0.2108300843      
3655005130        0.06888060913     0.003564742723    -2.19558968       4.947771053       
                  -2.19558968       4.947771053       0.1340582167      -0.2088352317     
3740005040        -0.0767777823     -0.09314998035    5.371867374       -0.2562388587     
                  5.371867374       -0.2562388587     -0.311896183      -0.03936351286    
3825004950        -0.05881709147    0.03715336177     -2.978941044      -4.639559465      
                  -2.978941044      -4.639559465      0.1130262074      0.1749542738      
3910004860        0.0638301165      0.03781142616     -2.616537133      4.728041738       
                  -2.616537133      4.728041738       0.05095496051     -0.2586632389     
3995004770        -0.03084744651    -0.1108876256     5.404357341       0.07016539866     
                  5.404357341       0.07016539866     -0.3053621431     0.06620093922     
4080004680        -0.08515773597    0.007828727563    -2.70795908       -4.81293112       
                  -2.70795908       -4.81293112       0.1901316864      0.128168606       
4165004590        0.03829849678     0.070314817       -2.877504169      4.591815546       
                  -2.877504169      4.591815546       -0.04624823589    -0.2717127785     
4250004500        0.01142911214     -0.08727285355    5.495113788       0.3091515502      
                  5.495113788       0.3091515502      -0.2653884751     0.1755017933      
4335004410        -0.1011798757     -0.01941229129    -2.453146126      -4.919245229      
                  -2.453146126      -4.919245229      0.2297620778      0.04467513083     
4420004320        -0.007534910371   0.08349469074     -3.081319081      4.479160044       
                  -3.081319081      4.479160044       -0.1638942229     -0.2508035308     
4505004230        0.03769672776     -0.05636006993    5.446402461       0.488982039       
                  5.446402461       0.488982039       -0.196076802      0.2590918931      
4590004140        -0.09976267049    -0.05225292019    -2.18694403       -4.958949819      
                  -2.18694403       -4.958949819      0.2294827497      -0.0580727661     
4675004050        -0.04514072641    0.06956685361     -3.179377775      4.36019377        
                  -3.179377775      4.36019377        -0.2554380087     -0.1910659457     
4760003960        0.05658954619     -0.01601878396    5.298242701       0.7278695361      
                  5.298242701       0.7278695361      -0.08694588225    0.3112238918      
4845003870        -0.07635924099    -0.06785225208    -1.937598079      -5.011918218      
                  -1.937598079      -5.011918218      0.2002061639      -0.1551593841     
4930003780        -0.07705813259    0.04031928397     -3.365802501      4.179501335       
                  -3.365802501      4.179501335       -0.3188805302     -0.09900068323    
5015003690        0.04982740427     0.03807819119     5.171304363       0.9686748035      
                  5.171304363       0.9686748035      0.03613151637     0.3339094318      
5100003600        -0.05193337618    -0.05559527353    -1.766176269      -5.084673829      
                  -1.766176269      -5.084673829      0.1192810444      -0.2289820105     
5185003510        -0.09112942083    0.003389447279    -3.42016921       3.957451543       
                  -3.42016921       3.957451543       -0.3493608683     0.01228866398     
5270003420        0.01439579349     0.07134528678     5.038487027       1.195230316       
                  5.038487027       1.195230316       0.1498919347      0.2995085344      
5355003330        -0.04208331561    -0.02188683713    -1.65473254       -5.144617895      
                  -1.65473254       -5.144617895      -0.00275982472    -0.279032912      
5440003240        -0.07058818108    -0.03999446435    -3.370213601      3.788791499       
                  -3.370213601      3.788791499       -0.3190123686     0.1311388404      
5525003150        -0.01899268496    0.06042917952     5.022845947       1.313766165       
                  5.022845947       1.313766165       0.2687502785      0.2011171438      
5610003060        -0.039232063      0.02843765291     -1.597416945      -4.987690732      
                  -1.597416945      -4.987690732      -0.1367262752     -0.2673317411     
5695002970        -0.01351313461    -0.04319014892    -3.366216964      3.574599803       
                  -3.366216964      3.574599803       -0.2215706003     0.2529190383      
5780002880        -0.0264182743     0.02265253601     4.97225796        1.409226706       
                  4.97225796        1.409226706       0.3287843507      0.0581760308      
5865002790        -0.07741375715    0.07642938586     -1.49841709       -4.724627776      
                  -1.49841709       -4.724627776      -0.2721168023     -0.1851130682     
5950002700        0.03718943001     0.005206110812    -3.399086015      3.366793311       
                  -3.399086015      3.366793311       -0.08283639662    0.3330022059      
6035002610        -0.01859949887    -0.03933774038    4.760396801       1.303474747       
                  4.760396801       1.303474747       0.298175703       -0.09870917947    
6120002520        -0.1459511448     0.07415777872     -1.381117299      -4.467246128      
                  -1.381117299      -4.467246128      -0.3585048535     -0.04551972884    
6205002430        0.07192858277     0.08888459838     -3.287360085      3.158956284       
                  -3.287360085      3.158956284       0.1015791663      0.33717539        
6290002340        0.06086773038     -0.09113941116    4.532885283       1.164315713       
                  4.532885283       1.164315713       0.194868396       -0.2479431435     
6375002250        -0.2158876275     0.008311208406    -1.280423977      -4.171737615      
                  -1.280423977      -4.171737615      -0.3756530441     0.1296747594      
6460002160        0.02983409697     0.2065929222      -3.03982132       2.960294636       
                  -3.03982132       2.960294636       0.270580946       0.27235879        
6545002070        0.1774471671      -0.06028110113    4.127713021       1.06772487        
                  4.127713021       1.06772487        0.02853928586     -0.3200260795     
6630001980        -0.2076039617     -0.1115456928     -1.136210111      -3.861359375      
                  -1.136210111      -3.861359375      -0.2986971631     0.302093819       
6715001890        -0.07215377168    0.2757986076      -2.735809512      2.640862494       
                  -2.735809512      2.640862494       0.3844467265      0.1557238034      
6800001800        0.26627797        0.05482721927     3.638425267       1.124248613       
                  3.638425267       1.124248613       -0.1312228273     -0.3091910038     
6885001710        -0.1032717093     -0.2410600745     -0.8214065312     -3.510965315      
                  -0.8214065312     -3.510965315      -0.1880083366     0.3880752829      
6970001620        -0.2104007329     0.2344021507      -2.646910634      2.232430641       
                  -2.646910634      2.232430641       0.4228750616      0.02317520861     
7055001530        0.2638217137      0.2074319983      3.229292613       1.243803402       
                  3.229292613       1.243803402       -0.2574669009     -0.2709797453     
7140001440        0.08218538118     -0.3001392112     -0.5431040457     -3.234871133      
                  -0.5431040457     -3.234871133      -0.06393937199    0.453973251       
7225001350        -0.2967780804     0.0963082372      -2.582683126      1.902442154       
                  -2.582683126      1.902442154       0.4523229081      -0.1035266333     
7310001260        0.1702044463      0.3474827642      2.867933842       1.16181539        
                  2.867933842       1.16181539        -0.3592047453     -0.1846791191     
7395001170        0.2858954475      -0.2277753188     -0.2481811225     -2.970996713      
                  -0.2481811225     -2.970996713      0.07774970713     0.482048075       
7480001080        -0.299453939      -0.1102387372     -2.418078622      1.615577866       
                  -2.418078622      1.615577866       0.3941327496      -0.2378711776     
7565000990        -0.03147823705    0.4003424264      2.620751466       1.164862474       
                  2.620751466       1.164862474       -0.4249610619     -0.08413634809    
7650000900        0.4008981187      -0.05693695846    -0.05622695784    -2.613195066      
                  -0.05622695784    -2.613195066      0.2139224146      0.4377648833      
7735000810        -0.1611878433     -0.3067785835     -2.298976728      1.348990978       
                  -2.298976728      1.348990978       0.3176034654      -0.3461921207     
7820000720        -0.2066722409     0.3180148688      2.28101101        1.241880889       
                  2.28101101        1.241880889       -0.4060080469     0.02551880365     
7905000630        0.4144226201      0.1387770835      0.09575109345     -2.30308786       
                  0.09575109345     -2.30308786       0.3251268876      0.3629196193      
7990000540        0.06650045502     -0.3903200957     -2.216079495      0.9278743268      
                  -2.216079495      0.9278743268      0.2212830898      -0.4074632178     
8075000450        -0.350748189      0.1198450913      1.910741071       1.434081292       
                  1.910741071       1.434081292       -0.3887501347     0.1178500979      
8160000360        0.2978915656      0.3125746426      0.2507391693      -2.192357106      
                  0.2507391693      -2.192357106      0.399388806       0.2798571022      
8245000270        0.2585839254      -0.3378330583     -2.040395507      0.6170027428      
                  -2.040395507      0.6170027428      0.1138649021      -0.4441472782     
8330000180        -0.366920728      -0.1321611373     1.640351544       1.500833379       
                  1.640351544       1.500833379       -0.3428496401     0.1940225994      
8415000090        0.07861020788     0.3933143705      0.3827040723      -1.99869831       
                  0.3827040723      -1.99869831       0.4358892137      0.1677151162      
8500000000        0.3834066411      -0.1866037639     -1.833130611      0.4479935195      
                  -1.833130611      0.4479935195      -0.004134164885   -0.4604168454     
