! RsaToolbox (C) 2015 Rohde & Schwarz America
! 
! Number of points: 81
! Number of ports: 2
! Balanced ports?: No
! 
! 
# Hz S RI R 50
1860000000        0.1070307344      0.4701917768      22.26371384       29.86955452       -2.594523903e-05  -0.002153521869   -0.2447800934     0.1823061109      
1940000000        0.2030014992      0.4452318251      25.3348484        22.60340691       -0.0001974319457  -0.002078770427   -0.2217599899     0.2333747447      
1980000000        0.2473676652      0.4294720292      26.0702858        19.03535271       -0.0005907243467  -0.001898717484   -0.1986751258     0.301885426       
2020000000        0.2987163663      0.4073004127      25.37229919       16.80510139       -0.0003353306965  -0.001931961509   -0.184742555      0.2992073596      
2060000000        0.3422071338      0.3806682229      25.8134079        14.35460854       -0.0005650898675  -0.001825104468   -0.1669378728     0.3558375835      
2100000000        0.3903760612      0.3478374183      25.35376167       12.95331097       -0.0003962377668  -0.001944431104   -0.1209949702     0.3468174338      
2140000000        0.4309850633      0.3044144213      25.67900658       11.72009945       -0.0005440721288  -0.001883014804   -0.08366513252    0.4179216325      
2180000000        0.4825858474      0.2705289125      25.8419342        9.963851929       -0.0005286860396  -0.002028708346   -0.02203581855    0.4015895128      
2220000000        0.5162134171      0.2088348269      26.94404221       9.251335144       -0.0004724212049  -0.002015258418   -0.003781348467   0.4371136427      
2260000000        0.5438725352      0.1509798169      28.66308975       6.831435204       -0.0007339894655  -0.002316093072   0.07913277298     0.4063097239      
2300000000        0.5776785016      0.08392886817     29.04214287       6.498025417       -0.0005728489487  -0.002231279621   0.1077957451      0.4219555855      
2340000000        0.5792284608      0.01117931306     30.97722054       2.213981152       -0.001078476198   -0.002655024175   0.1762920767      0.4062319994      
2380000000        0.5951892138      -0.06547033042    32.37306976       0.6962578297      -0.0008831139421  -0.002566654701   0.2095053494      0.3843177557      
2420000000        0.5718870163      -0.1385206729     33.46982956       -4.556739807      -0.001611363492   -0.002904002788   0.2642252147      0.3488743305      
2460000000        0.5632545948      -0.2130604386     33.35847473       -7.675322533      -0.001431544777   -0.002817365574   0.3037057519      0.3000788689      
2500000000        0.5214112997      -0.2792599797     31.86491966       -13.0393877       -0.002302702982   -0.002982875565   0.3238324523      0.2851100266      
2540000000        0.4917272329      -0.3410312831     32.11603928       -16.95559692      -0.002263587434   -0.003008631291   0.3486069143      0.2078826725      
2620000000        0.3863411546      -0.4421636462     26.67042351       -25.55262375      -0.003305213526   -0.00286798575    0.3793468773      0.09316264093     
2740000000        0.1885030568      -0.5455106497     17.17412186       -34.38338852      -0.004218490329   -0.001710992889   0.3328334689      0.01948516071     
2820000000        0.06372327358     -0.5517148376     6.296012402       -37.17254257      -0.004927477334   -0.0009219040512  0.3178602159      -0.05512395129    
3020000000        -0.2200803012     -0.4587128162     -16.19651604      -33.11965179      -0.005926313344   0.001637813286    0.1892288178      -0.1296850443     
3100000000        -0.3072840869     -0.3843719363     -22.91057777      -27.90690613      -0.005575853866   0.002753894078    0.1654955149      -0.133684963      
3180000000        -0.36481148       -0.3043398857     -28.58577919      -20.946558        -0.005017168354   0.003882755293    0.1226859242      -0.146493718      
3220000000        -0.3773807883     -0.269026041      -30.26732063      -15.63428783      -0.005555485841   0.004087178037    0.07590742409     -0.1553887576     
3260000000        -0.3979941607     -0.2188898176     -31.63187218      -12.86515713      -0.004555648658   0.004814218264    0.1154983118      -0.1516632587     
3300000000        -0.4136459827     -0.1728286445     -33.24296188      -9.040582657      -0.004891066812   0.00531742163     0.0458422862      -0.1110600159     
3340000000        -0.4140397608     -0.1389058083     -31.70848846      -5.014834404      -0.00383287156    0.00566209713     0.07046532631     -0.1526192725     
3380000000        -0.4209266901     -0.08363872021    -33.23087311      -2.403939724      -0.003881141311   0.006428670138    0.02062681504     -0.1061566547     
3420000000        -0.4204044044     -0.04569419473    -32.83697128      1.564124346       -0.003028062172   0.006158877164    0.06698681414     -0.1510802209     
3460000000        -0.4121444523     -0.00757779507    -31.24169159      5.585693359       -0.002800215036   0.007348182611    0.02885030769     -0.06548289955    
3500000000        -0.4145957232     0.02645570971     -30.32062912      9.102911949       -0.001983368769   0.006764288526    0.01775838435     -0.1247593984     
3540000000        -0.3963572681     0.07529165596     -29.40449142      11.37255955       -0.001569044543   0.007931337692    0.01213278249     -0.07537465543    
3580000000        -0.3898068964     0.09211118519     -26.66714859      14.73124409       -0.0008578990819  0.007280600723    0.01925186813     -0.1302107275     
3620000000        -0.3712958694     0.1409197003      -25.20550346      16.89082718       -0.0001899116614  0.008251911961    0.04105434194     -0.0479885973     
3660000000        -0.3510109484     0.1594999284      -22.28710938      19.8532753        0.0003074857523   0.007530986797    -0.004695152398   -0.08730494231    
3700000000        -0.3361725807     0.1979226619      -20.077034        21.84374046       0.00109931943     0.008306161501    0.02198985964     -0.06074717268    
3740000000        -0.3019135296     0.2201429754      -17.0545826       23.35390091       0.001603044104    0.007873068564    0.002028159797    -0.09163042158    
3780000000        -0.2893121839     0.2467186749      -14.25928688      24.6190567        0.002604888519    0.008033228107    0.04792512208     -0.05822782218    
3820000000        -0.2530480921     0.2709217966      -11.77049255      25.58910561       0.002917544218    0.007810331881    0.004812718835    -0.041269131      
3860000000        -0.2403090447     0.2873927057      -8.468911171      26.1572113        0.003886071965    0.007581376936    0.01653766632     -0.06452234834    
3900000000        -0.1981743723     0.3067846894      -5.760036945      26.49923706       0.004386846907    0.007630078122    0.01814496145     -0.05399939418    
3940000000        -0.1844278872     0.3163511455      -2.263675213      26.4178791        0.005159621593    0.006845171098    0.03310981765     -0.0733371973     
3980000000        -0.1400212049     0.3373578191      0.1574139297      26.5505352        0.00572514534     0.007073043846    0.03914053738     -0.0227994509     
4020000000        -0.1213757023     0.3357704878      3.225823641       25.47027779       0.00635988079     0.005995847285    -0.0003755611833  -0.06958395243    
4060000000        -0.08323664963    0.3504673839      5.350944519       24.80200958       0.006961588282    0.006153848954    0.05127751455     -0.04942686111    
4100000000        -0.05842460319    0.3473021686      7.784171581       23.80189323       0.007208863273    0.005185479298    0.02764283121     -0.07142914087    
4140000000        -0.02251381613    0.3603839576      9.761381149       22.49843025       0.00824919343     0.005195077974    0.07483359426     -0.0317125991     
4180000000        0.002624758054    0.3412468135      11.82720089       21.30042648       0.008232945576    0.004122879356    -0.0002803181414  -0.05690403655    
4220000000        0.02218688093     0.3626973331      13.73716259       19.12279701       0.00937514659     0.003721080488    0.06252136081     -0.07447434962    
4260000000        0.07280139625     0.3361796141      15.45453644       17.71544266       0.008803307079    0.00297108246     0.02866983227     -0.071812585      
4300000000        0.08224981278     0.3353676796      17.0790062        15.46864033       0.01005017757     0.002385156928    0.08054002374     -0.07103960216    
4340000000        0.1207448691      0.3306978047      18.32491493       13.45316315       0.00948757492     0.001506111352    0.02299576253     -0.05217144266    
4380000000        0.1432710141      0.3220858276      19.55541229       11.41242313       0.01059958711     0.0006452008383   0.05358195305     -0.1036819369     
4420000000        0.1759836078      0.2952582836      20.22015572       8.853359222       0.009971547872    -1.264130697e-05  0.04384439811     -0.07835792005    
4460000000        0.1821767092      0.2918573618      20.73522568       6.660187244       0.01067523099     -0.001054107212   0.0586415194      -0.09899735451    
4500000000        0.2281639427      0.2757049203      20.84333038       4.319890022       0.01028874982     -0.001681119436   0.04296507686     -0.06577307731    
4540000000        0.2308067828      0.2473825663      20.9189949        2.567559242       0.01038403809     -0.002733310452   0.02149835229     -0.1124282479     
4580000000        0.2614775002      0.2399154454      20.94592285       0.6260774136      0.01056274772     -0.003312959103   0.05715405196     -0.1056021303     
4620000000        0.2685211003      0.2083440572      20.39816856       -1.45268786       0.009810949676    -0.004643173888   0.02534632944     -0.1157033071     
4660000000        0.2984492481      0.1982582808      20.04598236       -3.618316412      0.01034861058     -0.005027449224   0.05485689268     -0.1108965725     
4700000000        0.304192394       0.1579664201      19.07305527       -5.629725933      0.009088085033    -0.006478766911   -0.0004353863187  -0.121169962      
4740000000        0.3186994195      0.1500144899      18.27518845       -7.308984756      0.009595773183    -0.006676517893   0.05068945885     -0.1401554644     
4780000000        0.3318506479      0.1079196483      17.15505219       -9.101919174      0.008293067105    -0.008050946519   0.009256046265    -0.1171755716     
4820000000        0.3417855501      0.09786564112     15.82314205       -10.56518269      0.008628406562    -0.008468494751   0.02808443829     -0.1401389092     
4860000000        0.3523469269      0.05305922031     14.52189255       -12.10861874      0.007170014083    -0.009498253465   -0.01386492234    -0.1226251349     
4900000000        0.3479117155      0.0428500399      12.89546967       -13.24894142      0.007100261748    -0.01011243556    0.002967551351    -0.1627195328     
4940000000        0.3628171682      0.001355417073    11.43263721       -14.37133408      0.005925987381    -0.01070975326    -0.006183417514   -0.1273132861     
4980000000        0.352444768       -0.02143258788    9.789404869       -15.14838219      0.005310272798    -0.01162453182    -0.02687457204    -0.1536403149     
5020000000        0.361921519       -0.05482148752    8.134031296       -15.87110233      0.004386617336    -0.01168902311    -0.02374126017    -0.1408293545     
5060000000        0.3452265859      -0.07759577036    6.40195179        -16.33336639      0.003203418572    -0.0127788661     -0.04779327288    -0.1611357033     
5100000000        0.3541037738      -0.1128831282     4.675729275       -16.72959518      0.00264760619     -0.01247910038    -0.02750852332    -0.1459598988     
5140000000        0.3250344992      -0.1407813132     2.709778547       -16.88749504      0.0008914152859   -0.01358910184    -0.08211436868    -0.1432919651     
5180000000        0.3346554935      -0.1645845175     1.186063647       -16.83456421      0.0004224417498   -0.01301703416    -0.06289801747    -0.1616882086     
5220000000        0.3071323335      -0.197892189      -0.5696984529     -16.80071259      -0.001146200579   -0.01387471706    -0.08342827111    -0.1455243081     
5260000000        0.3017630875      -0.2174398005     -2.211565733      -16.45581245      -0.001734491205   -0.01348335482    -0.07606426626    -0.1515979171     
5300000000        0.2723091543      -0.2487922311     -3.943347454      -15.98009682      -0.003275140189   -0.01355278213    -0.1132337153     -0.1162076741     
5340000000        0.2661240399      -0.2614388168     -5.424170971      -15.1701746       -0.004118155688   -0.01375853457    -0.1331596822     -0.1602857113     
5380000000        0.2331451476      -0.3006182611     -7.017002583      -14.48908234      -0.005609026644   -0.01298319362    -0.1112181619     -0.1218307093     
5420000000        0.2119237781      -0.2990929484     -8.244516373      -13.38160133      -0.006698923651   -0.01352435071    -0.1342795938     -0.1174517721     
5460000000        0.1893828064      -0.3318930566     -9.614041328      -12.43097973      -0.007836380042   -0.01203848515    -0.1366277635     -0.06563583761    
5500000000        0.1621827632      -0.3401689827     -10.7094698       -11.09034824      -0.009069097228   -0.01292151865    -0.2009171844     -0.09651784599    
