! RsaToolbox (C) 2015 Rohde & Schwarz America
! 
! Number of points: 65
! Number of ports: 2
! Balanced ports?: No
! 
! 
# Hz S RI R 50
1940000000        0.2020733505      0.465010494       23.41701126       22.17557716       -0.0002136596013  -0.002088162117   -0.2214926481     0.2330532223      
1980000000        0.2461014539      0.4491010904      24.38473129       18.32433701       -0.0005904678837  -0.001882776851   -0.1975522786     0.3006908596      
2020000000        0.3013466597      0.4284570813      23.84893227       16.78836632       -0.0003304108104  -0.001943398849   -0.1844495088     0.2992994189      
2060000000        0.3458862305      0.4004843831      24.51593971       13.76207066       -0.0005607457715  -0.001831264002   -0.166433692      0.35497576        
2100000000        0.3971271813      0.3653203547      24.30125427       13.1618042        -0.0004049951385  -0.001955005573   -0.12030904       0.3461545706      
2140000000        0.4392727613      0.3175062835      24.95643806       11.74128819       -0.0005451531615  -0.001867014333   -0.08383206278    0.4176939428      
2180000000        0.4941218197      0.2889998853      24.67143631       9.892041206       -0.0005359729403  -0.002029437572   -0.02169217914    0.4015371501      
2220000000        0.5257003903      0.2200223804      26.0890522        9.354217529       -0.0004697656841  -0.002025356051   -0.003224208951   0.4360088706      
2260000000        0.5537349582      0.1604060084      27.60764885       6.290725708       -0.0007328091888  -0.00230982597    0.07904823124     0.4062125087      
2300000000        0.5920566916      0.09286010265     28.11004448       6.696730137       -0.0005837207427  -0.002223172924   0.1081197709      0.4214216173      
2340000000        0.5868197083      0.01737631299     29.34362411       0.9524867535      -0.001076273853   -0.002651298884   0.1770775467      0.4071290791      
2380000000        0.6021479368      -0.06008695066    30.86660004       0.2809755802      -0.0008890900062  -0.002559474902   0.2094044834      0.3843456805      
2420000000        0.5743026733      -0.1333699077     31.33639908       -5.494588375      -0.001625027973   -0.002890742384   0.2645920813      0.3490619361      
3380000000        -0.4126864374     -0.08864489198    -31.42008972      -1.683934927      -0.003900263458   0.006418627221    0.02166497521     -0.1063081175     
3420000000        -0.4183782041     -0.05177921802    -31.27393913      1.969418883       -0.003046526341   0.006164474878    0.06692395359     -0.150435254      
3500000000        -0.4142076671     0.01877151802     -28.66860771      9.086569786       -0.001979848836   0.006772780791    0.01685511507     -0.1223544702     
3540000000        -0.3903614581     0.067019023       -28.07475281      11.02629852       -0.001576176961   0.007913658395    0.01217033528     -0.07716926932    
3620000000        -0.3699144125     0.1302988678      -24.15620613      16.26098061       -0.0002086373861  0.008257004432    0.04066228494     -0.04932843149    
3660000000        -0.3574543595     0.1491952091      -20.86190033      19.21942711       0.0003095137654   0.007517800666    -0.0049779783     -0.0859990716     
3700000000        -0.3369835913     0.1913656145      -19.36997414      21.24001694       0.001089005498    0.008302564733    0.02118047886     -0.06061350182    
3740000000        -0.3083137572     0.2134947926      -16.2032032       22.70538521       0.001595106558    0.007873827592    0.002529942198    -0.09092596173    
3780000000        -0.2956033647     0.2417668104      -13.69287872      23.91563988       0.002603457542    0.008027908392    0.04753397033     -0.05857094377    
3820000000        -0.2581378222     0.2654799223      -11.53061867      25.0545845        0.002914997982    0.007806992158    0.005480714142    -0.04121071473    
3860000000        -0.2454613447     0.2847174406      -7.917708397      25.42731667       0.003874086309    0.007567486726    0.01652182452     -0.0637114048     
3900000000        -0.2028922737     0.3045436442      -5.588973045      26.08768082       0.004364176653    0.00763957575     0.01821923442     -0.05418273434    
3940000000        -0.1927289963     0.3163315356      -1.957270384      25.53399086       0.00516374968     0.006849905476    0.03328376263     -0.07216850668    
3980000000        -0.1432515383     0.3332014978      0.1728430688      26.01654243       0.005716125946    0.007073015906    0.03940457478     -0.02359386533    
4020000000        -0.1302140653     0.3362722993      3.354732752       24.80241585       0.006374212448    0.005989143625    0.0003446401097   -0.06974139065    
4060000000        -0.08831785619    0.3507523835      5.34907341        24.41721535       0.006960038096    0.006158764008    0.05078129098     -0.04981261864    
4100000000        -0.06247760355    0.346596092       7.7859478         23.34853363       0.007201605011    0.005185664166    0.02832849696     -0.07121277601    
4140000000        -0.02619935572    0.3591953218      9.660755157       22.00677299       0.008241773583    0.005184243433    0.07512789965     -0.03234194592    
4180000000        0.0004245759919   0.3412297368      11.76970577       20.9527626        0.008226816542    0.004126617219    2.415757626e-05   -0.05646680295    
4220000000        0.01810724847     0.3646524251      13.5387907        18.50626564       0.009361902252    0.003693690524    0.06243209168     -0.07403918356    
4260000000        0.07030110061     0.3363960683      15.29971313       17.49053764       0.00878978055     0.002971438458    0.02936509624     -0.07238461077    
4300000000        0.07839473337     0.3375744522      16.8685627        15.12656689       0.01003774535     0.002386201639    0.07978498191     -0.07117412984    
4340000000        0.1183086783      0.3312451243      18.07765579       13.1535759        0.009463619441    0.001507458743    0.02404692955     -0.05232753605    
4380000000        0.1420550495      0.3235328794      19.35335159       11.18481922       0.01059532911     0.0006449088105   0.0536557436      -0.1039248854     
4420000000        0.173095569       0.2974578142      19.97718239       8.730329514       0.009959452786    -8.701186744e-06  0.0438548997      -0.07899390906    
4460000000        0.1795057803      0.2935872078      20.42935753       6.488386154       0.01066945773     -0.001035156893   0.05882197618     -0.09852745384    
4500000000        0.2269123495      0.2790976465      20.60680962       4.224068165       0.01027776115     -0.00166863401    0.0430489555      -0.06598737836    
4540000000        0.2306229621      0.2501552105      20.75940895       2.50952673        0.01040146314     -0.002744502155   0.02112327516     -0.1128031835     
4580000000        0.261611551       0.2414640486      20.75589561       0.5479334593      0.01056954823     -0.003310630796   0.0570801869      -0.1049525067     
4620000000        0.2692123353      0.2101795822      20.24111176       -1.548767328      0.009795758873    -0.004635390826   0.02566780336     -0.1153798997     
4660000000        0.2977285981      0.2017522454      19.90686035       -3.579751015      0.01034253929     -0.00501281023    0.05365104973     -0.1111107022     
4700000000        0.3042251468      0.1601388305      18.88841057       -5.611878395      0.009079623036    -0.006479340605   -0.0001732539386  -0.1213451996     
4740000000        0.319519341       0.1525382698      18.09980392       -7.326351166      0.009597288445    -0.006672749761   0.04999306053     -0.139920488      
4780000000        0.3320654333      0.1089851111      17.0457859        -9.054118156      0.008263275959    -0.008037192747   0.009103246965    -0.1168595925     
4820000000        0.3436916173      0.099217996       15.60831451       -10.56141186      0.008630617522    -0.008459620178   0.02784145623     -0.1401372701     
4860000000        0.3531762362      0.05439144        14.41006279       -12.06937408      0.007158196531    -0.009506689385   -0.01435461454    -0.1230403334     
4900000000        0.3487486243      0.04359699041     12.72489166       -13.21965694      0.007084823214    -0.01010413095    0.00272186473     -0.1627141237     
4940000000        0.3641064167      0.002154753543    11.31561756       -14.32246971      0.00590718817     -0.01068734657    -0.006372882985   -0.1280848384     
4980000000        0.3528302908      -0.02173845656    9.625042915       -15.05599117      0.005294396542    -0.01160636544    -0.02683985792    -0.1533327997     
5020000000        0.3642000854      -0.05389074236    8.041414261       -15.82169151      0.004390383139    -0.01166904625    -0.02406086773    -0.1405898631     
5060000000        0.346154809       -0.07670719922    6.324976444       -16.25584984      0.003213307122    -0.01276598964    -0.04848092794    -0.1612192392     
5100000000        0.3575383723      -0.1118579209     4.57613802        -16.66378212      0.002652904019    -0.01248043962    -0.02841808274    -0.1456114203     
5140000000        0.3262137771      -0.1386708021     2.718116283       -16.80072784      0.0009066874627   -0.01360186096    -0.08214507997    -0.1428148597     
5180000000        0.3376969099      -0.1634455621     1.147387743       -16.74063873      0.0004353345721   -0.01301242039    -0.06248757616    -0.1609610021     
5220000000        0.309882462       -0.1974024922     -0.5701122284     -16.7619133       -0.001139373286   -0.01386414282    -0.083553873      -0.145199582      
5260000000        0.3033735454      -0.2180581838     -2.272027493      -16.31358719      -0.001716675819   -0.01347459387    -0.07583257556    -0.1513886303     
5300000000        0.2741913497      -0.2479185611     -3.945771456      -15.88234806      -0.003256399417   -0.01355970651    -0.1133954376     -0.1165078655     
5340000000        0.2685516477      -0.2609012425     -5.425283432      -15.11197186      -0.004139700439   -0.0137623027     -0.1335090846     -0.159785077      
5380000000        0.2348405719      -0.2997863591     -6.956639767      -14.38038731      -0.005606191233   -0.01298774872    -0.1117123812     -0.1219232753     
5420000000        0.2141327262      -0.3010366857     -8.269733429      -13.35608006      -0.006705534644   -0.01353687979    -0.1343582571     -0.1165649518     
5460000000        0.1901584864      -0.3327428997     -9.608148575      -12.33541584      -0.007827466354   -0.01203152724    -0.1366511285     -0.06537435949    
5500000000        0.1636973023      -0.3392433226     -10.60647202      -10.97876167      -0.00910408888    -0.01290166751    -0.2012705505     -0.09533252567    
