! RsaToolbox (C) 2015 Rohde & Schwarz America
! 
! Number of points: 35
! Number of ports: 2
! Balanced ports?: No
! 
! 
# Hz S RI R 50
3980000000        -0.1582775116     0.325843811       0.2881277204      24.25119019       0.005706494674    0.00706691388     0.03944577277     -0.02561994269    
4100000000        -0.08021566272    0.3523975611      7.723306656       21.43310165       0.007210641168    0.005151848774    0.02999371476     -0.06934405863    
4180000000        -0.0117303608     0.3463557661      11.52798653       19.59400558       0.008225365542    0.004104136489    0.0001977015054   -0.05638992041    
4260000000        0.0595427528      0.340723902       14.61080074       16.70822525       0.008767955005    0.002933372743    0.03001862764     -0.07438685       
4300000000        0.0692845434      0.3487433493      16.11432076       13.4742403        0.01004266553     0.002377151046    0.07640681416     -0.07116286457    
4340000000        0.1074909642      0.3405938745      17.1375618        12.07120037       0.009453487583    0.00146950339     0.02623249032     -0.05325858295    
4380000000        0.1345642805      0.3304698467      18.53282738       10.27419376       0.01056987699     0.0006432326045   0.05208090693     -0.1043430865     
4420000000        0.16476053        0.3055987656      19.07849693       8.160401344       0.009928806685    -1.246989996e-05  0.04350909591     -0.08075175434    
4460000000        0.1762097329      0.304361254       19.61582565       5.736556053       0.01067384612     -0.001037544571   0.05728658289     -0.09823454916    
4500000000        0.2197913527      0.2904851437      19.48283577       3.766291857       0.01024245657     -0.001673184801   0.043539837       -0.06799712777    
4540000000        0.2273728549      0.2583232224      20.04386902       2.227882385       0.01038649678     -0.002723426092   0.02023877576     -0.1132274941     
4580000000        0.2589765191      0.2507919967      19.90745354       0.2276421785      0.01055606548     -0.003312615212   0.05577685684     -0.1056145206     
4620000000        0.2688189447      0.2209600657      19.38633537       -1.760379076      0.009776214138    -0.004644261207   0.0254959967      -0.1154075935     
4660000000        0.297119081       0.2109561563      19.13496208       -3.678736448      0.0103262458      -0.004983679857   0.05212551728     -0.1111519262     
4700000000        0.3049705029      0.1696060449      18.23803329       -5.561312675      0.009072314948    -0.006479818374   -0.0001485520042  -0.1217505559     
4740000000        0.3222645819      0.1603882611      17.4190731        -7.336657524      0.009594026953    -0.006661507301   0.0480402112      -0.1397692412     
4780000000        0.3337973654      0.1171621233      16.52319145       -8.872576714      0.008272156119    -0.008038676344   0.00889378041     -0.1171644703     
4820000000        0.348562479       0.1083985269      14.70993614       -10.37564182      0.008620934561    -0.008436446078   0.02590715513     -0.1400894076     
4860000000        0.3551365435      0.05899814516     14.01014423       -11.87861156      0.007154423743    -0.009489225224   -0.01475495379    -0.1226470917     
4900000000        0.355912149       0.05141545832     12.06937504       -12.95876122      0.007096616086    -0.01009306964    0.00199192483     -0.161689207      
4940000000        0.3698656261      0.007082281634    10.92534733       -14.09187794      0.005906025879    -0.01067078952    -0.007232481614   -0.1280684769     
4980000000        0.3586242199      -0.01591351815    9.27425766        -14.81427479      0.005319555756    -0.01159845479    -0.02817283198    -0.152669996      
5020000000        0.3698038459      -0.04943727329    7.633159637       -15.41189575      0.004390093032    -0.0116470959     -0.02468253672    -0.1406825334     
5060000000        0.3504313827      -0.07389362156    6.06988287        -16.0127182       0.003230820643    -0.01274900232    -0.04924470931    -0.1604465097     
5100000000        0.3653294146      -0.1099612042     4.134115219       -16.10978127      0.002659149468    -0.01243917458    -0.02963075414    -0.1456676275     
5140000000        0.3312595487      -0.1373071671     2.567480803       -16.54240036      0.0009302351973   -0.01361062936    -0.08333372325    -0.141839847      
5180000000        0.3465017974      -0.165563643      0.8026316762      -16.33031845      0.0004603805719   -0.01302343607    -0.06371022761    -0.1588417441     
5220000000        0.3154604137      -0.1982621253     -0.7141718864     -16.4009285       -0.001121594454   -0.01386624202    -0.08386976272    -0.1442437768     
5260000000        0.3097531497      -0.2192222476     -2.407152176      -15.90781021      -0.001712197205   -0.01346743014    -0.07665480673    -0.1493413448     
5300000000        0.2806531787      -0.2499504238     -3.96493578       -15.51425171      -0.003267833963   -0.01355607621    -0.1131946817     -0.1163221896     
5340000000        0.2731688321      -0.2649014592     -5.540208817      -14.75927353      -0.004102594685   -0.01377979573    -0.1343983412     -0.1582697928     
5380000000        0.2401219606      -0.3042422831     -6.965771675      -13.99219704      -0.005600563716   -0.01297803409    -0.1120924205     -0.1217060313     
5420000000        0.2187945247      -0.3059999049     -8.315841675      -13.03960609      -0.006676728837   -0.01353950333    -0.1351469606     -0.1153412983     
5460000000        0.1941778511      -0.3376385272     -9.57734108       -11.98808384      -0.007821841165   -0.01203923952    -0.1367750466     -0.06424722821    
5500000000        0.167826131       -0.3464957774     -10.5936203       -10.6707716       -0.009077602997   -0.01292370073    -0.2012708336     -0.09429389238    
