! RsaToolbox (C) 2015 Rohde & Schwarz America
! 
! Number of points: 91
! Number of ports: 2
! Balanced ports?: No
! 
! 
# Hz S RI R 50
1820000000        0.05094053596     0.4827475548      21.15841866       32.92497253       -0.0001273716625  -0.002176932758   -0.2436505109     0.163951844       
1860000000        0.108442612       0.4618295729      23.18518829       30.36221123       -5.397647328e-05  -0.002144302009   -0.2446594536     0.182141915       
1900000000        0.1475524306      0.4624481797      25.05880356       24.02638817       -0.0003869090287  -0.001998987282   -0.2381294221     0.2212326676      
1940000000        0.2031954825      0.4371818304      26.09164047       22.7053318        -0.0002183517354  -0.002068545436   -0.2217319012     0.2334594131      
1980000000        0.2465613186      0.4192453027      26.56798553       19.12753105       -0.0005790194264  -0.001878166804   -0.1987430602     0.3022920191      
2020000000        0.2955812514      0.3975245059      25.8660202        16.77548027       -0.0003414549283  -0.00192381267    -0.1844265759     0.2989284396      
2060000000        0.339735657       0.371275574       26.1886673        14.43336105       -0.000549774908   -0.001823199331   -0.1671156734     0.3563548625      
2100000000        0.3870255351      0.3400954902      25.76186752       12.77980995       -0.00040367365    -0.001946705044   -0.1210143268     0.3464505374      
2140000000        0.429092139       0.3001274467      26.07291794       11.65740204       -0.0005394924665  -0.001886976999   -0.08382323384    0.4181239903      
2180000000        0.4772548079      0.2633173466      26.20300102       9.905166626       -0.0005096063251  -0.002011947567   -0.02218817547    0.4018479288      
2220000000        0.5123351812      0.2041358054      27.24505615       9.154309273       -0.0004686224565  -0.002031859942   -0.003433045      0.4367612302      
2260000000        0.5389040112      0.1444339752      28.98457336       6.804149628       -0.0007330875378  -0.002305706264   0.07902009785     0.4063077867      
2300000000        0.5749308467      0.07993472368     29.52989006       6.294959545       -0.0005821755622  -0.002235334599   0.1081891581      0.4219183624      
2340000000        0.5768143535      0.008848639205    31.57208061       2.748884916       -0.001073945896   -0.002658346901   0.1761347651      0.4063763916      
2380000000        0.5930964351      -0.06753982604    32.96574402       0.7696908712      -0.0008958681719  -0.002573454985   0.2089216262      0.3852345943      
2420000000        0.5704841614      -0.1400839984     34.24532318       -4.012571335      -0.00162574416    -0.002925562439   0.2640443444      0.3485575616      
2460000000        0.5601004958      -0.2158574462     34.09979248       -7.577369213      -0.001413803198   -0.002815711312   0.3038870096      0.3002488017      
2500000000        0.5232585669      -0.2880545855     33.34837341       -13.04631042      -0.002303613117   -0.002992904279   0.3237324059      0.2850715518      
2540000000        0.4901479483      -0.3484450281     33.19452286       -17.08568764      -0.002279586392   -0.003014830407   0.3490545452      0.2071103603      
2580000000        0.4303020835      -0.4036320448     29.00382042       -21.16619492      -0.00301489234    -0.002970036119   0.3543743193      0.2022622675      
2620000000        0.3866701722      -0.4457350671     27.97660065       -25.99801636      -0.00329584931    -0.002891036449   0.3803966343      0.09280718118     
2660000000        0.3090739548      -0.4955794811     24.35237312       -28.1811657       -0.003553448478   -0.002436078154   0.3506831229      0.1137688905      
2740000000        0.1857614964      -0.5483245254     17.89368057       -35.07606506      -0.004214707762   -0.001690599602   0.3322935402      0.02008679509     
2820000000        0.05936541408     -0.5555000305     6.990343094       -38.32385635      -0.004906573333   -0.0009214730235  0.3187651932      -0.05599455535    
2860000000        0.002434965689    -0.5401341319     0.7406274676      -37.4955864       -0.005602728575   -0.0009894390823  0.2775930762      -0.08044762909    
2900000000        -0.05504776537    -0.5327391028     -3.695438623      -37.452034        -0.005552842282   -0.0001721649023  0.2826575935      -0.1166734248     
2940000000        -0.1214994937     -0.5154517293     -7.975429058      -37.28539658      -0.005845800042   0.000404224149    0.2279959023      -0.1107066721     
2980000000        -0.1635918617     -0.4901047945     -12.45777798      -34.45400238      -0.005849730223   0.000698922202    0.2232425511      -0.140477255      
3020000000        -0.2265164852     -0.4558310509     -16.30836296      -34.22671509      -0.005901656114   0.001622487791    0.18833296        -0.1291995198     
3060000000        -0.2530309856     -0.4281031489     -19.90399933      -29.61945152      -0.005957609974   0.001854662783    0.170236975       -0.1702513695     
3100000000        -0.3088881373     -0.3829320073     -23.14587212      -28.89941978      -0.005606070161   0.002751033986    0.1656303555      -0.1326748729     
3140000000        -0.3246535063     -0.3536508381     -26.31305313      -23.76533699      -0.005945455283   0.003014981048    0.1157054752      -0.1595992297     
3180000000        -0.365363121      -0.3046781719     -28.96046448      -21.858181        -0.005059105344   0.003926042933    0.1235366985      -0.1459916532     
3220000000        -0.3807441592     -0.2637977302     -31.06962204      -16.58338547      -0.005576509051   0.004097705707    0.07559733838     -0.1551861763     
3260000000        -0.4027500153     -0.2162117809     -32.43445206      -13.40423489      -0.004551562481   0.00481500756     0.1165871993      -0.1534658074     
3300000000        -0.4143036902     -0.1693544835     -33.81087494      -9.62364769       -0.004864190705   0.005335386842    0.04449964687     -0.111671254      
3340000000        -0.4180673957     -0.1365449131     -32.74728775      -5.486201286      -0.003821344348   0.005677364301    0.07178213447     -0.1529669762     
3380000000        -0.4220197797     -0.08005462587    -33.70606995      -2.548461914      -0.003878998104   0.006438429467    0.02069498226     -0.1057616696     
3420000000        -0.4233221412     -0.04400333017    -33.50796127      1.331298828       -0.003020807635   0.006169640925    0.06763343513     -0.1518988311     
3460000000        -0.414624244      -0.004022160545   -31.93832016      5.546156883       -0.002778338268   0.007349316031    0.02792800218     -0.06420366466    
3500000000        -0.4173969328     0.02792943455     -31.00966072      9.117717743       -0.001966715558   0.006752114743    0.01854485087     -0.1256070137     
3540000000        -0.3965019882     0.07928789407     -29.7269268       11.48699474       -0.001560086035   0.007954356261    0.01199671533     -0.07496654987    
3580000000        -0.387411356      0.09447450936     -27.33045769      14.69124985       -0.0008654937847  0.007291000336    0.01956765726     -0.1312200427     
3620000000        -0.3714922071     0.1428943425      -25.5060463       16.95492554       -0.0001767997164  0.008253394626    0.04040670022     -0.0481678322     
3660000000        -0.3495823741     0.1613796949      -22.80087471      19.96842575       0.0003130554978   0.007519322447    -0.004792745691   -0.08811695129    
3700000000        -0.3348297477     0.2001862824      -20.26383018      21.92828178       0.00110658037     0.00828814134     0.0216735471      -0.06056053191    
3740000000        -0.2995098531     0.2230837643      -17.23831749      23.54489899       0.001591723412    0.007875439711    0.001767389011    -0.09187851846    
3780000000        -0.288361758      0.24753052        -14.50387955      24.69827271       0.002605624497    0.008005418815    0.04776137322     -0.05839361995    
3820000000        -0.2526054978     0.2724874914      -11.98119259      25.78059769       0.00290176901     0.007807297166    0.004635590129    -0.04150523245    
3860000000        -0.2373484075     0.2883205116      -8.644194603      26.36852264       0.003883511061    0.007587072439    0.01645428687     -0.06460428983    
3900000000        -0.1968767941     0.3088197112      -5.791422844      26.77251053       0.004364866763    0.007645965088    0.01824089512     -0.05442467704    
3940000000        -0.1822602153     0.3171837926      -2.412849426      26.70737267       0.005160374567    0.006845414639    0.0333788842      -0.07242604345    
3980000000        -0.1380907148     0.3366383612      0.1524142921      26.59589577       0.005725662224    0.007086635102    0.03908611834     -0.02242017165    
4020000000        -0.1219127923     0.3346538544      3.024298191       25.7714901        0.006371243857    0.006008563563    0.0002760412171   -0.06994590908    
4060000000        -0.08255445957    0.3504813612      5.35364151        24.99884224       0.006957106292    0.006162945181    0.05148249865     -0.04907759652    
4100000000        -0.05700514466    0.3470923603      7.744390488       24.00100517       0.007193967234    0.005203470122    0.02753402479     -0.07199258357    
4140000000        -0.01876324788    0.3591530025      9.842526436       22.53760147       0.008246879093    0.005207340233    0.07537642121     -0.03145669773    
4180000000        0.004380589351    0.3395193815      11.81544781       21.31871605       0.008225503378    0.004142369609    -3.971927799e-05  -0.05677504465    
4220000000        0.02366833389     0.3623118401      13.81965065       19.38203239       0.00936698541     0.003707716009    0.06298357248     -0.07482512295    
4260000000        0.07432036102     0.3351921439      15.51436043       17.74063492       0.008809620515    0.002977774944    0.02952127159     -0.0715322122     
4300000000        0.08260680735     0.3345240355      17.14499283       15.56370735       0.0100398669      0.002381213242    0.08128459752     -0.07149030268    
4340000000        0.1216052547      0.3283424675      18.39518166       13.46350288       0.009486748837    0.001536576543    0.02349857613     -0.05253942311    
4380000000        0.1446224898      0.320017904       19.62256432       11.35890484       0.010610356       0.0006352849305   0.05357914045     -0.1045826897     
4420000000        0.1754313558      0.2942601442      20.28796387       8.870604515       0.009970549494    -1.687605982e-05  0.0439360328      -0.07928748429    
4460000000        0.1808823347      0.292987138       20.76609802       6.810866356       0.01067896094     -0.001033979584   0.05879524723     -0.09935989976    
4500000000        0.2288786471      0.2764943242      21.00008011       4.420022964       0.0102953501      -0.001669273479   0.04237610474     -0.06544844806    
4540000000        0.2319006771      0.2466216981      20.97612572       2.58715868        0.0104143871      -0.002746620914   0.02119714394     -0.1128910929     
4580000000        0.2622384429      0.2393970639      21.04445457       0.6532744169      0.01057753433     -0.003316780087   0.05683581531     -0.1048779115     
4620000000        0.2706371546      0.2074856311      20.53024101       -1.51588273       0.009800255299    -0.004646907561   0.02548374981     -0.1151393577     
4660000000        0.2983030677      0.1987553239      20.12249756       -3.573282242      0.0103461463      -0.005052892026   0.0543531701      -0.1104544774     
4700000000        0.3046573699      0.1575959325      19.16535759       -5.650895119      0.009095502086    -0.006498252507   -0.0008798863273  -0.1208342835     
4740000000        0.3194833696      0.1493372917      18.32755661       -7.319087505      0.009608231485    -0.006715400144   0.05065612495     -0.1394217014     
4780000000        0.331448406       0.1073305458      17.24336243       -9.050333023      0.008267457597    -0.008058011532   0.009176436812    -0.1166783646     
4820000000        0.3423021138      0.09617906809     15.8905611        -10.57401466      0.00862160977     -0.008483919315   0.02893425524     -0.1398572028     
4860000000        0.3518297076      0.05190414935     14.56608772       -12.09564495      0.007164894603    -0.009532653727   -0.01399068441    -0.1223526374     
4900000000        0.3471701741      0.04130652174     12.94312191       -13.25903511      0.00707227597     -0.01010892726    0.003721218556    -0.1629096866     
4940000000        0.3637992442      -0.0001531271264  11.47077465       -14.45807266      0.005897312891    -0.01069351193    -0.005771233235   -0.127750203      
4980000000        0.351562351       -0.02025508322    9.881799698       -15.12281036      0.005291170441    -0.01161175221    -0.02632508427    -0.1536990851     
5020000000        0.3635528982      -0.05620319024    8.203748703       -15.96953487      0.0043628118      -0.01167215966    -0.02325806208    -0.1409113109     
5060000000        0.3456840515      -0.07714221627    6.481410503       -16.39047623      0.003187174443    -0.01276222803    -0.04802343994    -0.1620422155     
5100000000        0.353315562       -0.1139135808     4.684843063       -16.84765244      0.002634009114    -0.01245522406    -0.02769581415    -0.1465145051     
5140000000        0.323173821       -0.1398491561     2.719467878       -16.90472603      0.0008982771542   -0.0135949105     -0.08270729333    -0.1437381208     
5180000000        0.3355189562      -0.1656844914     1.209469795       -16.93634605      0.0004444086808   -0.01300742291    -0.06342565268    -0.1614376456     
5220000000        0.3056405783      -0.1979074925     -0.5701862574     -16.80300331      -0.001120966394   -0.01386191417    -0.08416216075    -0.1455544233     
5260000000        0.3012977242      -0.218932882      -2.251104832      -16.50758743      -0.001740082866   -0.01349424478    -0.07609305531    -0.1519903243     
5300000000        0.2715872228      -0.2468451411     -3.921481609      -15.97386169      -0.0032922721     -0.01356800646    -0.1136275381     -0.1162489727     
5340000000        0.2668816149      -0.2606444061     -5.408159256      -15.2303009       -0.004127074499   -0.01377779897    -0.1337762773     -0.1600942463     
5380000000        0.2336746603      -0.2975349724     -6.920225143      -14.54323292      -0.00560152065    -0.01298566069    -0.1115615293     -0.1222387552     
5420000000        0.2122487724      -0.2990905941     -8.292426109      -13.4475956       -0.006713393144   -0.01352565922    -0.1340572834     -0.1174953803     
5460000000        0.1895405203      -0.3316071332     -9.657310486      -12.47753716      -0.007835478522   -0.01202880312    -0.136896953      -0.0655470714     
5500000000        0.1633241475      -0.3373729885     -10.63931656      -11.10870552      -0.009107713588   -0.01290112454    -0.2015334368     -0.09639073163    
