! RsaToolbox (C) 2015 Rohde & Schwarz America
! 
! Number of points: 101
! Number of ports: 2
! Balanced ports?: No
! 
! 
# Hz S RI R 50
1500000000        -0.3874870241     0.3626545668      -27.43712044      52.03718567       0.001592209679    -0.00183674763    -0.2159189582     0.02721532248     
1540000000        -0.3353950679     0.3936232924      -17.3024044       53.13455582       0.001225353684    -0.001874595997   -0.2295998186     0.05671559647     
1580000000        -0.2614965141     0.4303569794      -10.99893951      55.13105011       0.001156204962    -0.002143068705   -0.2269415557     0.03401366621     
1620000000        -0.2074916661     0.4415115118      -1.395354748      53.82591629       0.000923216634    -0.002036952414   -0.2218625247     0.07572806627     
1660000000        -0.1399702877     0.4582641125      4.419127464       51.84486008       0.0006817443646   -0.002278939588   -0.2349586636     0.07096546888     
1700000000        -0.08360731602    0.4589795768      11.32581615       48.66983414       0.0005583278253   -0.002170557389   -0.2345384657     0.1016282216      
1740000000        -0.02870647982    0.4613850415      16.76323318       44.9459343        0.0002550365753   -0.002271354431   -0.2512312829     0.105105266       
1780000000        0.01906150207     0.4559501112      20.40987396       40.55771255       0.0002486370504   -0.002213858534   -0.2347794175     0.1340007037      
1820000000        0.06303018332     0.4495444298      24.04475403       36.08237457       -0.0001004229853  -0.00214332086    -0.245286122      0.1646043509      
1860000000        0.1136448234      0.4364201427      26.1506958        31.29540253       -2.641957326e-05  -0.002156091388   -0.2449346334     0.1830120087      
1900000000        0.1553399265      0.427537024       27.77609634       26.676651         -0.0003658072674  -0.001985024661   -0.2388617098     0.2222407907      
1940000000        0.2010564953      0.4095385373      28.1656456        22.69441414       -0.0002313572186  -0.0020683615     -0.2231745869     0.233636722       
1980000000        0.2440924495      0.3923200071      28.34225845       19.21246147       -0.0005524833687  -0.001875738846   -0.198698774      0.3030456901      
2020000000        0.2898846865      0.3747398853      27.71951294       16.57207108       -0.000337374775   -0.001927638776   -0.185266763      0.2993352413      
2060000000        0.3328054845      0.3493980765      27.64816856       14.4653635        -0.0005397068453  -0.001835813047   -0.1677054465     0.3562754989      
2100000000        0.3734926581      0.320750773       26.85025978       12.45569897       -0.0003978238965  -0.001940197311   -0.1214817464     0.346383065       
2140000000        0.4168274999      0.2833381295      27.09980583       11.28189182       -0.0005255035358  -0.001881052158   -0.08485324681    0.4180346727      
2180000000        0.4599353969      0.2450436503      27.47767639       9.52693367        -0.0005225026398  -0.002015956212   -0.02243632078    0.4023495615      
2220000000        0.4991081357      0.1948841214      28.19629288       8.846508026       -0.0004733407113  -0.00201687403    -0.004220616072   0.4377121031      
2260000000        0.5294356942      0.1391772032      30.0663662        7.043137074       -0.0007414948195  -0.002299981192   0.07820056379     0.4062228799      
2300000000        0.5575398207      0.07041717321     30.49887466       5.718838692       -0.0005829105503  -0.002248019446   0.1070144475      0.4222341776      
2340000000        0.5619566441      -4.856474698e-05  32.53414536       3.439384937       -0.001074025757   -0.002649832983   0.1758567989      0.406498313       
2380000000        0.5803954005      -0.07406835258    34.14875412       0.3469740152      -0.0008773044683  -0.002580847591   0.20848158        0.3855437934      
2420000000        0.5637577772      -0.1496287137     35.85420609       -3.362508059      -0.001594365109   -0.002897476777   0.2629867196      0.348426789       
2460000000        0.551908195       -0.2198947966     35.80379486       -7.718848228      -0.001411465928   -0.002816590015   0.3023297787      0.3008942306      
2500000000        0.5185649991      -0.2894793153     36.23958969       -11.65145493      -0.00228232774    -0.002989805071   0.3218062818      0.2868985236      
2540000000        0.4896428585      -0.3514997363     35.5868187        -16.82910156      -0.002288200427   -0.003006189829   0.3496957123      0.2066773325      
2580000000        0.436873585       -0.4152874351     34.02649689       -21.05620766      -0.002996488241   -0.002917218022   0.3506366313      0.2039837092      
2620000000        0.3797293007      -0.4568471611     31.10948181       -26.65579033      -0.003296748269   -0.002879795386   0.3817721605      0.09168695658     
2660000000        0.3101884723      -0.5125628114     27.93704224       -30.02084541      -0.003540865844   -0.002443409525   0.3500813842      0.1162724644      
2700000000        0.2468296438      -0.5216462016     23.09952164       -34.45957184      -0.004470817279   -0.002629451687   0.3704026043      0.0168330092      
2740000000        0.1857294887      -0.5589634776     19.64447212       -36.74097824      -0.004179458134   -0.001702898066   0.3323422372      0.02197411284     
2780000000        0.1071043313      -0.5540469289     13.1924715        -39.2205925       -0.005138957873   -0.002015918726   0.3307111561      -0.03961214796    
2820000000        0.05207471177     -0.5672727823     8.822450638       -40.99642563      -0.004933268763   -0.0009086049395  0.3202461302      -0.05373842642    
2860000000        -0.02343646437    -0.552765727      3.262312889       -41.76950073      -0.005666220561   -0.0009423298761  0.2767492533      -0.08072718978    
2900000000        -0.0748334378     -0.5394798517     -2.521502018      -41.48127365      -0.005519831553   -0.0001387425727  0.2837663889      -0.1168504804     
2940000000        -0.1440798491     -0.5179280639     -7.265152931      -40.83668518      -0.005841315724   0.0004162715049   0.2268918604      -0.109781757      
2980000000        -0.1835244596     -0.4882339239     -12.12184048      -38.71586609      -0.005833250005   0.0007080729119   0.2262322903      -0.1435955018     
3020000000        -0.2410140634     -0.456985265      -16.34472656      -37.19735336      -0.005924383644   0.001667020144    0.1872761399      -0.1266834736     
3060000000        -0.2716866732     -0.4253382683     -20.76182175      -34.15647507      -0.006015914958   0.001854254049    0.1712043732      -0.1718785316     
3100000000        -0.3200618029     -0.3891288936     -23.72015572      -31.64099503      -0.005580175668   0.002749371342    0.1660358906      -0.1317096651     
3140000000        -0.3392100632     -0.3404646814     -27.64535141      -27.33190346      -0.005960604176   0.003048499115    0.1148064584      -0.161623776      
3180000000        -0.378187567      -0.3057442904     -30.30519485      -23.85419083      -0.005036592484   0.003911421634    0.1232812703      -0.1455408782     
3220000000        -0.3925575614     -0.2515874207     -33.08426666      -19.13983536      -0.005563645624   0.004100315738    0.07394194603     -0.1546679884     
3260000000        -0.4123298824     -0.2122410536     -34.15748596      -14.7829628       -0.004539763089   0.004779556766    0.1190579534      -0.1536332369     
3300000000        -0.418119669      -0.1634933949     -35.07542038      -11.02396202      -0.004865164403   0.005333062261    0.04237752035     -0.1119114533     
3340000000        -0.4211534858     -0.13112849       -34.8430481       -6.994215012      -0.003841868835   0.005636294838    0.07480196655     -0.1523654163     
3380000000        -0.4309707284     -0.07656867057    -35.36957932      -3.137899637      -0.003915297799   0.00643861806     0.01988797076     -0.1051260084     
3420000000        -0.429549247      -0.03765742108    -35.10052872      1.042322755       -0.00303449994    0.006162881851    0.06838130206     -0.1532800794     
3460000000        -0.417250365      0.004247375764    -33.63149261      5.223576069       -0.002802558243   0.007328486536    0.02765256166     -0.06292048097    
3500000000        -0.4194478095     0.03633150458     -32.46786118      9.122019768       -0.001999956788   0.006742265541    0.0192315951      -0.1284338236     
3540000000        -0.3990226984     0.08610289544     -30.7206955       11.75218773       -0.001592847169   0.007947683334    0.01186217647     -0.07414148748    
3580000000        -0.3816761971     0.1044346169      -28.64249229      14.93358135       -0.0008852715837  0.007295184769    0.02009578981     -0.1328315884     
3620000000        -0.375187099      0.1498962343      -26.59505653      17.39625359       -0.0002023919951  0.00825888291     0.0400647074      -0.04723329842    
3660000000        -0.3461788297     0.1694544703      -24.01919937      20.34285927       0.0002949889167   0.007536459249    -0.005304375663   -0.08853093535    
3700000000        -0.3340852261     0.2072087973      -20.79763412      22.49348068       0.001134726685    0.008300741203    0.02300849557     -0.0604493916     
3740000000        -0.2974964678     0.2297622859      -18.22144318      24.09328651       0.001587699167    0.007864120416    0.0009308266453   -0.0923358351     
3780000000        -0.287438482      0.2521782815      -15.19550991      25.31661224       0.002604491776    0.008039332926    0.04816135019     -0.05758240074    
3820000000        -0.2503754199     0.2781993747      -12.38945866      26.34416008       0.002908990951    0.007816080004    0.004120723344    -0.04117841274    
3860000000        -0.2323981524     0.289945811       -9.123153687      26.95883179       0.003876070026    0.007555422373    0.01629117131     -0.06472879648    
3900000000        -0.1922163665     0.3101015091      -5.948826313      27.22898102       0.004366531502    0.007656664122    0.01810728759     -0.052904699      
3940000000        -0.1759700626     0.3185481727      -2.82260561       27.40755653       0.005129730795    0.00687511079     0.03375244886     -0.07338816673    
3980000000        -0.135843575      0.3393142223      0.04556004703     27.03352928       0.005707216915    0.007113387808    0.03863682598     -0.02217345499    
4020000000        -0.1146352366     0.3342041373      2.895741463       26.38371277       0.006371933036    0.006014602724    0.0002462561242   -0.07053751498    
4060000000        -0.07894846052    0.3516458869      5.394207954       25.49880219       0.006975667551    0.006190616637    0.05180671811     -0.04919221625    
4100000000        -0.05314455926    0.346711874       7.762388706       24.35121727       0.007196705788    0.005221444182    0.02803527936     -0.07243263721    
4140000000        -0.01780156605    0.3590407372      9.81454277        23.04501915       0.00825388357     0.005216348451    0.07554575056     -0.03116763197    
4180000000        0.006601856556    0.3396107256      11.9155817        21.70313454       0.00824858807     0.004171317443    -0.000290234515   -0.05768453702    
4220000000        0.02820085362     0.3601749837      14.01233196       19.89995003       0.009381728247    0.003725994145    0.06350365281     -0.07502767444    
4260000000        0.07912090421     0.3347180486      15.77185535       17.94195366       0.008809831925    0.002979513025    0.02921591513     -0.07080729306    
4300000000        0.08638957143     0.332564801       17.34116745       15.92579269       0.01006713789     0.002374211326    0.08140325546     -0.07181561738    
4340000000        0.1230137348      0.3278383911      18.61784554       13.83371258       0.009487752803    0.001526624896    0.02241890691     -0.05226013809    
4380000000        0.1468555629      0.3202562928      19.90771294       11.70647526       0.0106428545      0.0006381603307   0.05445573851     -0.1036142409     
4420000000        0.1763496846      0.2933900356      20.47507668       9.128968239       0.009986603633    -1.965391129e-05  0.04372380674     -0.07869682461    
4460000000        0.1837619543      0.2891950905      20.92860031       6.883217812       0.01069970615     -0.001051313942   0.05900708959     -0.09868823737    
4500000000        0.2305686027      0.2750656903      21.29457092       4.557209492       0.01031896565     -0.001685369993   0.0427704379      -0.06458565593    
4540000000        0.2308904529      0.2443010658      21.10245132       2.66027832        0.01041403133     -0.00276364712    0.02208686247     -0.1125483438     
4580000000        0.2625438273      0.2370644063      21.23783875       0.7882860899      0.01058098394     -0.003336505266   0.05742737278     -0.1044829488     
4620000000        0.2698654234      0.2056036144      20.70678329       -1.410791874      0.009826534428    -0.004668970127   0.02458121255     -0.1150333881     
4660000000        0.300188154       0.1973981708      20.408741         -3.57711935       0.01036183909     -0.005049292929   0.05476829782     -0.1108903289     
4700000000        0.3064081073      0.1571488231      19.42323685       -5.577828407      0.00910112448     -0.006527567748   -0.001452711876   -0.1200398952     
4740000000        0.3194085658      0.1482719332      18.57992935       -7.317803383      0.009610273875    -0.006709939335   0.05123184994     -0.1392247379     
4780000000        0.3303313553      0.1034012139      17.28048706       -9.143984795      0.008283483796    -0.008039602078   0.009504665621    -0.1172610596     
4820000000        0.3394670486      0.09375777841     16.04838562       -10.56149769      0.008624427021    -0.008509932086   0.02913486958     -0.1404286623     
4860000000        0.3504675329      0.05114634708     14.71226883       -12.10797596      0.007141642738    -0.009546143003   -0.01381533593    -0.1234852225     
4900000000        0.3459682167      0.03973012418     13.18249702       -13.33122921      0.00707037095     -0.01013314351    0.003618571907    -0.1634134352     
4940000000        0.3614963591      -0.0008002966642  11.63503265       -14.48227119      0.005917754024    -0.0107025234     -0.005307952408   -0.1278837174     
4980000000        0.3478690982      -0.02464091033    9.817677498       -15.19954014      0.005282237194    -0.01160761248    -0.02611923404    -0.154869169      
5020000000        0.3602188826      -0.05876327306    8.27882576        -16.07452965      0.004394005984    -0.01169638615    -0.02310781181    -0.141220212      
5060000000        0.3433531523      -0.07602240145    6.611056805       -16.43983078      0.003209748305    -0.01278016996    -0.04769095033    -0.1630905867     
5100000000        0.3517060578      -0.1135268882     4.839698315       -17.00259399      0.002649120055    -0.01248430926    -0.02789124101    -0.1467875242     
5140000000        0.3245661259      -0.1383963227     2.894467831       -17.03167343      0.0008795203175   -0.013627965      -0.08256121725    -0.1431444436     
5180000000        0.3312664628      -0.1640033573     1.253860474       -16.98102379      0.0004334927071   -0.01305103768    -0.06335463375    -0.160732761      
5220000000        0.3047521412      -0.198499456      -0.5654786229     -16.93878365      -0.001129034441   -0.01388745476    -0.08328463882    -0.1461747289     
5260000000        0.298148334       -0.2169039696     -2.170562744      -16.55524254      -0.001730379998   -0.01349121518    -0.07456248254    -0.1521889418     
5300000000        0.2706990838      -0.2484504133     -3.953160763      -16.15099144      -0.003296466079   -0.01357393712    -0.1127346829     -0.1168934256     
5340000000        0.2650471032      -0.259919703      -5.397334099      -15.36910248      -0.004134946503   -0.01376352832    -0.1338624358     -0.160513714      
5380000000        0.2292236388      -0.2961870432     -6.906736374      -14.57947731      -0.005605430342   -0.01301115751    -0.1107344627     -0.1222960055     
5420000000        0.212068215       -0.2999106646     -8.306877136      -13.61314964      -0.006720046047   -0.01357235759    -0.1344354302     -0.1182589978     
5460000000        0.1885742694      -0.3305520713     -9.696074486      -12.5781641       -0.007829154842   -0.01205208432    -0.1356115043     -0.06580496579    
5500000000        0.1613802612      -0.3350690305     -10.64726257      -11.17374229      -0.009125839919   -0.0129028894     -0.2008835673     -0.09646436572    
