! RsaToolbox (C) 2015 Rohde & Schwarz America
! 
! Number of points: 26
! Number of ports: 2
! Balanced ports?: No
! 
! 
# Hz S RI R 50
4260000000        0.04791492224     0.3446013927      13.85908604       15.97571278       0.008650620468    0.002875175793    0.03088610992     -0.07679168135    
4540000000        0.2252529711      0.2680442929      19.29217339       1.883043528       0.01029296126     -0.002703514881   0.0191260241      -0.1132164448     
4580000000        0.2572883964      0.259821713       19.01596832       -0.01509702206    0.01048248727     -0.003298351541   0.05460080132     -0.1058001667     
4620000000        0.2681522369      0.2325846702      18.44040108       -1.931979418      0.009706523269    -0.004601217806   0.02591236867     -0.1163421944     
4660000000        0.2990516424      0.2177633941      18.31847          -3.832536459      0.01027196925     -0.004934938625   0.04959563538     -0.111566335      
4700000000        0.3060343862      0.1801736504      17.51667023       -5.503700256      0.009022168815    -0.006461186334   -0.0002325582318  -0.1213014796     
4740000000        0.3257581294      0.1683670431      16.65568352       -7.320989609      0.009550374933    -0.006584383547   0.04553548619     -0.1391433775     
4780000000        0.3363550901      0.123739779       15.9194212        -8.779932976      0.008267730474    -0.007993719541   0.00906825345     -0.1171051785     
4820000000        0.3556076884      0.1166483387      13.82264614       -10.14034653      0.008586990647    -0.008366116323   0.02395268157     -0.1395683736     
4860000000        0.3579239249      0.06584019959     13.67689419       -11.65849686      0.007117244881    -0.009469044395   -0.01524870005    -0.1226473972     
4900000000        0.3640841544      0.05754972994     11.33394718       -12.66162109      0.007060835138    -0.009999661706   0.0008790367283   -0.1604724526     
4940000000        0.3739341199      0.01174457557     10.4822464        -13.77650642      0.005841171369    -0.01059869118    -0.007873497903   -0.1283233166     
4980000000        0.3650202751      -0.0117637217     8.880536079       -14.54266834      0.00531830918     -0.0115094902     -0.02880129218    -0.1515270919     
5020000000        0.3778698146      -0.04580426216    7.261427879       -15.05077171      0.004402101506    -0.01158190612    -0.0256299451     -0.1405614167     
5060000000        0.3560111821      -0.0725312382     5.789381981       -15.82262421      0.0032939706      -0.01270836219    -0.04956493899    -0.1592716426     
5100000000        0.3752816617      -0.1089692041     3.80071044        -15.58342266      0.00268593966     -0.0123807583     -0.0303824991     -0.1461742371     
5140000000        0.3364498913      -0.1367171705     2.397628307       -16.27573395      0.0009958250448   -0.01354561746    -0.0837982446     -0.1413032562     
5180000000        0.3527845144      -0.1649794877     0.5671944618      -15.82989502      0.0005163183669   -0.01297516562    -0.06430539489    -0.1580966711     
5220000000        0.3214200139      -0.1978651881     -0.8069857955     -16.05594826      -0.001107772812   -0.01380238775    -0.08446029574    -0.1442722231     
5260000000        0.3163432181      -0.2216874361     -2.578547239      -15.46587563      -0.001625853591   -0.01343981735    -0.07807492465    -0.14776887       
5300000000        0.2856522202      -0.2513201237     -4.00942564       -15.13635349      -0.003201718675   -0.01356891729    -0.1138660759     -0.1149104089     
5340000000        0.2785865366      -0.2685914338     -5.661599159      -14.39191628      -0.004040256143   -0.01370739564    -0.1343028396     -0.1563175768     
5380000000        0.2451077998      -0.3083014786     -6.916733265      -13.60545349      -0.005563622806   -0.01297267899    -0.1122606769     -0.1213374287     
5420000000        0.2234298289      -0.3093194366     -8.279784203      -12.73206902      -0.006583620328   -0.0134925833     -0.1353467852     -0.1137418151     
5460000000        0.1975585967      -0.3415188491     -9.478614807      -11.64898014      -0.007776292972   -0.01203470957    -0.1372545213     -0.06340724975    
5500000000        0.1716253608      -0.3515982628     -10.48612881      -10.36401653      -0.008999476209   -0.01290995535    -0.2013612986     -0.0926874429     
