! RsaToolbox (C) 2015 Rohde & Schwarz America
! 
! Number of points: 101
! Number of ports: 2
! Balanced ports?: No
! 
! 
# Hz S RI R 50
1500000000        -0.3924764395     0.3643031716      -27.51181412      51.18309402       0.001590147614    -0.001822904684   -0.2165331095     0.02757894807     
1540000000        -0.3382236063     0.3926745951      -17.00502968      52.09910202       0.001224294654    -0.001861190191   -0.2288764864     0.05692482367     
1580000000        -0.2627559304     0.4321512282      -10.95493507      54.59704208       0.00113996875     -0.002166565275   -0.226532191      0.03444355726     
1620000000        -0.2079778761     0.4408037961      -1.168817401      53.00684738       0.0009158976609   -0.002039412037   -0.2213663012     0.07558206469     
1660000000        -0.141231671      0.4591527283      4.3204813         51.42882156       0.0007204787107   -0.002283570822   -0.2349985242     0.07177917659     
1700000000        -0.0851842016     0.4595542252      11.21879768       48.1560936        0.0005585930194   -0.002179048955   -0.2358053029     0.1015491486      
1740000000        -0.03174632043    0.4629148841      16.4035759        44.82157516       0.0002422946418   -0.002276080428   -0.2514168322     0.1053115726      
1780000000        0.01957419142     0.4588549435      20.33918381       40.48662186       0.0002358168713   -0.002213338157   -0.235013321      0.1339244545      
1820000000        0.06482675672     0.4523603022      24.0673027        35.81685638       -0.0001143626432  -0.002147903899   -0.2448005676     0.1650659293      
1860000000        0.1151462644      0.438454628       26.17950249       31.28902435       -1.635681474e-05  -0.002159002004   -0.2448655665     0.1830450892      
1900000000        0.157528013       0.4300487638      27.77688408       26.54112816       -0.000354220072   -0.001980978064   -0.2387956977     0.2221537679      
1940000000        0.2026360482      0.4122862518      28.18928528       22.7529583        -0.0001827339293  -0.002062628977   -0.2223834097     0.2332055867      
1980000000        0.2439695597      0.395814836       28.21313667       19.37942314       -0.000585069065   -0.001906990539   -0.1989338845     0.3032070994      
2020000000        0.2889430225      0.3733107746      27.51129723       16.44337273       -0.0003507051733  -0.001935097622   -0.1857506633     0.299619019       
2060000000        0.3310776353      0.350946486       27.38282394       14.51834488       -0.000555730192   -0.001822351362   -0.1678179055     0.3564556539      
2100000000        0.372746557       0.3224931359      26.75782776       12.47301865       -0.0003851066576  -0.001951775164   -0.1212533191     0.3469339311      
2140000000        0.4180065691      0.284063518       27.01473427       11.21913528       -0.0005312581197  -0.001879481948   -0.08450981975    0.4184302688      
2180000000        0.4632081687      0.2469220012      27.43905258       9.613509178       -0.0005160200526  -0.00201057829    -0.02287938818    0.401653558       
2220000000        0.4963828325      0.1917704344      27.99006462       8.690608025       -0.0004685587774  -0.00204336457    -0.004011403769   0.4377278686      
2260000000        0.5278342962      0.1360352188      29.86538696       6.852613449       -0.0007343030302  -0.002314243466   0.07806816697     0.4067029357      
2300000000        0.5596247911      0.07298767567     30.44066238       5.847629547       -0.0005795522011  -0.002215841785   0.1069920734      0.4224948883      
2340000000        0.5695512295      0.0002540852875   32.87092209       3.399692535       -0.001075280714   -0.002645466477   0.1758116335      0.406376034       
2380000000        0.5775750875      -0.06949357688    33.81467819       0.6229583025      -0.0008785145474  -0.002576610073   0.2085216641      0.3853602111      
2420000000        0.5670061707      -0.1448995769     35.85245895       -3.123426199      -0.001604931429   -0.002924564527   0.2636408806      0.3483386636      
2460000000        0.5526174903      -0.2183520049     35.71006775       -7.607498169      -0.001410022029   -0.002825963311   0.3026096523      0.3015778661      
2500000000        0.5190550089      -0.2927740514     36.19478607       -11.81453037      -0.002298560925   -0.003022001125   0.3222451508      0.2865309715      
2540000000        0.4873977005      -0.3459192514     35.3548851        -16.57036591      -0.002255462576   -0.003024998121   0.3505384028      0.2076369822      
2580000000        0.4363231957      -0.4135909975     33.83707809       -20.96666718      -0.003031859174   -0.002933245618   0.3503670394      0.202085495       
2620000000        0.3825997114      -0.4551129937     31.04095268       -26.55934715      -0.003316315822   -0.002879845677   0.3813970387      0.0925328359      
2660000000        0.3122337162      -0.512594223      27.95188904       -29.90526962      -0.003554900177   -0.00242341985    0.3494360447      0.1168731079      
2700000000        0.2481222451      -0.5201287866     22.87256241       -34.35705185      -0.00441726204    -0.002631336451   0.3703877628      0.01599605009     
2740000000        0.1840344518      -0.5540807247     19.44957161       -36.38640976      -0.004206474405   -0.00168568478    0.3324684203      0.02142347395     
2780000000        0.1113694087      -0.5574492812     13.18966293       -39.30028152      -0.005159901921   -0.001977842068   0.330845803       -0.03959796578    
2820000000        0.05167952552     -0.5623878241     8.739975929       -40.59634018      -0.004927919246   -0.0009187268442  0.3199899495      -0.05572254211    
2860000000        -0.01831869781    -0.5563370585     3.41351366        -41.9530983       -0.005634361412   -0.0009691907908  0.2761962414      -0.08218792081    
2900000000        -0.07136537135    -0.534670949      -2.300487995      -40.98609924      -0.005540729035   -0.000143991303   0.2830355465      -0.1167812943     
2940000000        -0.1433272511     -0.5199967623     -7.379394054      -40.76646042      -0.005880532786   0.0003911888343   0.2271616012      -0.1096713617     
2980000000        -0.1804511249     -0.4933086336     -11.98328686      -38.7465477       -0.005798622966   0.0006788317114   0.2265179306      -0.1436239481     
3020000000        -0.2377460003     -0.4591233432     -16.09100342      -37.18941116      -0.005974854808   0.001655188156    0.1868890226      -0.1284681708     
3060000000        -0.2746247053     -0.4227786064     -21.00597954      -33.79771805      -0.005972488318   0.0018278606      0.1716755927      -0.1714187115     
3100000000        -0.3184956014     -0.3836236298     -23.68353081      -31.18283653      -0.005572331138   0.002782676136    0.165619269       -0.13203758       
3140000000        -0.3414883614     -0.3381646276     -27.81325531      -27.14469528      -0.005968306214   0.003041940974    0.114797771       -0.1612968445     
3180000000        -0.3752013743     -0.3030356467     -30.07214165      -23.56398201      -0.005051660817   0.003943576943    0.1240176558      -0.1453811228     
3220000000        -0.3918554485     -0.2504585385     -32.83977509      -19.00983047      -0.005598134361   0.004097722936    0.0736945644      -0.155204609      
3260000000        -0.4127806425     -0.2143397629     -34.0455513       -14.77521133      -0.004508615471   0.004803928081    0.1176047549      -0.1542901695     
3300000000        -0.4174984992     -0.1617189199     -34.9986763       -10.81114483      -0.004853016231   0.005320932716    0.04274456948     -0.1113697663     
3340000000        -0.42232728       -0.1286229193     -34.85125732      -6.698396206      -0.003833242459   0.005660562776    0.07418563217     -0.152848497      
3380000000        -0.4298944771     -0.07622212172    -35.20644379      -3.053496838      -0.00389040052    0.006427399814    0.02003220096     -0.1053898036     
3420000000        -0.4250279367     -0.03827409446    -34.71578217      1.035275698       -0.003014808521   0.006153342314    0.06920689344     -0.1526827514     
3460000000        -0.417209208      0.00476308167     -33.56135178      5.293758869       -0.002807941288   0.007372603752    0.02763126604     -0.06289244443    
3500000000        -0.4174794555     0.03514114767     -32.33608627      9.016441345       -0.001992718317   0.006756003015    0.01839872822     -0.1272338629     
3540000000        -0.401073724      0.08781478554     -30.80360031      11.88096237       -0.001545941341   0.007944476791    0.01254244894     -0.07379894704    
3580000000        -0.3887352943     0.1007260829      -29.15722466      14.77782059       -0.0008636144921  0.007305095438    0.02083584666     -0.1330616623     
3620000000        -0.3753933609     0.1492209435      -26.53796196      17.35885429       -0.0001720219734  0.008270210586    0.03994875774     -0.04719415307    
3660000000        -0.3439162374     0.1711056978      -23.80445671      20.39801216       0.0003031146189   0.00752685871     -0.004943159875   -0.08828686178    
3700000000        -0.3329176903     0.2051057518      -20.78332329      22.31123161       0.001094511594    0.008305232041    0.0219797045      -0.06054779515    
3740000000        -0.297318846      0.2288154364      -18.08350754      23.977808         0.001574284397    0.007868435234    0.000784392003    -0.0918898657     
3780000000        -0.2845621705     0.2522996664      -15.06404877      25.29895592       0.002600296866    0.008025099523    0.04832379892     -0.05824282765    
3820000000        -0.2484904975     0.275645107       -12.32932854      26.19869041       0.00291106943     0.007815429941    0.003761798609    -0.04119389132    
3860000000        -0.2334531695     0.2903457284      -9.126906395      26.99749184       0.003862598445    0.007585255429    0.01682457328     -0.06481518596    
3900000000        -0.19306539       0.3108260036      -6.020684242      27.1620388        0.004369351547    0.007661408745    0.0180440601      -0.05264397711    
3940000000        -0.1764968336     0.3193241358      -2.810620785      27.47722626       0.005147820804    0.00686243549     0.03388091177     -0.07399111241    
3980000000        -0.1361302584     0.3388038278      0.08488535881     27.1260891        0.005719223525    0.007102268748    0.03911038116     -0.02231017128    
4020000000        -0.1161763817     0.334736526       2.815440655       26.42561531       0.006353596691    0.006031003315    -7.338356227e-05  -0.07062257826    
4060000000        -0.07820574194    0.3517112136      5.429512024       25.4055233        0.006978683174    0.006166128442    0.05173657835     -0.04884852841    
4100000000        -0.05461352319    0.3432306647      7.607996941       24.31471252       0.007210959215    0.005220612511    0.02810313739     -0.07215739787    
4140000000        -0.0186053887     0.3604905307      9.87457943        23.08412552       0.008255817927    0.005200107582    0.07546531409     -0.03144055232    
4180000000        0.009288884699    0.3392354548      12.00873566       21.63253593       0.008244598284    0.004131956957    -0.0002050264156  -0.05709689111    
4220000000        0.02884110063     0.3606787324      14.03469086       19.90454483       0.00937312562     0.003726093564    0.06273946166     -0.07491600513    
4260000000        0.07605817914     0.3351494968      15.67101192       17.96947479       0.008811076172    0.002982390346    0.02882576734     -0.07170297951    
4300000000        0.08572600782     0.3324229419      17.3391037        15.92224216       0.01005200483     0.002362555824    0.08223469555     -0.07126608491    
4340000000        0.1239931732      0.3269587457      18.59757614       13.71800232       0.009503732435    0.001526098349    0.02237297036     -0.05291615054    
4380000000        0.1476495713      0.319157809       19.91910362       11.54234791       0.01063561067     0.0006633943995   0.05408434197     -0.1042231843     
4420000000        0.1764181703      0.293040216       20.4363308        9.046006203       0.009990085848    -2.163388126e-05  0.0436450541      -0.07802284509    
4460000000        0.18032673        0.2900686562      20.89742088       6.997787952       0.01070490014     -0.001039782772   0.05942442641     -0.09947559983    
4500000000        0.2315629721      0.2735252976      21.27509117       4.516913414       0.01030700281     -0.001682452159   0.04271618649     -0.06434295326    
4540000000        0.232234031       0.2448376715      21.13153267       2.619558334       0.01041367464     -0.002754209563   0.02151063643     -0.1121078432     
4580000000        0.2625080645      0.2381565869      21.24338913       0.8175599575      0.01060680952     -0.003328651423   0.05759179965     -0.1046568826     
4620000000        0.2694466114      0.205024004       20.65844536       -1.407386065      0.009820380248    -0.004675288685   0.0254564099      -0.1151757836     
4660000000        0.297128886       0.1991883814      20.37069321       -3.442736864      0.01033528056     -0.005043111276   0.05561332777     -0.1105065346     
4700000000        0.305213958       0.1556482464      19.31110001       -5.581457615      0.009104571305    -0.00650683092    -0.0007402359042  -0.120438233      
4740000000        0.3182847202      0.1483281106      18.55805969       -7.271596909      0.009598459117    -0.006705829874   0.05158535391     -0.1391749531     
4780000000        0.3326044083      0.1052695736      17.42502785       -9.104777336      0.008256965317    -0.008049772121   0.009557398967    -0.1168134511     
4820000000        0.3403551877      0.09130840003     15.98841953       -10.62005901      0.008621474728    -0.008493424393   0.02925375849     -0.1394158304     
4860000000        0.3508677781      0.05070279166     14.70623302       -12.12866402      0.007156357635    -0.009503620677   -0.01317979116    -0.1230176985     
4900000000        0.3440242708      0.04038534313     13.09222221       -13.2449646       0.007090010215    -0.01011355501    0.003753989935    -0.1632831693     
4940000000        0.3623253107      -0.0009596217424  11.64501095       -14.47949123      0.005904881749    -0.01069265231    -0.005054679699   -0.1278744042     
4980000000        0.3492006063      -0.02282222547    9.928360939       -15.19732189      0.005284616724    -0.01160917059    -0.02607545629    -0.154175207      
5020000000        0.3594348729      -0.05479019508    8.365369797       -15.99456215      0.004388551693    -0.01168939751    -0.02286945283    -0.1407133937     
5060000000        0.3420298994      -0.07833259553    6.516057491       -16.35993576      0.003227618057    -0.01277585514    -0.04862913489    -0.1622633636     
5100000000        0.3510274887      -0.1142410934     4.835438728       -16.93901443      0.002669938141    -0.01245815214    -0.02822613716    -0.146573171      
5140000000        0.3236101866      -0.1418054998     2.776578665       -17.05123329      0.0009100193274   -0.01362948399    -0.08203656971    -0.1434924453     
5180000000        0.3334830105      -0.1646600962     1.280291319       -17.03836632      0.0004368100781   -0.01305237785    -0.06247922778    -0.1617797017     
5220000000        0.3060326278      -0.1987366229     -0.58675915       -16.95781708      -0.001141819172   -0.01389216725    -0.08409575373    -0.1443109959     
5260000000        0.2977103591      -0.2191179842     -2.238915682      -16.5752964       -0.001723827445   -0.01350428071    -0.07579244673    -0.1515867412     
5300000000        0.2679674923      -0.2454426587     -3.916598558      -16.00064468      -0.00327281002    -0.01357590873    -0.1130032837     -0.116278708      
5340000000        0.2650467753      -0.2583459318     -5.311339378      -15.3244648       -0.004151996691   -0.01378008351    -0.1331810504     -0.1607218832     
5380000000        0.2308194041      -0.2979673445     -6.980126858      -14.63203144      -0.005623327103   -0.01298403926    -0.1116425321     -0.1223143637     
5420000000        0.2101815343      -0.299010545      -8.340705872      -13.53456306      -0.006718721241   -0.01352798566    -0.1337768435     -0.1175766438     
5460000000        0.1861794889      -0.3304673433     -9.685686111      -12.52710533      -0.007840519771   -0.0120450817     -0.1360581368     -0.06596826762    
5500000000        0.1617134959      -0.3369764984     -10.65982533      -11.20956993      -0.009109555744   -0.01289910916    -0.2008719146     -0.09707932919    
