! RsaToolbox (C) 2015 Rohde & Schwarz America
! 
! Number of points: 97
! Number of ports: 2
! Balanced ports?: No
! 
! 
# Hz S RI R 50
1660000000        -0.1576813757     0.4686450958      2.325204372       47.69303894       0.0007011824637   -0.002281958237   -0.2331693619     0.07130733877     
1700000000        -0.1038416028     0.4711165428      10.21755695       44.73327255       0.0005522659631   -0.002178696217   -0.235223785      0.1010161117      
1740000000        -0.04318014905    0.4749162495      15.13195038       42.59899902       0.0002496339148   -0.002271439647   -0.2500095069     0.1051517278      
1780000000        0.01061555184     0.4708450437      18.67316628       38.91844177       0.0002305275993   -0.002203128999   -0.2351633757     0.133687526       
1820000000        0.0589306429      0.4651196599      22.65134239       34.40684128       -0.000127832478   -0.002178755589   -0.2447613925     0.1647516191      
1860000000        0.1121746451      0.4485475421      24.61917305       30.72531891       -1.629319922e-05  -0.002152993809   -0.2451370656     0.1827175021      
1900000000        0.1518342197      0.4441257417      26.39364433       25.41125298       -0.0003823986044  -0.001992355566   -0.2384570688     0.2215748131      
1940000000        0.2016349882      0.4231372774      26.99791908       22.67861366       -0.00020567303    -0.002085743705   -0.2224543691     0.2332333028      
1980000000        0.2461067736      0.4092594385      27.44570923       19.39678383       -0.0005681737675  -0.001899294788   -0.1989645362     0.3028413355      
2020000000        0.2940995693      0.3863325119      26.80957985       16.61941528       -0.0003432817175  -0.001927362871   -0.1854298711     0.2991505563      
2060000000        0.3370770812      0.3606056571      26.88474846       14.53384686       -0.0005593320238  -0.001828983426   -0.1671256274     0.3561431766      
2100000000        0.380886972       0.3311429322      26.26585197       12.68083668       -0.0003928880324  -0.00195733388    -0.1214137971     0.3466205001      
2140000000        0.4218973517      0.2903773487      26.438097         11.41196823       -0.0005273190909  -0.001887542545   -0.08470613509    0.4183036089      
2180000000        0.4702887535      0.2550659776      26.81404114       9.786910057       -0.0005222331965  -0.002022321569   -0.02298031375    0.4022754729      
2220000000        0.5045185089      0.1962486804      27.62552071       8.83259964        -0.0004725742619  -0.002037155908   -0.003812987357   0.4366557002      
2260000000        0.5349988937      0.1396516412      29.51387405       6.849352837       -0.0007292717928  -0.00228799507    0.07846736908     0.4062528014      
2300000000        0.5681023598      0.07686421275     30.03328133       6.162148952       -0.0005615647533  -0.002222382696   0.1071023643      0.4222231209      
2340000000        0.573979497       0.002081202343    32.3260498        3.137325764       -0.001071338542   -0.002659967169   0.1763123572      0.4063726962      
2380000000        0.5865539908      -0.06819401681    33.50418091       0.7753356695      -0.0008822486852  -0.002571467543   0.2092963457      0.3855794072      
2420000000        0.5668145418      -0.1466315687     35.15249634       -3.615437031      -0.001618491719   -0.002905251691   0.2637754083      0.3484781981      
2460000000        0.5559959412      -0.2179111093     35.03406525       -7.500855446      -0.001433904748   -0.002802132629   0.3031118512      0.3007163107      
2500000000        0.5222479105      -0.291261375      35.20629501       -12.28121567      -0.002274875529   -0.002994263312   0.3224500418      0.2864122689      
2540000000        0.4889122546      -0.3523729146     34.60179901       -17.08369637      -0.002262701513   -0.003020044416   0.3499079049      0.2061745822      
2580000000        0.4336735308      -0.408806026      31.68516922       -21.21558762      -0.003001115518   -0.002927884459   0.3532940745      0.2018583119      
2620000000        0.3827836215      -0.4530775845     29.8650074        -26.45766258      -0.003326316597   -0.002884940244   0.3807125092      0.09314086288     
2660000000        0.3105674982      -0.4991421998     26.44745255       -28.85141754      -0.003561064135   -0.002447373234   0.3497219384      0.1157061532      
2700000000        0.2586477995      -0.512729466      19.94783783       -33.19524765      -0.004449678585   -0.00260011619    0.3684814572      0.01888705418     
2740000000        0.1846929491      -0.555272758      18.8764534        -36.04631805      -0.004209308419   -0.00170197885    0.3330349326      0.02100791782     
2780000000        0.1260166764      -0.5445928574     10.41897011       -36.77827072      -0.005123314913   -0.002003513742   0.3293873668      -0.03824116662    
2820000000        0.05580922589     -0.5600426197     8.058322906       -39.63492584      -0.004939448088   -0.0009073012043  0.3190425634      -0.05530347675    
2860000000        -0.008263010532   -0.5465821624     2.129090071       -39.85591125      -0.005638049915   -0.000956701464   0.276568681       -0.08159058541    
2900000000        -0.06512363255    -0.5359168649     -3.135610104      -39.61367798      -0.005555516109   -0.0001382644696  0.2830344737      -0.1173078865     
2940000000        -0.1294322461     -0.516453743      -7.430434704      -39.21902084      -0.005839396268   0.000396871852    0.2271814644      -0.1106114686     
2980000000        -0.1751940548     -0.4922454059     -12.50746727      -36.85942841      -0.005835955497   0.0007044668309   0.2249958366      -0.1422355324     
3020000000        -0.2304620743     -0.4598636925     -16.11228943      -36.15824509      -0.005937215872   0.001646505552    0.1874774396      -0.1280405819     
3060000000        -0.2640169859     -0.427731961      -20.64777374      -32.01668167      -0.005971974228   0.001861868426    0.1696150303      -0.1708602309     
3100000000        -0.316216439      -0.3853734434     -23.59778023      -30.41325188      -0.005628223997   0.00276666577     0.1657587141      -0.1325493753     
3140000000        -0.3345505297     -0.3468739986     -27.31289673      -25.78294182      -0.005975970067   0.002999438206    0.1145980954      -0.1604922861     
3180000000        -0.3714689314     -0.3026417494     -29.68143463      -22.8070755       -0.005032682791   0.003902365686    0.1233330891      -0.1452315599     
3220000000        -0.3871230185     -0.2592968345     -32.20782089      -18.08148575      -0.005578808952   0.004091775045    0.07406049967     -0.1552404761     
3260000000        -0.4082370102     -0.2158636898     -33.36836624      -14.16344261      -0.004523222335   0.004792765249    0.1173513308      -0.1534797251     
3300000000        -0.4155621827     -0.1637366414     -34.50421524      -10.23881626      -0.004895102233   0.005328705534    0.04358948767     -0.1111680344     
3340000000        -0.4212149084     -0.1326475441     -33.98873901      -6.154262543      -0.003810977563   0.005669134669    0.07386793941     -0.1531846523     
3380000000        -0.4263994098     -0.0777644515     -34.53907013      -2.911476851      -0.003891982837   0.006440008059    0.01969179139     -0.1054797173     
3420000000        -0.4269366562     -0.03762541711    -34.32225418      1.460505009       -0.003042143304   0.006176863331    0.06838490069     -0.1526490748     
3460000000        -0.4149264991     0.00273641292     -32.76955795      5.524588585       -0.002776661655   0.00734038651     0.02842990123     -0.06371057034    
3500000000        -0.4214920998     0.03154082596     -31.89758301      9.091109276       -0.001975052757   0.006747545209    0.01861048304     -0.126784265      
3540000000        -0.3993305266     0.08278592676     -30.35280228      11.66589355       -0.001580466051   0.007947901264    0.01193682104     -0.07344152033    
3580000000        -0.3865075111     0.1018042415      -28.14089584      15.0374651        -0.0008643374895  0.007279560436    0.0197604578      -0.1320463121     
3620000000        -0.3736960292     0.1452642977      -26.0860157       17.11823273       -0.0001817352895  0.00827122014     0.04067517072     -0.04783535749    
3660000000        -0.3470144868     0.1657981277      -23.44370461      20.11989212       0.000294301688    0.007537185214    -0.005132462829   -0.08894792944    
3700000000        -0.3344940543     0.2029040009      -20.66724014      22.20011902       0.001099897083    0.008303308859    0.02197273634     -0.06065092236    
3740000000        -0.2988113165     0.2254628986      -17.79479218      23.75864601       0.001601282973    0.007886730134    0.001337294467    -0.09179314226    
3780000000        -0.2871460319     0.2490998805      -14.85826111      24.94548607       0.002594362712    0.00801855512     0.04811852425     -0.05804783851    
3820000000        -0.2505364418     0.274404794       -12.16659451      26.02490425       0.002901744796    0.007792341057    0.004459222779    -0.04115528986    
3860000000        -0.2356658429     0.2891204655      -8.936653137      26.70094299       0.003876109608    0.007581804413    0.01704271883     -0.06466335058    
3900000000        -0.1937611699     0.3098411858      -5.832344055      26.9491539        0.00438115187     0.007638316136    0.01837978326     -0.05375946686    
3940000000        -0.1803394258     0.3193243146      -2.658691883      27.1758194        0.00514229713     0.006843232084    0.03360734135     -0.07367055863    
3980000000        -0.1364510655     0.3372943103      0.1224605367      26.75250816       0.00572128268     0.007087950595    0.03984596208     -0.0225742422     
4020000000        -0.1189318895     0.3355849683      2.936699867       26.07325363       0.006373330019    0.006018267479    0.0001601106487   -0.07070378214    
4060000000        -0.08104471117    0.3516423106      5.305789948       25.21710777       0.006959306542    0.006176330149    0.05169697106     -0.04861076549    
4100000000        -0.05818532407    0.3472732008      7.613614559       24.28569603       0.007207563147    0.00520290155     0.02794161998     -0.07243925333    
4140000000        -0.01834918559    0.3582181633      9.849832535       22.71442604       0.008245673031    0.005200288258    0.07550761849     -0.03121013381    
4180000000        0.004554886837    0.3392286301      11.75825977       21.55544281       0.008251429535    0.00413478259     0.0002952708164   -0.05682691187    
4220000000        0.02608088776     0.3617149889      13.90676975       19.66574097       0.009371142834    0.003708409611    0.06339069456     -0.07536894083    
4260000000        0.0753313601      0.3351553977      15.58942795       17.8388443        0.008798082359    0.002974611241    0.02918319404     -0.07203450054    
4300000000        0.08264526725     0.3343760967      17.20868111       15.82505512       0.01006069686     0.002375029493    0.08208976686     -0.07173093408    
4340000000        0.1229387522      0.3290261328      18.49519348       13.63706589       0.009503807873    0.001532413298    0.02263211273     -0.05262241885    
4380000000        0.1458901018      0.3204722106      19.74827576       11.53637218       0.01061454974     0.0006368291797   0.05397007987     -0.1045422629     
4420000000        0.1760286689      0.2947608232      20.35332298       9.002516747       0.009978118353    -6.155540177e-06  0.04318300635     -0.07861362398    
4460000000        0.1806668788      0.2906346321      20.82889748       6.864711761       0.01069759764     -0.001049594604   0.0592254661      -0.09907080978    
4500000000        0.2291997224      0.2749762833      21.10510254       4.490283012       0.01032193005     -0.001692773076   0.04278657585     -0.06554520875    
4540000000        0.2324162722      0.2456613481      21.04595566       2.565324306       0.01040624268     -0.002751779743   0.02161623538     -0.1126452088     
4580000000        0.2627412677      0.2381331921      21.14796638       0.69074893        0.01058732718     -0.00332817412    0.0572155118      -0.105258964      
4620000000        0.2701002955      0.2069680691      20.63967514       -1.424882174      0.009841087274    -0.004655539058   0.02478440478     -0.1149425432     
4660000000        0.298632592       0.1973730326      20.23860931       -3.593308926      0.01037469972     -0.005028200801   0.05436048657     -0.1106298119     
4700000000        0.3042827845      0.1561653316      19.18638802       -5.645668507      0.009089858271    -0.00650681695    -0.0006677862257  -0.1209018007     
4740000000        0.319006592       0.1499180794      18.44283676       -7.260561466      0.009587379172    -0.00669587031    0.05070352182     -0.1392527968     
4780000000        0.3312942982      0.1067145169      17.30152702       -9.067481995      0.008277885616    -0.008047292009   0.008948641829    -0.1165970489     
4820000000        0.3420271575      0.09527745098     15.99843788       -10.56324673      0.008618556894    -0.008492541499   0.02908473648     -0.140200004      
4860000000        0.3522997499      0.05092641711     14.59910297       -12.16105556      0.007154045627    -0.009512212127   -0.01317748614    -0.1227400601     
4900000000        0.3457783759      0.03991333395     12.93776321       -13.31078243      0.007078128867    -0.01013258938    0.003028952051    -0.162760213      
4940000000        0.3634472489      -0.002078273334   11.51844788       -14.49962234      0.005908774678    -0.01071199123    -0.005731756799   -0.1272372603     
4980000000        0.3525130451      -0.02363057993    9.899360657       -15.22966671      0.005265878513    -0.01163843088    -0.02637097985    -0.1539253592     
5020000000        0.3605071306      -0.05577479675    8.267349243       -15.96338654      0.004344140645    -0.01170279924    -0.02257081307    -0.1414283216     
5060000000        0.3428187072      -0.07735805213    6.445323944       -16.33275795      0.003210955067    -0.01277366374    -0.04805110022    -0.1624210328     
5100000000        0.3523043096      -0.114551194      4.733317852       -16.89161682      0.002637153724    -0.01246253401    -0.02757005021    -0.1468174458     
5140000000        0.3240366876      -0.1397049576     2.813411236       -16.96774864      0.0008814702742   -0.0136088701     -0.08239601552    -0.1444138885     
5180000000        0.3325105906      -0.1640028507     1.254288793       -16.9400692       0.0004407405504   -0.01300147362    -0.06334407628    -0.1615750939     
5220000000        0.3041804731      -0.1985053569     -0.5699734688     -16.81766129      -0.00111505331    -0.01384470705    -0.08451902121    -0.1459953636     
5260000000        0.2985554934      -0.2169058472     -2.198729992      -16.48046112      -0.001731613651   -0.01349313278    -0.07674378157    -0.1523243487     
5300000000        0.2698768973      -0.2464824766     -3.890717983      -15.98115063      -0.003275125287   -0.01357293688    -0.1130636707     -0.1163617894     
5340000000        0.266025573       -0.2606005371     -5.412656307      -15.29162216      -0.004149593879   -0.0137808891     -0.1332803816     -0.1599650681     
5380000000        0.2310587317      -0.2993425727     -7.027782917      -14.55514526      -0.005615991075   -0.012979961      -0.1114052385     -0.1222926602     
5420000000        0.2124375552      -0.2994419932     -8.289692879      -13.52486515      -0.006736645475   -0.01354283188    -0.1340101659     -0.1178989708     
5460000000        0.1879101396      -0.3300490379     -9.636070251      -12.50615215      -0.007847367786   -0.0120524168     -0.1367545426     -0.06599248201    
5500000000        0.1633431762      -0.3371095061     -10.65303516      -11.20479393      -0.009101813659   -0.01291440707    -0.2004280537     -0.09638477862    
