! RsaToolbox (C) 2015 Rohde & Schwarz America
! 
! Number of points: 50
! Number of ports: 2
! Balanced ports?: No
! 
! 
# Hz S RI R 50
2100000000        0.4033015966      0.3836713731      23.10608101       13.17374897       -0.0004079226637  -0.001946681528   -0.120144181      0.3464138806      
2140000000        0.4457014203      0.33104527        23.96797943       11.57157516       -0.0005458102096  -0.001880955417   -0.08292541653    0.4172317088      
2220000000        0.5340224504      0.231670171       25.02630806       9.278286934       -0.0004769890802  -0.002016890561   -0.00313372165    0.4359417558      
2300000000        0.6067949533      0.1033030376      26.96638107       6.696238518       -0.0005966785247  -0.00221532071    0.1088771746      0.420697242       
3700000000        -0.3392270505     0.1863013059      -18.49283218      20.70544624       0.001080275862    0.008302411065    0.02099876851     -0.06115021184    
3740000000        -0.3143728077     0.2050616294      -15.20449734      21.88441086       0.001600355143    0.007856167853    0.003337416099    -0.09051176161    
3780000000        -0.3007622957     0.2365485132      -12.95499802      23.09283447       0.002597637009    0.008033706807    0.04702342302     -0.05819462985    
3820000000        -0.2611892223     0.2607094049      -10.97014999      24.39737701       0.002922084415    0.007797270082    0.005701770075    -0.04104995728    
3860000000        -0.2515934408     0.2819773555      -7.364943027      24.49707794       0.003890558379    0.007568419911    0.01595249586     -0.06348670274    
3900000000        -0.2069149166     0.2999505401      -5.337587357      25.38887405       0.004372866824    0.007633546833    0.01866963506     -0.05501743406    
3940000000        -0.200084269      0.3166096807      -1.594709873      24.47242355       0.005159565248    0.006835086737    0.03311906382     -0.07127264142    
3980000000        -0.1473982036     0.3317542374      0.2090613246      25.56855965       0.005709839985    0.007066004444    0.03957112879     -0.02416930906    
4020000000        -0.1374063343     0.3372015655      3.491459608       23.90129852       0.006374638062    0.005982913543    0.0005410625599   -0.06876894832    
4060000000        -0.09284090251    0.3484210372      5.29316473        23.80512619       0.006952126045    0.006152038928    0.05061201751     -0.05030716583    
4100000000        -0.0677832365     0.3492250443      7.768686295       22.9315815        0.007205490954    0.005171609577    0.02852986194     -0.07064751536    
4140000000        -0.03022091463    0.3586678803      9.576610565       21.45651245       0.008224034682    0.005196396261    0.07454677671     -0.03273549303    
4180000000        -0.002506722696   0.3430889249      11.71923828       20.61104393       0.008218580857    0.004116332624    9.419501293e-05   -0.05665978789    
4220000000        0.01362919435     0.3684947789      13.31409836       17.77532959       0.009359371848    0.003693102859    0.0624557212      -0.07372793555    
4260000000        0.06767882407     0.3381296396      15.15387154       17.29601479       0.008784954436    0.002955325879    0.0296886377      -0.07265384495    
4300000000        0.07651294768     0.3395635188      16.7261467        14.64636898       0.01004058868     0.002383704297    0.0789385438      -0.07107082009    
4340000000        0.1152276993      0.3340877891      17.83279037       12.85661125       0.009462850168    0.001504457556    0.02435268089     -0.05279412493    
4380000000        0.1400919706      0.3242893219      19.14385033       10.91143799       0.0105859451      0.0006375309313   0.05307162926     -0.10380961       
4420000000        0.1706991941      0.299964577       19.74609375       8.582865715       0.00994183775     -5.877118383e-06  0.04368231446     -0.07973697782    
4460000000        0.1796113253      0.2983753383      20.30973244       6.338668346       0.01067613531     -0.001051755273   0.05807770416     -0.09867566824    
4500000000        0.2247469574      0.2824796438      20.30976677       4.133171082       0.01026247628     -0.001686428208   0.04278887808     -0.06641630083    
4540000000        0.2306770235      0.2520520091      20.60676193       2.427384377       0.01039225236     -0.002735965187   0.0207642056      -0.1126210839     
4580000000        0.2599016428      0.2443813086      20.51176834       0.501267314       0.0105628632      -0.003315877635   0.05649487674     -0.1054731086     
4620000000        0.2685147524      0.2131289989      20.0034771        -1.589738846      0.009784549475    -0.004652740434   0.02546023205     -0.1153495684     
4660000000        0.2966439128      0.2042235285      19.65294838       -3.608654261      0.01032175682     -0.005015290808   0.05350025743     -0.1112278625     
4700000000        0.304900229       0.1622061431      18.74320221       -5.611206055      0.009073427878    -0.00647095032    -0.0004462446086  -0.1211689785     
4740000000        0.3199011683      0.1542640924      17.93061638       -7.319036007      0.009592311457    -0.006667680573   0.04951706156     -0.1398061067     
4780000000        0.3330699503      0.1123541668      16.92467117       -8.976782799      0.008275066502    -0.008022337221   0.009162426926    -0.1173442826     
4820000000        0.3445352316      0.1015723944      15.3466444        -10.46391869      0.008622397669    -0.008448623121   0.02727047354     -0.1398014128     
4860000000        0.3529737294      0.05564953387     14.32052612       -12.0073595       0.00716235768     -0.009492452256   -0.01437861938    -0.1228016466     
4900000000        0.3500648737      0.04628907517     12.55492592       -13.10977554      0.00709932996     -0.01009935886    0.002790851053    -0.1625600308     
4940000000        0.3661720157      0.002778568305    11.20754623       -14.30536652      0.005924964324    -0.01067064609    -0.006842245813   -0.1280766726     
4980000000        0.3546793163      -0.01841187291    9.587604523       -14.99452019      0.005310622975    -0.01158672664    -0.02764130384    -0.1528192461     
5020000000        0.3657295108      -0.05297729746    7.903213501       -15.70919228      0.004382707179    -0.01167248469    -0.02417523228    -0.1404889673     
5060000000        0.3475321829      -0.07640058547    6.220932484       -16.2334938       0.003212633543    -0.01276260708    -0.04916637391    -0.1605925411     
5100000000        0.3599286675      -0.1116321161     4.45788908        -16.53732491      0.002673456445    -0.01246247999    -0.02878796309    -0.1457176358     
5140000000        0.3291018903      -0.139585197      2.662588835       -16.80025291      0.0008967826143   -0.01361824572    -0.08287389576    -0.1423666179     
5180000000        0.3392465711      -0.1647643149     1.006717205       -16.62063026      0.0004503660602   -0.01302250568    -0.06309734285    -0.1600498855     
5220000000        0.3118383884      -0.1985087544     -0.6088780761     -16.67448616      -0.001130415476   -0.01385988854    -0.08356077224    -0.1448294073     
5260000000        0.304802686       -0.218162179      -2.307605267      -16.18397903      -0.001716722734   -0.01345999725    -0.07612622529    -0.1509928107     
5300000000        0.2765631974      -0.2469699979     -3.874586821      -15.77622795      -0.003267056774   -0.01355982851    -0.1134736612     -0.1161752492     
5340000000        0.2702828944      -0.2629729211     -5.472030163      -15.00872898      -0.004116045777   -0.01375042461    -0.1340863705     -0.1589042693     
5380000000        0.235126406       -0.3020657301     -6.997818947      -14.25568771      -0.005598414224   -0.01298353635    -0.111863099      -0.121885404      
5420000000        0.2145098895      -0.3018483222     -8.298352242      -13.22195148      -0.006697861012   -0.01352369413    -0.1349659413     -0.1161748543     
5460000000        0.1921312064      -0.3344926238     -9.611562729      -12.26036644      -0.007840740494   -0.01203976944    -0.1366804689     -0.06491074711    
5500000000        0.1645783782      -0.342404753      -10.66023064      -10.89234924      -0.009092439897   -0.01291076373    -0.2014761865     -0.09550739825    
