! RsaToolbox (C) 2015 Rohde & Schwarz America
! 
! Number of points: 101
! Number of ports: 2
! Balanced ports?: No
! 
! 
# Hz S RI R 50
1500000000        -0.3810571134     0.3624403775      -28.44583702      54.56559753       0.001575212926    -0.001844163169   -0.2158376724     0.025813099       
1540000000        -0.3226881921     0.3964379132      -18.16205978      56.17510223       0.001221730257    -0.001871254412   -0.2293716818     0.05684723705     
1580000000        -0.2514687777     0.4268592         -10.55952454      56.70477676       0.001135162544    -0.002131902846   -0.2274868339     0.03375683725     
1620000000        -0.1962605119     0.4423123002      -1.572444916      55.9908638        0.0009157525492   -0.002033458557   -0.2213327885     0.07557400316     
1660000000        -0.1319078803     0.4544075429      5.404666901       52.92042923       0.000689847162    -0.002273054328   -0.2360512018     0.07147724926     
1700000000        -0.07619553059    0.4564440548      11.95410347       49.72621918       0.0005616943236   -0.002188528189   -0.2349985987     0.1025088429      
1740000000        -0.02325832099    0.4531159699      17.30859184       45.31900787       0.0002574871178   -0.00228521903    -0.2510503829     0.1051977053      
1780000000        0.0243800804      0.4525007308      21.26014709       41.12217712       0.000273446436    -0.002189323539   -0.2346368879     0.1342247874      
1820000000        0.06931675971     0.4469079077      25.00378799       36.39142227       -0.0001167259034  -0.002164490055   -0.2459926307     0.1646708846      
1860000000        0.1145765334      0.4322392941      26.71062279       31.51203346       -6.861133443e-06  -0.002176262205   -0.2453286648     0.1844094396      
1900000000        0.1606228501      0.4220824242      28.53377342       26.71416092       -0.000372235605   -0.002016385552   -0.2396846414     0.2222301513      
1940000000        0.2022262812      0.4029642642      28.52574158       22.55230522       -0.000226643926   -0.002090704162   -0.2227622718     0.2339067161      
1980000000        0.243948102       0.3906080723      28.75707626       19.27641296       -0.0005492087803  -0.001903166645   -0.1997121572     0.3044723868      
2020000000        0.287661016       0.3682705462      27.98470306       16.40745544       -0.0003419104905  -0.001910964726   -0.1857265979     0.2997742891      
2060000000        0.3287668824      0.3427622914      27.7568512        14.29793167       -0.0005320144119  -0.00183348346    -0.1683469564     0.3567525744      
2100000000        0.3730455041      0.3172123432      27.25425339       12.36790371       -0.0003923219047  -0.001944836229   -0.1218860745     0.3468454182      
2140000000        0.411629349       0.2796840072      27.11100388       11.20860672       -0.0005358398193  -0.001879230258   -0.08436196297    0.4184291065      
2180000000        0.4585057497      0.2444939911      27.73695755       9.5677948         -0.0005162953166  -0.002025678987   -0.02299855277    0.402102381       
2220000000        0.4961945415      0.1883235574      28.3404789        8.560209274       -0.0004623775312  -0.002023904817   -0.004551574588   0.4371035993      
2260000000        0.524153173       0.1358092725      30.06831932       6.86929512        -0.0007433798746  -0.002312630415   0.07879696786     0.4058155715      
2300000000        0.5535892844      0.07131674886     30.6525631        5.696564674       -0.0005697397864  -0.002237454522   0.1069773436      0.4233233035      
2340000000        0.5674744248      -0.001209583133   33.13545609       3.387501717       -0.001066481229   -0.002654453972   0.1754211336      0.4062655866      
2380000000        0.5786820054      -0.07109092176    34.31656647       0.458720088       -0.0008753630682  -0.002588080941   0.2093980312      0.3853646815      
2420000000        0.5615079403      -0.1495288312     36.00305939       -3.37591362       -0.001604924793   -0.002922973828   0.2629740238      0.3485485613      
2460000000        0.5484703779      -0.2177694738     35.91960144       -7.674292564      -0.001441756729   -0.002845869167   0.3031414151      0.3004266918      
2500000000        0.5171076059      -0.2950477302     36.47886276       -11.94894886      -0.002291409997   -0.002997297095   0.3224222064      0.2863500118      
2540000000        0.4801902175      -0.3531175256     35.40459442       -17.05554199      -0.00228743325    -0.002994382754   0.3489198983      0.2077081949      
2580000000        0.4331833422      -0.4165820181     34.21007538       -21.17840958      -0.002985755447   -0.002945858054   0.3491652608      0.2030099928      
2620000000        0.3802755773      -0.4606070817     31.48532677       -27.05217361      -0.003317717696   -0.002908403985   0.381416887       0.09141414613     
2660000000        0.3139207661      -0.5076056719     28.345047         -29.84432793      -0.003553102724   -0.00245055696    0.3492312431      0.1176216006      
2700000000        0.2472510487      -0.5250845551     23.85496902       -34.64138412      -0.004450806882   -0.00258551212    0.3700823188      0.01667604037     
2740000000        0.1888669133      -0.5612035394     20.1031208        -36.92425156      -0.004251727834   -0.001693618833   0.3324226737      0.022352539       
2780000000        0.1057808474      -0.56029737       14.14571953       -39.85720825      -0.005148666911   -0.002027027076   0.332518518       -0.03892183304    
2820000000        0.05176524818     -0.5662779212     9.1273489         -41.09496689      -0.004952467047   -0.0009181912174  0.3193956912      -0.05425023288    
2860000000        -0.02467392385    -0.5565005541     3.584664106       -42.22340012      -0.005628063809   -0.0009883453604  0.2761371136      -0.08206664771    
2900000000        -0.07506479323    -0.5399366021     -2.334260941      -41.835289        -0.005614271853   -0.000173169261   0.2847206891      -0.1167898402     
2940000000        -0.1468607038     -0.5226233006     -7.241038799      -41.35899353      -0.005882270169   0.0003741327091   0.2266776264      -0.1091061756     
2980000000        -0.1868937165     -0.4927704036     -12.11756706      -39.41481781      -0.0058583715     0.000646722503    0.2270288765      -0.143378824      
3020000000        -0.2387175858     -0.4618148506     -16.03865051      -37.80275345      -0.005974419415   0.001647099853    0.1867378503      -0.1270682365     
3060000000        -0.2791501284     -0.4226383567     -21.19324875      -34.48729324      -0.006019234657   0.001873740111    0.171522975       -0.1722109318     
3100000000        -0.3272217512     -0.3839876056     -24.31888771      -31.62267113      -0.005605588201   0.002772042993    0.1662378609      -0.1321623921     
3140000000        -0.3467030525     -0.3393176496     -28.06747437      -27.85589218      -0.005948457867   0.003008042229    0.1147722676      -0.1622332484     
3180000000        -0.3789956868     -0.3033830523     -30.4111042       -23.88986588      -0.005055563524   0.003885112936    0.1243209988      -0.1442198157     
3220000000        -0.3918928206     -0.2505530417     -32.98274994      -19.64816666      -0.005578880664   0.004096513614    0.07356628031     -0.1553567052     
3260000000        -0.4145837724     -0.2163068503     -34.40011215      -15.09351349      -0.004520929884   0.004798305687    0.1187183782      -0.1533335        
3300000000        -0.4244450331     -0.160981521      -35.59025574      -11.08850861      -0.004885841161   0.00536814006     0.04256122559     -0.1105308235     
3340000000        -0.4269345999     -0.1300940961     -35.37774277      -7.07091713       -0.003805709304   0.005669590551    0.07536270469     -0.1525018364     
3380000000        -0.4307832122     -0.07371854037    -35.48588181      -3.130899906      -0.003882172517   0.00644920487     0.02003956586     -0.1056877822     
3420000000        -0.429009825      -0.0392223224     -35.25971603      0.7703143358      -0.003019844415   0.006156139541    0.06715173274     -0.1533376724     
3460000000        -0.4206094146     0.006375752855    -33.98864365      5.29588604        -0.002776954789   0.00736922631     0.0274948813      -0.0623976849     
3500000000        -0.4193979502     0.03922992945     -32.55709457      9.23601532        -0.002035208978   0.006732619833    0.01945205033     -0.1284141839     
3540000000        -0.4000702798     0.08838164806     -30.88474083      11.90598869       -0.001566729741   0.007967452519    0.0128222378      -0.07325030863    
3580000000        -0.3868484199     0.1073243693      -29.29591751      15.08640385       -0.0008921875851  0.007288243156    0.02044901066     -0.1339602172     
3620000000        -0.373701185      0.1525752246      -26.50142479      17.65476799       -0.0002090378548  0.008281225339    0.04014947638     -0.04763462022    
3660000000        -0.3431732357     0.1702529192      -24.04416656      20.26848602       0.00027378308     0.007510185242    -0.005290787667   -0.08861488849    
3700000000        -0.3343915641     0.207776472       -21.03050423      22.60632133       0.00109380018     0.008317092434    0.02282878384     -0.0601278469     
3740000000        -0.2974610031     0.2294556797      -18.35987854      24.1153183        0.001584627549    0.007871763781    0.0004892123397   -0.09228681028    
3780000000        -0.2863464653     0.2554459274      -15.3058815       25.55724144       0.002601845888    0.008015720174    0.04811502248     -0.0580326356     
3820000000        -0.249085024      0.2751242816      -12.4937439       26.24458313       0.002891351935    0.007829551585    0.004702161998    -0.04116786644    
3860000000        -0.2302086055     0.2933577299      -9.018424988      27.09527779       0.00383913354     0.00757977739     0.01634920575     -0.06518885493    
3900000000        -0.1927721649     0.3104551733      -6.07059288       27.23198318       0.004335073754    0.007671029307    0.01798425615     -0.05371035263    
3940000000        -0.173328191      0.3184944391      -2.775731325      27.54070854       0.005124648102    0.006867430173    0.03362412006     -0.07344670594    
3980000000        -0.1351285428     0.3373529911      -0.0130122751     27.034935         0.005706144497    0.007111153565    0.0393182002      -0.02214230224    
4020000000        -0.1133611649     0.334944874       2.884647369       26.47343445       0.006366554648    0.006034088787    3.871321678e-05   -0.07078641653    
4060000000        -0.08015266061    0.3517865539      5.239494801       25.60106659       0.006948532537    0.006199639756    0.05160315707     -0.04847863689    
4100000000        -0.05445421487    0.347668618       7.677193165       24.62624741       0.007207533345    0.005237857345    0.02715674788     -0.07331616431    
4140000000        -0.01662129909    0.360565573       9.94783783        23.20075417       0.008285931312    0.005229348782    0.07590930164     -0.03086877055    
4180000000        0.007645075209    0.3375489712      11.90441227       21.65956879       0.00824939087     0.004155191593    -0.0009573403513  -0.05767314509    
4220000000        0.02946126834     0.3613288701      14.071208         20.04516411       0.009391992353    0.00371060078     0.06321523339     -0.07598948479    
4260000000        0.07695493102     0.3345035911      15.67868042       18.07692146       0.00882610213     0.003012580331    0.02798040956     -0.07197055221    
4300000000        0.08398862928     0.3329945803      17.30195808       16.05710602       0.01007706113     0.002389539964    0.08234819025     -0.07115770876    
4340000000        0.123751387       0.3282510638      18.64383698       13.85023022       0.009531675838    0.001528707915    0.02182481624     -0.05223322287    
4380000000        0.1460273713      0.3172677755      19.84352684       11.64408779       0.01063424349     0.0006615180173   0.05305340886     -0.1036614403     
4420000000        0.1788841486      0.2919928432      20.60194397       9.005161285       0.009984023869    5.112029612e-06   0.04376736656     -0.07734607905    
4460000000        0.1813562959      0.28950122        21.01478004       7.045954704       0.0106931217      -0.001047256053   0.05899176747     -0.09909130633    
4500000000        0.2307102978      0.2728362978      21.30724907       4.579787254       0.01029396523     -0.001688512508   0.04280609637     -0.06454939395    
4540000000        0.2326031029      0.2428917587      21.20654869       2.638587475       0.01042518299     -0.002753048902   0.02098802477     -0.1123388335     
4580000000        0.2645458579      0.2363253087      21.33352661       0.6691850424      0.0105947163      -0.003352245782   0.05713934079     -0.1046885401     
4620000000        0.2717645466      0.2047242969      20.86742783       -1.36873877       0.009782734327    -0.004626600537   0.02623098157     -0.1154594198     
4660000000        0.2990897894      0.1980356574      20.44371223       -3.48878026       0.01036997326     -0.005045652855   0.05579620227     -0.1106596366     
4700000000        0.306391269       0.154217571       19.42272949       -5.696118355      0.009072449058    -0.006518756505   -0.0009552144911  -0.1210448071     
4740000000        0.3175678849      0.1469610035      18.57113075       -7.214141369      0.009571152739    -0.006707426626   0.05251757428     -0.1400061101     
4780000000        0.3292588294      0.1045287177      17.35655022       -9.038713455      0.008293920197    -0.008034690283   0.009456488304    -0.1167420745     
4820000000        0.3418287337      0.09369000793     16.22031975       -10.58601952      0.008624350652    -0.00848872494    0.02959315106     -0.1397144198     
4860000000        0.3507266641      0.04682222754     14.57280827       -12.266078        0.007128280587    -0.009502816945   -0.01298925001    -0.1218376979     
4900000000        0.3471689224      0.04017152637     13.18984509       -13.43688297      0.007078937255    -0.01012930088    0.004645061214    -0.1642016619     
4940000000        0.3627340496      -0.002074941061   11.67051697       -14.58392239      0.005947082769    -0.01069905236    -0.005096225534   -0.1276406199     
4980000000        0.3494517803      -0.02449004352    9.915464401       -15.29090691      0.005264847074    -0.01163196377    -0.0259510316     -0.1552702785     
5020000000        0.3587883711      -0.0551443845     8.372917175       -16.02305984      0.004371068906    -0.01165795419    -0.02295449376    -0.1410372555     
5060000000        0.3412381113      -0.07716518641    6.518738747       -16.38835526      0.003206525231    -0.01277885772    -0.04828895256    -0.1627832651     
5100000000        0.3499725759      -0.1140624732     4.866566658       -16.97789192      0.002667527413    -0.01247835439    -0.02755540609    -0.1459256709     
5140000000        0.3180106282      -0.1414681524     2.706431389       -16.88171005      0.0009292048635   -0.01362505089    -0.08272566646    -0.1440367699     
5180000000        0.3300890625      -0.1650420427     1.287097931       -17.01896858      0.0004487014376   -0.01305103861    -0.06308441609    -0.162111938      
5220000000        0.304202199       -0.1983366609     -0.5329903364     -16.96759033      -0.001115916763   -0.01390055381    -0.08359975368    -0.1452463865     
5260000000        0.2981565297      -0.2190060019     -2.242843628      -16.63196373      -0.001736832084   -0.01346796472    -0.07639045268    -0.1522608399     
5300000000        0.2704051435      -0.2454075366     -3.791791201      -16.15255165      -0.003270580899   -0.01356294658    -0.1122613251     -0.1168542355     
5340000000        0.2635902762      -0.2611557245     -5.408762932      -15.39369965      -0.00415275339    -0.01376768481    -0.1334965825     -0.1607491821     
5380000000        0.2306251228      -0.2986617088     -6.981821537      -14.6812849       -0.005633751396   -0.01300190017    -0.1109553725     -0.1218857616     
5420000000        0.2089641243      -0.2983526587     -8.303908348      -13.50978661      -0.006739201024   -0.01354727335    -0.1342952251     -0.117821604      
5460000000        0.1895541996      -0.3266917467     -9.568538666      -12.61120129      -0.007841622457   -0.0120419655     -0.137059927      -0.06622225046    
5500000000        0.1648217738      -0.3364133537     -10.64117718      -11.34495354      -0.009113671258   -0.01289726701    -0.2005458027     -0.09700775892    
