! RsaToolbox (C) 2015 Rohde & Schwarz America
! 
! Number of points: 22
! Number of ports: 2
! Balanced ports?: No
! 
! 
# Hz S RI R 50
4540000000        0.2246552855      0.2703575194      19.0451355        1.825003028       0.01028602943     -0.00270942389    0.01905656047     -0.1131563187     
4660000000        0.2989743948      0.2206320167      18.08001709       -3.819067001      0.01026819646     -0.004937272985   0.04955920577     -0.1111629307     
4700000000        0.3069458902      0.1830632389      17.29315376       -5.465828419      0.008987085894    -0.006473794114   0.0004935115576   -0.1217394546     
4740000000        0.3257187903      0.1711089313      16.398489         -7.240283012      0.009538635612    -0.006578883622   0.04544080794     -0.1396105587     
4780000000        0.3371429741      0.1270070076      15.77968216       -8.713588715      0.008201989345    -0.008005947806   0.009437425062    -0.1176916957     
4860000000        0.358877033       0.06717857718     13.53362465       -11.59536934      0.007163041271    -0.00942717772    -0.01545525156    -0.1230661049     
4900000000        0.3670954108      0.05933832005     11.11578751       -12.57446861      0.007084233221    -0.01003910508    0.0005662678741   -0.1607073098     
4940000000        0.3757861257      0.01358854305     10.35574818       -13.67642975      0.005882240366    -0.01057489961    -0.008475329727   -0.1290350109     
4980000000        0.3668052256      -0.01017290447    8.751761436       -14.43819523      0.005337588023    -0.01151746418    -0.02978161909    -0.1513548642     
5020000000        0.3804497421      -0.04455282539    7.158349037       -14.94422245      0.004461416043    -0.01157570444    -0.02670565993    -0.1405671984     
5060000000        0.358613044       -0.07104191929    5.73549509        -15.73897362      0.003308562795    -0.01270393655    -0.05034083873    -0.158890292      
5100000000        0.3783358932      -0.108408764      3.668069839       -15.37981129      0.00274982932     -0.01237445418    -0.03085305355    -0.1458079517     
5140000000        0.3394543827      -0.1363086253     2.363504171       -16.21125221      0.0009706843994   -0.01355269365    -0.08395916224    -0.1404721141     
5180000000        0.3554503024      -0.1664901227     0.4660066366      -15.67182541      0.0005073716748   -0.01298084762    -0.0643216148     -0.1571913511     
5220000000        0.3236431479      -0.199216485      -0.8559798002     -15.96139812      -0.001051660161   -0.0138205383     -0.08474621177    -0.1441004276     
5260000000        0.3189759851      -0.222150743      -2.601332664      -15.3449955       -0.001657460234   -0.01340908743    -0.07835799456    -0.147460714      
5300000000        0.2878268063      -0.2525764704     -4.033207417      -15.02822876      -0.003225986846   -0.01352650858    -0.1141075715     -0.1148621142     
5340000000        0.2794239223      -0.2686345577     -5.664272308      -14.23513508      -0.004020304419   -0.01373836119    -0.1347075999     -0.1554978639     
5380000000        0.2470063269      -0.3091211915     -6.905662537      -13.48027992      -0.005529434886   -0.01295032725    -0.1124285161     -0.1210835204     
5420000000        0.2250344604      -0.3109207451     -8.281612396      -12.61119652      -0.006567909382   -0.01349661965    -0.1354435533     -0.1128331795     
5460000000        0.1996326149      -0.343775034      -9.476904869      -11.54989052      -0.007752531208   -0.01204447541    -0.1369699836     -0.06305288523    
5500000000        0.1724772751      -0.3538998663     -10.4721508       -10.23192692      -0.008919030428   -0.01298081223    -0.2012960762     -0.09242985398    
