! RsaToolbox (C) 2015 Rohde & Schwarz America
! 
! Number of points: 101
! Number of ports: 2
! Balanced ports?: No
! 
! 
# Hz S RI R 50
1500000000        -0.3836800158     0.3597621322      -28.23691559      53.29579544       0.001603265875    -0.00182599714    -0.2152835429     0.02645865828     
1540000000        -0.3299753666     0.3942855895      -17.94187927      54.83213425       0.001217544312    -0.001835780917   -0.2294930369     0.05654663593     
1580000000        -0.2554023862     0.4265143871      -10.71779156      55.81093216       0.001139444998    -0.002146512968   -0.2265104055     0.03450472653     
1620000000        -0.2001202554     0.4410998225      -1.479781628      54.91308212       0.0009158112225   -0.002061640844   -0.2210946828     0.07557654381     
1660000000        -0.1381233335     0.4555312097      4.768594742       52.50817871       0.0006781617994   -0.002302582841   -0.2362510562     0.07065735757     
1700000000        -0.08114353567    0.4574817121      11.44086552       49.31020737       0.0005735695013   -0.002170458669   -0.2346178144     0.1024812832      
1740000000        -0.02635717392    0.4586405754      17.02441025       45.25986481       0.0002571644145   -0.00227077608    -0.2511771917     0.1051882207      
1780000000        0.0239363499      0.4537627697      20.91827965       40.66501236       0.0002676587028   -0.002202742267   -0.235010922      0.1342623234      
1820000000        0.06825157255     0.4474053979      24.57957649       36.09881973       -0.0001006230013  -0.002153862733   -0.2452037483     0.1650697589      
1860000000        0.1170225367      0.4347252846      26.66412163       31.26119995       -7.704894415e-06  -0.002136650262   -0.2454097569     0.1830235124      
1900000000        0.1565525085      0.4238471091      28.0623455        26.67056084       -0.0004164946149  -0.002005220857   -0.2389358431     0.2227246463      
1940000000        0.2014801502      0.4074424803      28.36967659       22.82464981       -0.0002023487468  -0.002084976994   -0.2230121344     0.2338273078      
1980000000        0.2439057231      0.3942482173      28.65539169       19.41329956       -0.0005508309696  -0.001893611508   -0.1989540756     0.3037171066      
2020000000        0.2881492078      0.3709596694      27.81749725       16.49465561       -0.0003346817975  -0.001932101324   -0.1855365038     0.2993586957      
2060000000        0.3273728192      0.3480201066      27.50397682       14.54152107       -0.0005430948222  -0.00183248159    -0.1672046781     0.3563938141      
2100000000        0.373334229       0.3180086315      27.09156418       12.35441494       -0.0004013450525  -0.001944747521   -0.122509703      0.3471369445      
2140000000        0.4142558873      0.2846484184      27.08374214       11.35935211       -0.0005354653695  -0.001895923866   -0.08362731338    0.4190905988      
2180000000        0.4576010406      0.2436794639      27.46435165       9.490098          -0.0005331371794  -0.002022685716   -0.02313761413    0.4019399583      
2220000000        0.5003738403      0.1918591559      28.45972443       8.651285172       -0.0004692365183  -0.002031234326   -0.003415163606   0.437189281       
2260000000        0.5223441124      0.1342739761      29.80312347       6.819510937       -0.0007423382485  -0.002311986405   0.07821206748     0.4060613513      
2300000000        0.5550016165      0.06766228378     30.5703373        5.457777977       -0.0005680801114  -0.002232724568   0.1068346426      0.4226081371      
2340000000        0.5662420392      -0.004753256217   32.94578171       3.121303082       -0.001058676164   -0.002641855273   0.1755476743      0.4065720141      
2380000000        0.5772981644      -0.06913207471    34.10387039       0.5716311932      -0.000883441011   -0.002588944277   0.2088064849      0.3846087158      
2420000000        0.5662621856      -0.1462426335     36.08486176       -3.165633917      -0.001590401633   -0.002896510065   0.263160497       0.3487688005      
2460000000        0.5517262816      -0.2149650455     35.91791916       -7.471539021      -0.001420174027   -0.0028451588     0.3034689724      0.3006600738      
2500000000        0.5185501575      -0.2944381237     36.45459747       -11.80048943      -0.002263804432   -0.002992738038   0.3220823705      0.285820663       
2540000000        0.484380424       -0.3504216671     35.43723679       -16.75782776      -0.002272668295   -0.002996636555   0.348549217       0.2072563171      
2580000000        0.4251892567      -0.4137387574     33.52928543       -21.10422325      -0.003016254632   -0.002912482945   0.3513365984      0.2035457492      
2620000000        0.3790780306      -0.45930475       31.21604538       -26.90704727      -0.003297438147   -0.002898837673   0.3811679482      0.09196446091     
2660000000        0.3127137125      -0.5079282522     28.17923737       -29.61566734      -0.003594086971   -0.002433615737   0.3489933014      0.1165446043      
2700000000        0.2468208969      -0.5187789798     23.49370575       -34.25987244      -0.00445735734    -0.002582831308   0.3689781129      0.01695893332     
2740000000        0.184692055       -0.5603665113     19.72887611       -36.9414711       -0.004204271361   -0.001705904142   0.3313604295      0.02221490815     
2780000000        0.1131657138      -0.5564165115     14.23443794       -39.29667664      -0.00522634713    -0.002001215937   0.333787173       -0.03948634863    
2820000000        0.04924384877     -0.5606336594     8.773343086       -40.67026901      -0.004923133645   -0.0009222344961  0.3177776039      -0.05405744165    
2860000000        -0.02475689538    -0.5564022064     3.450563908       -42.19242859      -0.005621523596   -0.0009435978136  0.2765192389      -0.08108726144    
2900000000        -0.0733204782     -0.5401062965     -2.22505331       -41.64620209      -0.00561710773    -0.0001807239169  0.2838663161      -0.1167104617     
2940000000        -0.1421691477     -0.5161266327     -7.058036804      -40.70191574      -0.005864729639   0.0004117602657   0.2271351069      -0.1099327877     
2980000000        -0.1889402419     -0.4879339933     -12.21449947      -38.9562912       -0.005866070744   0.0007147953729   0.2253912538      -0.1432351023     
3020000000        -0.2430207282     -0.4549913108     -16.45414925      -37.22279739      -0.005944360048   0.001643651165    0.1868625134      -0.1283859611     
3060000000        -0.2752486467     -0.4217326939     -20.93893242      -34.15402222      -0.005969081074   0.001830953057    0.1710113138      -0.1727482677     
3100000000        -0.3236709833     -0.3850507736     -24.05564499      -31.53335571      -0.005578118842   0.00276725064     0.1656161845      -0.1321305931     
3140000000        -0.3446386755     -0.3359428346     -28.00686264      -27.43922424      -0.006006251089   0.003008132568    0.1149675846      -0.1616296172     
3180000000        -0.3774737716     -0.3025841415     -30.24217033      -23.81663704      -0.005051210523   0.003912988584    0.1235897243      -0.1455872208     
3220000000        -0.3913024068     -0.2533642054     -32.92415237      -19.58612061      -0.005583128426   0.004088674672    0.07317908108     -0.1555381417     
3260000000        -0.4143539369     -0.2157563418     -34.35340118      -15.10021877      -0.004554977175   0.004812183324    0.1188149601      -0.1535035074     
3300000000        -0.417111963      -0.1624854058     -35.08480453      -11.08850479      -0.004833426327   0.005325641483    0.04333885759     -0.1110541523     
3340000000        -0.4252700508     -0.1273983717     -35.19317627      -6.864502907      -0.003818695899   0.005684830714    0.07533580065     -0.1532351971     
3380000000        -0.4277433455     -0.07255804539    -35.16231537      -3.051670074      -0.003884586273   0.006460781209    0.01979103871     -0.105727464      
3420000000        -0.4278596044     -0.03763907403    -35.08955002      0.9605823755      -0.003042289056   0.00614360394     0.06932649761     -0.1533362269     
3460000000        -0.4205108881     0.007685296237    -33.9145546       5.37612915        -0.002798537957   0.007350270636    0.02751079947     -0.06197492033    
3500000000        -0.4160954654     0.03661735356     -32.34706879      9.042654991       -0.001996752806   0.006763732526    0.01926747337     -0.1274372935     
3540000000        -0.4007948041     0.08762995154     -30.87523842      11.83001041       -0.001544531435   0.0079659326      0.01239491627     -0.07343336195    
3580000000        -0.3846770823     0.1056948975      -28.9989624       15.02024078       -0.0008716536686  0.007282634266    0.02086411417     -0.1329388618     
3620000000        -0.3748292923     0.150116533       -26.61521912      17.49054146       -0.0002021041582  0.00829485245     0.0402832143      -0.04670187086    
3660000000        -0.3445421457     0.1704289019      -24.0018959       20.29728889       0.0002699206816   0.007514382713    -0.004920433275   -0.08900649846    
3700000000        -0.3348702788     0.2062948644      -20.94636154      22.56774902       0.001111539081    0.008315836079    0.02255824767     -0.06034393981    
3740000000        -0.2948204279     0.228018567       -18.06950569      23.96483994       0.001574761001    0.007861015387    0.0008673269767   -0.09240522981    
3780000000        -0.2843552828     0.2528263927      -15.16810608      25.36021614       0.002583132358    0.008021081798    0.04833162948     -0.05754541606    
3820000000        -0.2485285997     0.2767981887      -12.41229153      26.27015114       0.002901959233    0.007843092084    0.004205417354    -0.04163520038    
3860000000        -0.232602194      0.2924917936      -9.098316193      27.11740303       0.003859342774    0.007575975731    0.01697082445     -0.06460327655    
3900000000        -0.1907087117     0.3136772513      -5.84723711       27.40481567       0.004353384487    0.007662614342    0.01718942076     -0.05328277498    
3940000000        -0.1776506305     0.3190042078      -2.930297375      27.52318001       0.00512173865     0.006854704581    0.03330232203     -0.07363860309    
3980000000        -0.1360380352     0.3402828276      0.09653434157     27.20065498       0.005700299982    0.007126631215    0.03938319907     -0.02258674987    
4020000000        -0.1142185777     0.3353949487      2.817795992       26.45500755       0.006359809078    0.006019095425    -6.674416363e-05  -0.07066765428    
4060000000        -0.07965952158    0.3520963192      5.364724159       25.53411484       0.006974977907    0.006180025637    0.0524019748      -0.048865363      
4100000000        -0.05311774462    0.3463135362      7.79064846        24.47650719       0.007188282907    0.005234324839    0.02814404294     -0.07247406244    
4140000000        -0.017013181      0.3606018424      9.88663578        23.18647957       0.008270866238    0.005244174041    0.07572823763     -0.03072633222    
4180000000        0.009803938679    0.3404031396      12.06786919       21.69065285       0.008235200308    0.004163552541    -0.0004292740487  -0.05719707161    
4220000000        0.02856822684     0.3617808819      13.99595928       20.06183052       0.009392339736    0.003729373449    0.06289902329     -0.07516799867    
4260000000        0.0768911615      0.3348679245      15.74569798       17.94741631       0.008825769648    0.002984873019    0.02866835706     -0.07089170814    
4300000000        0.08523982763     0.3315370977      17.29284477       15.96484756       0.01006953046     0.002380051417    0.08201803267     -0.0714514479     
4340000000        0.1246975362      0.3270421624      18.65544128       13.77192211       0.00949034933     0.001553661772    0.02217215672     -0.05237853155    
4380000000        0.1466938108      0.3181643784      19.84845734       11.56796551       0.01064766385     0.0006347504677   0.0541780442      -0.1041206643     
4420000000        0.1775315255      0.2924830019      20.46331978       9.051974297       0.009999581613    -1.891875581e-05  0.04309162125     -0.07771173865    
4460000000        0.1820390671      0.2894636393      20.97977257       6.903503418       0.01067713741     -0.001046252553   0.05909537151     -0.09859303385    
4500000000        0.2319994271      0.2719866931      21.28670502       4.462265968       0.01031116303     -0.001676505432   0.04211530834     -0.06384500861    
4540000000        0.2330501676      0.2446819693      21.27684784       2.671259165       0.0104239881      -0.002737121424   0.02110501565     -0.1121386066     
4580000000        0.2630153894      0.2377383411      21.26705933       0.7361164093      0.01057972945     -0.003321147757   0.05703275278     -0.1053579152     
4620000000        0.2703864872      0.2055432647      20.72468948       -1.39806819       0.009825724177    -0.004652018193   0.02516105771     -0.1138181314     
4660000000        0.3006174266      0.1964764595      20.40685081       -3.583632946      0.01036060043     -0.005046939943   0.0550154373      -0.1102424189     
4700000000        0.304102093       0.1540230066      19.28108406       -5.619375229      0.009087702259    -0.006518216804   -0.0005607407074  -0.1213355511     
4740000000        0.3201643527      0.1466659755      18.61121178       -7.299893379      0.009616218507    -0.006692507304   0.05190676451     -0.1398241669     
4780000000        0.3310291469      0.1044820994      17.41577339       -9.10364151       0.008279659785    -0.008023967966   0.009284940548    -0.1163215786     
4820000000        0.3394603431      0.09221048653     16.01810455       -10.54953194      0.00860039331     -0.008497694507   0.0296889022      -0.139900893      
4860000000        0.3487427235      0.04917757958     14.62139606       -12.14883327      0.007172758691    -0.009531997144   -0.01308981609    -0.1233034655     
4900000000        0.3470565975      0.03968876973     13.20612812       -13.39294338      0.007067246363    -0.0101091722     0.004214290064    -0.1637317389     
4940000000        0.3628714681      -0.0004266519099  11.70022297       -14.50721931      0.005904702004    -0.01070501376    -0.004691781476   -0.1279330254     
4980000000        0.3482376635      -0.02493788674    9.8767519         -15.22010326      0.005268769339    -0.01159915328    -0.02633261308    -0.1549130529     
5020000000        0.3597317636      -0.0570583567     8.296674728       -16.07071686      0.004392721225    -0.01167055126    -0.02284108475    -0.1411914229     
5060000000        0.3422535062      -0.07861107588    6.511861801       -16.41111946      0.003204696579    -0.01275058184    -0.04822393134    -0.1624439657     
5100000000        0.3524892032      -0.1141485348     4.893362522       -17.03120995      0.002648992464    -0.01247938722    -0.02723575197    -0.1469463557     
5140000000        0.3210580051      -0.1392533034     2.805603266       -16.96096992      0.000874494086    -0.01359135192    -0.08220367134    -0.1440738142     
5180000000        0.3308031261      -0.1636846513     1.332355499       -16.97084427      0.0004586168798   -0.01302896999    -0.06275524199    -0.1614176929     
5220000000        0.3042208552      -0.197516799      -0.4624475539     -16.96721077      -0.0011430874     -0.01387016848    -0.08345083147    -0.1454501301     
5260000000        0.2986802459      -0.2144905031     -2.08590436       -16.4892025       -0.001754441881   -0.01349459868    -0.0758677572     -0.1521373987     
5300000000        0.2684474587      -0.2485054731     -3.984606743      -16.12930489      -0.003292479552   -0.01354737859    -0.1137389764     -0.1165664867     
5340000000        0.2630323172      -0.2613323331     -5.425161362      -15.30147266      -0.004165821709   -0.01376553066    -0.1339217275     -0.1610029638     
5380000000        0.229116559       -0.2974277437     -6.94048357       -14.62110043      -0.005641378462   -0.01298419293    -0.1117301062     -0.122055836      
5420000000        0.2108113468      -0.29753685       -8.253649712      -13.55313301      -0.006718860008   -0.0135086095     -0.1341611892     -0.1183153167     
5460000000        0.1870996207      -0.3301188946     -9.667227745      -12.58247662      -0.007828019559   -0.01205164008    -0.1368739903     -0.06647414714    
5500000000        0.1612880528      -0.3373871148     -10.71616554      -11.19761562      -0.009121184237   -0.01290941052    -0.2008339912     -0.09612347931    
