! RsaToolbox (C) 2015 Rohde & Schwarz America
! 
! Number of points: 98
! Number of ports: 2
! Balanced ports?: No
! 
! 
# Hz S RI R 50
1580000000        -0.2774927616     0.4317019284      -11.28839493      49.83578491       0.001158448867    -0.002133931033   -0.2255945802     0.0350080505      
1660000000        -0.1547375619     0.469858855       2.849041462       48.72213364       0.0006927338545   -0.002308959141   -0.23348777       0.0713454634      
1700000000        -0.09960898012    0.4696659446      10.48198318       45.47821426       0.0005571893416   -0.002171574626   -0.2350399345     0.1010758653      
1740000000        -0.038833756      0.4718029201      15.47278214       42.92234039       0.0002578387503   -0.002277210122   -0.2499375641     0.1046391502      
1780000000        0.01383857429     0.4698792994      19.13557053       39.37648392       0.0002291635901   -0.002205164172   -0.2349943519     0.1343113184      
1820000000        0.05955565721     0.4638082981      22.9241848        34.83469009       -0.0001550507295  -0.002163338242   -0.2451055199     0.1645341814      
1860000000        0.112079449       0.4478164613      24.90734673       30.93963432       -4.595464634e-05  -0.002175220056   -0.244656682      0.1826848835      
1900000000        0.1540285945      0.4422822595      26.87346077       25.73322868       -0.0003679546353  -0.001988251694   -0.2381757349     0.2220692337      
1940000000        0.2049197257      0.4206152856      27.40673065       22.60248184       -0.0002213597181  -0.002049057744   -0.2229051292     0.2334901989      
1980000000        0.2455753982      0.4046549499      27.53127289       19.27880096       -0.0005615288974  -0.001892494503   -0.1984421164     0.3027458191      
2020000000        0.2920595109      0.3838903606      26.84877777       16.65180397       -0.0003505640198  -0.001925107674   -0.1854516566     0.2993573248      
2060000000        0.333932817       0.3622558415      26.95686913       14.76580334       -0.000550658151   -0.001827012864   -0.1675587147     0.3563388288      
2100000000        0.3809525073      0.330793798       26.48128891       12.69234848       -0.000402764068   -0.001931075938   -0.121132493      0.3469760716      
2140000000        0.4228704572      0.2882927954      26.63420105       11.37457752       -0.0005443545524  -0.001872927882   -0.08415649831    0.4179654717      
2180000000        0.4688504338      0.2526981831      26.95969391       9.71935463        -0.0005226648645  -0.002026293427   -0.02322149277    0.4018055201      
2220000000        0.501506567       0.1963563561      27.59506035       8.870662689       -0.0004722261801  -0.002009905642   -0.004503320903   0.4362727404      
2260000000        0.5342235565      0.1391009986      29.62444496       6.908494949       -0.0007360778982  -0.002300274791   0.07837827504     0.4063682854      
2300000000        0.5658152699      0.07511807978     30.07899857       6.011680126       -0.0005996925174  -0.002244640142   0.1078874394      0.4222361147      
2340000000        0.5748957396      0.00253222324     32.51700974       3.301711798       -0.001083095791   -0.002643088577   0.1764941663      0.406488657       
2380000000        0.5835254788      -0.07266809046    33.5336647        0.5427376032      -0.0008845935226  -0.002573906444   0.2094783783      0.3850693703      
2420000000        0.5675886869      -0.147431314      35.34872437       -3.543024778      -0.001615222311   -0.00287986733    0.2631641626      0.3482126594      
2460000000        0.5571085215      -0.2174617648     35.23598862       -7.391472816      -0.001424907357   -0.002827538876   0.3032430112      0.3014387488      
2500000000        0.5189219713      -0.2925103009     35.31266785       -12.19460297      -0.002294469625   -0.002998475917   0.3217149079      0.2864478827      
2540000000        0.4838145077      -0.351339519      34.49068451       -16.87937164      -0.002264116891   -0.003009620355   0.3494852185      0.2054949701      
2580000000        0.4311092794      -0.4084782898     32.03093719       -21.08595276      -0.00301662134    -0.00292205438    0.3531600833      0.2019781172      
2620000000        0.3810801506      -0.4516949952     30.05865669       -26.32421684      -0.003279797966   -0.002884513699   0.3802196085      0.09161275625     
2660000000        0.3134698272      -0.5072860718     26.95851326       -29.43085861      -0.00356792775    -0.00244677579    0.3501157761      0.1161331758      
2700000000        0.2547548413      -0.5108628273     20.5159111        -33.29874039      -0.004426302854   -0.002592906123   0.3687804937      0.01717061549     
2740000000        0.1846302152      -0.5547021627     19.07502365       -36.19659042      -0.004193586763   -0.001706988318   0.3323388696      0.0210968554      
2780000000        0.1260821521      -0.5461697578     11.13544559       -37.25970459      -0.005126473494   -0.002038702834   0.3297061622      -0.0387788713     
2820000000        0.05317860469     -0.5611340404     8.175642014       -40.06895828      -0.004903401714   -0.0009521741304  0.3190595806      -0.05526525527    
2860000000        -0.01578112319    -0.5503902435     2.009713411       -40.43826675      -0.005623664241   -0.0009784668218  0.2764140069      -0.08123959601    
2900000000        -0.06539493799    -0.5348988771     -2.889543533      -39.91801453      -0.005533838645   -0.0001361294126  0.2819932997      -0.1159487292     
2940000000        -0.1318106651     -0.5171682239     -7.25636673       -39.55103683      -0.005857926793   0.0003735537757   0.227338478       -0.1094874144     
2980000000        -0.1748753637     -0.4927864671     -12.2457571       -37.4060173       -0.005868244916   0.0006665909896   0.2257227451      -0.141861558      
3020000000        -0.2334213853     -0.4556300044     -16.21212196      -36.20659637      -0.005905468948   0.001676176907    0.1864023954      -0.1285232902     
3060000000        -0.2631955147     -0.4231958389     -20.47654343      -32.19733429      -0.005971836392   0.001875578542    0.1705520004      -0.1705261618     
3100000000        -0.3167961538     -0.3814386427     -23.60408211      -30.40563011      -0.00556173129    0.002763593337    0.1660862416      -0.1327047199     
3140000000        -0.3350518048     -0.3424539566     -27.42375946      -25.96447754      -0.005975830369   0.003064788179    0.1145013049      -0.1609190702     
3180000000        -0.3731111884     -0.3034752011     -29.75222588      -23.01835632      -0.00504701212    0.003888320178    0.1240800321      -0.1454328597     
3220000000        -0.3837128282     -0.2567330003     -32.03501892      -18.34938049      -0.005563932005   0.00407593511     0.07403707504     -0.1547739208     
3260000000        -0.4105881155     -0.216723159      -33.70031357      -14.40451813      -0.004522566684   0.004815857392    0.1184124276      -0.1542108506     
3300000000        -0.4178798497     -0.1615676284     -34.6870079       -10.27533245      -0.004880756605   0.005356187467    0.04317163676     -0.1112064719     
3340000000        -0.422398746      -0.1325294673     -34.25358963      -6.277598381      -0.003813884454   0.005664078519    0.0735065937      -0.1526285559     
3380000000        -0.4260270298     -0.07853718102    -34.55469894      -3.026189327      -0.0039045515     0.006430359557    0.02046092041     -0.106151551      
3420000000        -0.4281133711     -0.04040925577    -34.51673126      1.17254889        -0.003045186866   0.006158076692    0.06802211702     -0.1521529704     
3460000000        -0.4167196453     0.002282008529    -33.06560898      5.395609379       -0.002795462729   0.007343019824    0.02788099647     -0.06335697323    
3500000000        -0.4179745317     0.03420206159     -31.83708572      9.135279655       -0.00197653356    0.006758719683    0.01888888329     -0.1267286539     
3540000000        -0.3989550471     0.08361934125     -30.34749413      11.67321396       -0.001552797272   0.007958075032    0.01194998063     -0.07400823385    
3580000000        -0.3859794438     0.1016099751      -28.28722         14.97276688       -0.0008556185057  0.007274734322    0.0200352706      -0.1326398551     
3620000000        -0.3731170893     0.1464018673      -26.11047745      17.18344688       -0.0001776271965  0.008261888288    0.04034374282     -0.04794799909    
3660000000        -0.3460209072     0.1665432602      -23.47263336      20.18299103       0.0003108596429   0.007533533964    -0.005086275283   -0.08837217838    
3700000000        -0.336586535      0.2036625892      -20.81114578      22.3146801        0.001109786564    0.008284062147    0.02163994312     -0.06002783403    
3740000000        -0.2988013029     0.226680696       -17.88550949      23.83999252       0.001582273981    0.007881111465    0.0008768164553   -0.09209630638    
3780000000        -0.2868521214     0.2520295084      -14.92728424      25.18476486       0.002604519483    0.008003757335    0.04833868891     -0.0579588078     
3820000000        -0.2497382164     0.2760101259      -12.14076996      26.11643982       0.00290102954     0.007805898786    0.004404802807    -0.0412655063     
3860000000        -0.2343878746     0.2906797826      -8.873840332      26.8055439        0.003853200935    0.007564173546    0.0167686455      -0.06496726722    
3900000000        -0.1950854659     0.3118047416      -5.945766449      27.13771629       0.004358300939    0.00765383523     0.01741151512     -0.05341077968    
3940000000        -0.1787088215     0.3174065351      -2.746385574      27.14629364       0.005142775364    0.00685606245     0.03368194029     -0.07308449596    
3980000000        -0.1370947808     0.3385840058      0.03020761907     26.96100616       0.005710703786    0.007095124107    0.03945452347     -0.02216873504    
4020000000        -0.1167494059     0.3353192508      3.003684521       26.12215996       0.006368427537    0.006033902522    0.0001735913102   -0.07066155225    
4060000000        -0.08073851466    0.3520320058      5.344150066       25.27622795       0.006970115937    0.006194490939    0.05200342461     -0.04868136719    
4100000000        -0.05624784902    0.3458867371      7.653715134       24.24897385       0.007209144067    0.005229922943    0.02821546607     -0.07249414176    
4140000000        -0.01940469071    0.3592227697      9.835662842       22.86832047       0.008251859806    0.005206360482    0.07582808286     -0.03110552393    
4180000000        0.005779549479    0.3391565979      11.81958961       21.59303474       0.008240697905    0.004165859427    0.0003964756615   -0.05704088137    
4220000000        0.02721303143     0.3612085879      13.98138618       19.68070221       0.00938101951     0.003706768854    0.06275819242     -0.07495059818    
4260000000        0.07666593045     0.3361074626      15.71187592       17.90837479       0.008819432929    0.002984967316    0.02878499776     -0.07147277147    
4300000000        0.08485171944     0.3330622017      17.28882027       15.74048519       0.01006585266     0.002389633097    0.08177959174     -0.07135026902    
4340000000        0.1220660582      0.3282723129      18.46329117       13.66507435       0.00950474944     0.001519869547    0.0227042716      -0.05264372751    
4380000000        0.145348981       0.3195956051      19.72807312       11.50694466       0.01063235011     0.0006569786929   0.05343353748     -0.1038109362     
4420000000        0.1776876003      0.2936731577      20.42723274       8.935131073       0.009995764121    -2.712957212e-05  0.04388556257     -0.07813813537    
4460000000        0.1801143736      0.2901906669      20.82044029       6.909905434       0.0106800748      -0.001033096574   0.05924255773     -0.09841885418    
4500000000        0.2286010832      0.2737098038      21.07445908       4.445501804       0.01031830255     -0.001682103961   0.04250395671     -0.06476692855    
4540000000        0.2315472364      0.2456201017      21.06884766       2.612612247       0.01040376909     -0.002757160924   0.02092603408     -0.1119026914     
4580000000        0.2622712851      0.2371093333      21.12227821       0.635484457       0.01059692353     -0.003347143065   0.05773155764     -0.1048019454     
4620000000        0.2703484595      0.2047783881      20.61135483       -1.4778198        0.009818181396    -0.00465262169    0.02488300949     -0.1149015874     
4660000000        0.2982414067      0.1989635676      20.25617981       -3.487592936      0.01033197716     -0.005029929336   0.05476290733     -0.1105651557     
4700000000        0.305729419       0.1550105661      19.2541008        -5.695618629      0.009092506953    -0.00650213426    -0.001132055186   -0.1204894781     
4740000000        0.3201835454      0.1491060406      18.50786209       -7.305318832      0.009607834741    -0.006714507937   0.05128373206     -0.1398654282     
4780000000        0.3327884674      0.1059612185      17.34706879       -9.130514145      0.00826803688     -0.008052749559   0.009474677965    -0.1171195358     
4820000000        0.3415951729      0.09531758726     16.02434921       -10.59037685      0.008614080958    -0.008482865989   0.02952415869     -0.1398937255     
4860000000        0.3522019982      0.05047351122     14.6621418        -12.2097168       0.007148627657    -0.00953082554    -0.01340202708    -0.1230817512     
4900000000        0.3467468917      0.04208507389     13.06364727       -13.2706089       0.00709288707     -0.01009327825    0.00401353091     -0.1627029926     
4940000000        0.362474978       -0.001254155301   11.60470963       -14.46574593      0.00589842815     -0.0106812194     -0.005779105239   -0.1275562346     
4980000000        0.3501937985      -0.02343812585    9.90631485        -15.20479298      0.005280725658    -0.01161951572    -0.02502968535    -0.153960973      
5020000000        0.3595325053      -0.05495461449    8.324943542       -15.9374218       0.004367902875    -0.01168305892    -0.02301316895    -0.1421963423     
5060000000        0.3436612785      -0.07822851092    6.488604546       -16.37760735      0.003177998355    -0.01274264976    -0.04783548787    -0.162134856      
5100000000        0.3524246812      -0.1127264127     4.792126656       -16.89764977      0.002658255631    -0.01248191297    -0.02762181498    -0.1468798518     
5140000000        0.3238590658      -0.1386296749     2.841724396       -16.96694565      0.0009122617776   -0.01359593682    -0.08210456371    -0.1444848925     
5180000000        0.3359623551      -0.1640971005     1.311164856       -17.05039787      0.000453406421    -0.01302042231    -0.06316194683    -0.1621361375     
5220000000        0.3056606054      -0.1969735324     -0.5128159523     -16.89506531      -0.001090356731   -0.01388406288    -0.08409260213    -0.1454748213     
5260000000        0.2977449596      -0.2163766623     -2.203791857      -16.48122787      -0.001737796003   -0.01348043419    -0.07600296289    -0.1519238949     
5300000000        0.2700543404      -0.247141853      -3.943789005      -16.05442429      -0.003283828963   -0.01357606519    -0.1134999618     -0.1165133566     
5340000000        0.2647193372      -0.261204809      -5.465592384      -15.24577427      -0.004162542056   -0.01379027497    -0.1334766001     -0.1603296846     
5380000000        0.2314267457      -0.2988786995     -7.009356499      -14.60534096      -0.005637018476   -0.01298914943    -0.1115183681     -0.1218110472     
5420000000        0.2122948319      -0.3001369536     -8.285967827      -13.55660534      -0.006708104629   -0.01352665573    -0.1343631744     -0.1178018078     
5460000000        0.1873687208      -0.3288094103     -9.628528595      -12.47415066      -0.00783081539    -0.01204665937    -0.1359857172     -0.06610564888    
5500000000        0.1597996503      -0.3380269408     -10.74403381      -11.09302902      -0.009089429863   -0.01289868075    -0.2004114389     -0.09646951407    
