! RsaToolbox (C) 2015 Rohde & Schwarz America
! 
! Number of points: 45
! Number of ports: 2
! Balanced ports?: No
! 
! 
# Hz S RI R 50
2140000000        0.4483450949      0.3373177946      23.53155327       11.52547169       -0.0005529250484  -0.00187257363    -0.08295661956    0.4170837998      
2220000000        0.5394356251      0.2382413         24.63768768       9.293931961       -0.00048409187    -0.002013196005   -0.002736151218   0.4360871911      
3700000000        -0.3408137262     0.1827318519      -18.22233772      20.43295097       0.001084574964    0.008310198784    0.02136405557     -0.06136583537    
3820000000        -0.2646196485     0.259226799       -10.80386257      24.14890289       0.002915477613    0.007797344122    0.006050635129    -0.0413753055     
3860000000        -0.2558825016     0.2811898291      -7.199877739      24.17266846       0.003880649805    0.007573198993    0.01611041836     -0.06306388974    
3900000000        -0.2087081075     0.2979541421      -5.270697594      25.06297493       0.004362341017    0.007619048934    0.01893679611     -0.0550288707     
3980000000        -0.1491957605     0.3308448792      0.2276839912      25.37147522       0.005710938945    0.007062666584    0.03954824433     -0.02444038726    
4020000000        -0.1401472241     0.3375632465      3.565282822       23.47821999       0.006382573862    0.005967718549    0.0008909748867   -0.06831992418    
4060000000        -0.0940104872     0.349824369       5.366947174       23.64911461       0.006961599458    0.006147427484    0.05054826289     -0.05059309304    
4100000000        -0.06966844201    0.3488056362      7.798755169       22.64725494       0.007206961047    0.005169252865    0.02864829823     -0.0700898543     
4140000000        -0.03197589517    0.3597787321      9.537106514       21.26223183       0.008217244409    0.005183122586    0.07430997491     -0.0331883207     
4180000000        -0.003644569777   0.3429223299      11.67470169       20.46113014       0.008227542043    0.004107492045    8.109712508e-05   -0.05642589182    
4220000000        0.01165894512     0.3693007231      13.19179249       17.48340607       0.009355213493    0.003702982096    0.06217112392     -0.0738908127     
4260000000        0.06622342765     0.3378619552      15.03668022       17.20024109       0.008786000311    0.00295327208     0.0298406966      -0.07342122495    
4300000000        0.07533610612     0.3425828218      16.68221474       14.52085114       0.0100519266      0.002382095437    0.07861793786     -0.07103842497    
4340000000        0.1141838357      0.3346824944      17.73739815       12.74460411       0.009467841126    0.001491316361    0.02508471906     -0.05304164812    
4380000000        0.1401807815      0.3264324069      19.11240768       10.80412292       0.01058333553     0.0006392524228   0.05287581682     -0.1042927876     
4420000000        0.1701216251      0.3005513251      19.66214561       8.523809433       0.009946559556    -2.414241317e-05  0.04385114834     -0.07945093513    
4460000000        0.1782623976      0.2976323962      20.17146683       6.206838608       0.01066260971     -0.00104120106    0.05796830356     -0.09834419936    
4500000000        0.223562479       0.2825948         20.14141846       4.041566372       0.01026035566     -0.001674735453   0.04319944978     -0.0667533204     
4540000000        0.2293773592      0.2534215748      20.50024033       2.424209833       0.01038478594     -0.002735945862   0.02096523717     -0.1128983125     
4580000000        0.2600136995      0.2450701892      20.43399048       0.4267071486      0.01055772603     -0.003319437848   0.0563717559      -0.1053263322     
4620000000        0.268633157       0.2147871852      19.90877914       -1.598289013      0.00977922231     -0.004647572059   0.02567553334     -0.1155697629     
4660000000        0.2983769476      0.2040524334      19.60675049       -3.676773787      0.01032910775     -0.005009756424   0.05351258442     -0.1109417006     
4700000000        0.3052599132      0.1641815901      18.66120911       -5.59601593       0.009072946385    -0.006479925476   -0.0004311022349  -0.1213635206     
4740000000        0.3196925521      0.1551659256      17.82980347       -7.291491032      0.009587516077    -0.006671281997   0.04938134551     -0.139484778      
4780000000        0.3316585124      0.1129114628      16.83886719       -8.941047668      0.00827955734     -0.008026212454   0.009428260848    -0.1172388867     
4820000000        0.3453291059      0.1032554507      15.30065155       -10.45565033      0.008616588078    -0.008453602903   0.02718564123     -0.1404073983     
4860000000        0.353071928       0.0566210635      14.24148273       -11.95793056      0.007164780982    -0.009494251572   -0.014495885      -0.1228973866     
4900000000        0.3510224521      0.04608192295     12.44878387       -13.12693214      0.007096231915    -0.01008905098    0.001989173237    -0.1620494574     
4940000000        0.3671157062      0.002869018354    11.15762711       -14.29055214      0.005908025429    -0.01067926362    -0.00729773147    -0.1278601885     
4980000000        0.3568663895      -0.02008391172    9.50239563        -15.0619669       0.005317159463    -0.01160511374    -0.02765920386    -0.1535116285     
5020000000        0.3673687279      -0.05213595182    7.894968987       -15.68606949      0.004381463397    -0.01166629326    -0.02460981905    -0.1405365318     
5060000000        0.348998189       -0.07480099052    6.254283905       -16.20513344      0.003217026358    -0.0127530843     -0.0491457656     -0.1604227424     
5100000000        0.3604604602      -0.1105246395     4.404225826       -16.45744324      0.0026585632      -0.01247610152    -0.02888038196    -0.1459366083     
5140000000        0.329377383       -0.1395191103     2.62886858        -16.75411797      0.0009208788979   -0.01360272802    -0.08306282014    -0.1421348751     
5180000000        0.34005934        -0.1625084281     1.052043796       -16.53008842      0.0004442197969   -0.01302410197    -0.06280826777    -0.1600731909     
5220000000        0.3110271096      -0.1961805373     -0.5924285054     -16.55129242      -0.001136152307   -0.01386355236    -0.08383881301    -0.1449910104     
5260000000        0.305313766       -0.2179404348     -2.315144062      -16.15890121      -0.001715110149   -0.01346078981    -0.07634874433    -0.150652349      
5300000000        0.2774804235      -0.2479548156     -3.902989149      -15.74650002      -0.003278142074   -0.01356544159    -0.1133769825     -0.1162446588     
5340000000        0.2691914141      -0.2641634941     -5.548003674      -14.94043159      -0.004125885665   -0.01376775745    -0.1343269944     -0.1593212187     
5380000000        0.2367049456      -0.3016620576     -6.969054222      -14.1996479       -0.005599267781   -0.01298076659    -0.1122563109     -0.1219751313     
5420000000        0.2154801935      -0.3029761016     -8.308232307      -13.19510269      -0.0066778576     -0.01353420224    -0.1347653419     -0.1162414551     
5460000000        0.191213578       -0.3339066207     -9.594655037      -12.16294575      -0.007831228897   -0.01202553511    -0.1365607381     -0.06490734965    
5500000000        0.1651041508      -0.3429634571     -10.63804626      -10.8523531       -0.009097616188   -0.01292117033    -0.2014702559     -0.09491779655    
