! RsaToolbox (C) 2015 Rohde & Schwarz America
! 
! Number of points: 53
! Number of ports: 2
! Balanced ports?: No
! 
! 
# Hz S RI R 50
2100000000        0.4008113444      0.3799192309      23.52503586       13.30813789       -0.0004091876908  -0.001938844565   -0.1204349473     0.3466455936      
2140000000        0.4451891482      0.3247783184      24.39865303       11.54190063       -0.0005416759523  -0.001874053734   -0.08334521204    0.4178152084      
2220000000        0.5319160819      0.2289284617      25.48057556       9.364502907       -0.0004798821174  -0.00201879465    -0.003125794232   0.4360481203      
2260000000        0.5605120659      0.1682379395      26.8789463        5.985768318       -0.0007335791597  -0.002315762453   0.07984231412     0.4070949852      
2300000000        0.6024879217      0.09892574698     27.45532608       6.656280518       -0.0005925529404  -0.002222763374   0.1082875803      0.421172291       
3540000000        -0.387165159      0.05981556699     -27.12139702      10.78851414       -0.001609633793   0.007909607142    0.01283013262     -0.07823212445    
3620000000        -0.369468838      0.1245821118      -23.44398308      15.88151646       -0.0002205551136  0.008244041353    0.04053182527     -0.05000100285    
3700000000        -0.3388775289     0.1876014471      -18.85395241      20.9244976        0.001097077387    0.008304377086    0.02129116841     -0.06115028635    
3740000000        -0.3129400909     0.2088095695      -15.61727142      22.22960281       0.001604938996    0.007853539661    0.003142470028    -0.09031926841    
3780000000        -0.2990278304     0.2387622744      -13.20772552      23.40794182       0.002613365185    0.008019963279    0.0473126322      -0.05847214535    
3820000000        -0.2605325878     0.2628311813      -11.1586647       24.65914917       0.002913088538    0.007795481477    0.00548059307     -0.04156446829    
3860000000        -0.2488368154     0.2824563682      -7.599367142      24.81778526       0.003887526924    0.007580525242    0.01604500227     -0.06351922452    
3900000000        -0.2057679743     0.3015718162      -5.474217892      25.66672134       0.004356622696    0.007629873697    0.01859830692     -0.05466694385    
3940000000        -0.1961064041     0.3173782825      -1.632113218      24.89437485       0.005164039321    0.006844984833    0.03302300349     -0.07140877098    
3980000000        -0.145961225      0.3326094747      0.1931335479      25.75688744       0.005713658407    0.007064988837    0.03975747153     -0.02386496961    
4020000000        -0.1335801184     0.3376723528      3.525550604       24.24151039       0.006388281938    0.005975864362    0.0007077355403   -0.06883456558    
4060000000        -0.09095360339    0.3500578105      5.349130154       24.07626343       0.0069584148      0.006155277602    0.05049989        -0.05013541505    
4100000000        -0.06634809077    0.3469665945      7.710364819       23.06220055       0.007207456511    0.00517397793     0.0286654681      -0.07091072202    
4140000000        -0.02835557982    0.3595083356      9.608133316       21.64236069       0.008233174682    0.005190111697    0.07468893379     -0.03265401721    
4180000000        -0.001185627189   0.3423317969      11.7209034        20.74866676       0.008230244741    0.004114347044    4.999956582e-05   -0.05667673796    
4220000000        0.01564755104     0.3668161035      13.45215607       18.02200317       0.009362299927    0.003698940855    0.06231855229     -0.07359374315    
4260000000        0.06934767962     0.3373157084      15.24626827       17.36485481       0.008784629405    0.002968735527    0.02959310263     -0.07277044654    
4300000000        0.07708784193     0.3402790129      16.79599571       14.88302898       0.01004390139     0.002371155657    0.07949742675     -0.07128150761    
4340000000        0.1165882945      0.3337741792      17.94828224       13.02314377       0.009474073537    0.001492038253    0.02404187806     -0.05252578855    
4380000000        0.1407046765      0.3246212304      19.22638702       11.02769947       0.01058737002     0.0006371300551   0.05337162316     -0.1040817723     
4420000000        0.171480909       0.2982629538      19.83196259       8.616801262       0.009948367253    -1.453775621e-05  0.04362220317     -0.07888449728    
4460000000        0.1794903129      0.2960677743      20.34824371       6.393106937       0.0106687732      -0.001040439471   0.05827011168     -0.09872101247    
4500000000        0.2244345099      0.2815122306      20.39349747       4.224888325       0.0102679003      -0.001674466301   0.0427195318      -0.06615263969    
4540000000        0.230005607       0.2506769598      20.65026665       2.440195084       0.01038696524     -0.002743774327   0.02099642716     -0.1127384529     
4580000000        0.2613219321      0.2431693673      20.64037895       0.4766857624      0.01057106815     -0.003320047632   0.05688592046     -0.1056658328     
4620000000        0.2689470351      0.2123954743      20.10183716       -1.589814663      0.009790610522    -0.004640811123   0.02552078664     -0.1152946502     
4660000000        0.2971271276      0.2037508935      19.74341393       -3.563733578      0.01034101937     -0.005018556025   0.05344745517     -0.1110388264     
4700000000        0.3043462336      0.1623724252      18.82107162       -5.594335556      0.009075881913    -0.006488747895   -0.00034624408    -0.1211493909     
4740000000        0.3200353682      0.1537080556      18.00330925       -7.330078602      0.009597460739    -0.006682266481   0.04983089864     -0.1397330612     
4780000000        0.3333043158      0.1113112643      16.97907448       -9.031437874      0.008279480971    -0.008017753251   0.008868805133    -0.1169326752     
4820000000        0.3439555764      0.1025486588      15.4995079        -10.44592762      0.008620360866    -0.008445641026   0.02758196183     -0.1404143274     
4860000000        0.352167964       0.05489547923     14.31323433       -12.00227737      0.007152894512    -0.009495914914   -0.01403883472    -0.1229876801     
4900000000        0.3506133854      0.04542391747     12.62972355       -13.17169285      0.007092983462    -0.01009905338    0.002051323187    -0.1623455584     
4940000000        0.3661360741      0.002178534865    11.2424202        -14.36716938      0.005919292569    -0.01068555284    -0.006440469529   -0.1277240515     
4980000000        0.3550762534      -0.02047681622    9.592069626       -15.07821083      0.005324175581    -0.01159318816    -0.02717955597    -0.1531446576     
5020000000        0.3650268316      -0.05184274912    8.033559799       -15.7006855       0.004387706518    -0.0116774179     -0.02433186583    -0.1404520869     
5060000000        0.3474447727      -0.07488953322    6.338056564       -16.19904327      0.003207069822    -0.01277540252    -0.04840327054    -0.1609198898     
5100000000        0.3587300479      -0.1126892343     4.452587605       -16.58563805      0.002662803046    -0.01246578991    -0.02838502266    -0.145864591      
5140000000        0.3271871805      -0.1396861076     2.651888847       -16.77947807      0.0009018838173   -0.01359599642    -0.08211453259    -0.1426186711     
5180000000        0.3395629823      -0.1648335606     1.08364892        -16.70509148      0.0004347239155   -0.01301748957    -0.06310401857    -0.1606620401     
5220000000        0.3097750545      -0.1982959509     -0.6323386431     -16.66151428      -0.001138765132   -0.01386367809    -0.08354643732    -0.1451250166     
5260000000        0.3042082787      -0.2168554515     -2.267943382      -16.24840927      -0.001739307656   -0.01346817426    -0.0763932392     -0.1515231133     
5300000000        0.2752796412      -0.249127984      -3.98802948       -15.83390522      -0.003262471175   -0.01356735919    -0.1137461662     -0.1164725944     
5340000000        0.2686367035      -0.2612730563     -5.420920372      -15.02219963      -0.004134567454   -0.01376166753    -0.13402614       -0.1587869972     
5380000000        0.235554412       -0.3006456196     -6.954467297      -14.29133797      -0.005614852533   -0.0129653886     -0.1118009463     -0.1220497265     
5420000000        0.2153154165      -0.3022895157     -8.282944679      -13.31550789      -0.006675739773   -0.01352838613    -0.1345995367     -0.1166428551     
5460000000        0.1912097186      -0.3324322402     -9.578455925      -12.26281166      -0.007825940847   -0.01203817409    -0.136790812      -0.0650350973     
5500000000        0.1643295139      -0.341588974      -10.66361332      -10.93526745      -0.009089657106   -0.01291232929    -0.2010090202     -0.09572713077    
