! RsaToolbox (C) 2015 Rohde & Schwarz America
! 
! Number of points: 101
! Number of ports: 2
! Balanced ports?: No
! 
! 
# Hz S RI R 50
1500000000        -0.3977649808     0.3619796038      -26.97518349      49.2843895        0.001610231702    -0.001846262719   -0.216023013      0.02795068175     
1540000000        -0.3464199007     0.3929370344      -16.56946564      49.97702789       0.001226352877    -0.001854477567   -0.2279886305     0.05670332909     
1580000000        -0.2668403089     0.4314247966      -10.90005398      52.89324188       0.001160703017    -0.002146670129   -0.2258030176     0.03412889317     
1620000000        -0.21430327       0.4454312623      -0.9026882052     51.784935         0.0009236285114   -0.002051785588   -0.2209045291     0.07467531413     
1660000000        -0.1458213776     0.4664124548      3.903115749       50.80952072       0.0006896319683   -0.002284326823   -0.2346042544     0.07145025581     
1700000000        -0.09067872167    0.4640927613      11.07790947       47.36588669       0.0005641374155   -0.002174232388   -0.2344279885     0.1013893932      
1740000000        -0.03723201901    0.4683296084      15.99731922       44.56833649       0.0002434041235   -0.002274991246   -0.2504148781     0.1049317122      
1780000000        0.01679482684     0.4630860686      19.88827324       40.12644577       0.0002297235769   -0.002219551709   -0.2341292053     0.1337053329      
1820000000        0.06590479612     0.4548558593      23.75301743       35.42181396       -0.0001204658765  -0.002181491116   -0.2455704808     0.16485928        
1860000000        0.1128651351      0.4386051297      25.522892         30.9971199        -6.475132977e-06  -0.002168120351   -0.2446464002     0.182629317       
1900000000        0.1536927223      0.4339924753      27.26060486       26.38313675       -0.0003790523624  -0.002040933585   -0.2385266274     0.2225301862      
1940000000        0.2025532126      0.4140950739      27.74346352       22.67975807       -0.0001895643654  -0.002073032549   -0.2227654457     0.2338792533      
1980000000        0.2445255518      0.3992821276      28.0389843        19.26554298       -0.0005676610745  -0.001900085481   -0.1987639666     0.3033047318      
2020000000        0.2908443809      0.3776427507      27.30875015       16.50139999       -0.0003470525262  -0.001921146293   -0.1855615526     0.2990567684      
2060000000        0.3316114247      0.3527930081      27.16099739       14.48379135       -0.0005415280466  -0.001821580343   -0.1679216027     0.3563525677      
2100000000        0.3800706267      0.326238215       26.94766235       12.56649208       -0.0004029793781  -0.001928607468   -0.1218689084     0.3468159437      
2140000000        0.4192665219      0.2834866047      26.81605721       11.20385838       -0.0005203880137  -0.001874470268   -0.08420090377    0.4177236557      
2180000000        0.4636476934      0.2478672713      27.18382454       9.5742836         -0.0005242027692  -0.001998359337   -0.0227583833     0.4027003348      
2220000000        0.4988768697      0.1939578354      27.87631035       8.872318268       -0.0004603416892  -0.002033228753   -0.004134856164   0.4368311465      
2260000000        0.5339093804      0.1383920759      29.95736313       6.940242767       -0.0007462353096  -0.002300396794   0.07834032923     0.4061603248      
2300000000        0.5638327599      0.06920620799     30.4294548        5.679905891       -0.0005697308807  -0.002234262181   0.1077545583      0.4227211475      
2340000000        0.5693734884      0.001955805346    32.66316986       3.37619257        -0.001044908655   -0.002643488813   0.1763366461      0.40641734        
2380000000        0.5797004104      -0.07169996202    33.71871567       0.5010693073      -0.0008753213915  -0.002596736653   0.2093852162      0.3857106566      
2420000000        0.563320756       -0.1443681419     35.4684639        -3.240537643      -0.001623039716   -0.00290442491    0.2639328837      0.3484499753      
2460000000        0.5522896051      -0.2166464478     35.42780304       -7.499046326      -0.001431930927   -0.002832802245   0.3034341633      0.3000091314      
2500000000        0.5212036967      -0.2903874218     36.03169632       -11.69451141      -0.002308663214   -0.003006997053   0.3211413026      0.2865953743      
2540000000        0.4841272533      -0.3490976095     34.99569702       -16.69901466      -0.00226229243    -0.003056812799   0.3496258259      0.2065706998      
2580000000        0.4317183793      -0.4140043557     33.14232254       -21.16046715      -0.003006672254   -0.002954947529   0.3517125249      0.2024656236      
2620000000        0.3805913925      -0.4517986774     30.73867416       -26.3437252       -0.003289592452   -0.002895059297   0.3818078637      0.09193462878     
2660000000        0.3111307025      -0.5056430697     27.61545181       -29.46891212      -0.003573001595   -0.002443496371   0.3492496312      0.1163893044      
2700000000        0.2505702674      -0.5144054294     22.0972805        -33.85445786      -0.0044479887     -0.002566371579   0.3679893315      0.01734927483     
2740000000        0.188521713       -0.5562995076     19.59388733       -36.37978745      -0.004266409669   -0.00170567038    0.3322585821      0.02066734992     
2780000000        0.1171721518      -0.5502855182     12.40191269       -38.39361954      -0.005152146332   -0.002028123708   0.3314325809      -0.03813312203    
2820000000        0.05329444259     -0.5622307658     8.625768661       -40.45859146      -0.004907126538   -0.0009383605793  0.31941998        -0.05566227809    
2860000000        -0.017975647      -0.5499324799     3.01667881        -41.21683884      -0.005666822661   -0.000962084916   0.2767278254      -0.08170568943    
2900000000        -0.06932688504    -0.5368936062     -2.51836729       -40.80848312      -0.005548810586   -9.268135182e-05  0.2840414941      -0.1172632426     
2940000000        -0.1384610683     -0.5152730942     -7.321017265      -40.1775589       -0.005879646167   0.0003823801235   0.2268474251      -0.1096988618     
2980000000        -0.1777930409     -0.4940716922     -12.00071335      -38.50156403      -0.005839421414   0.0007016442833   0.2265796065      -0.1427565515     
3020000000        -0.2396152169     -0.4591907859     -16.33803368      -36.91330338      -0.005952026695   0.001643375843    0.1873272359      -0.1276711226     
3060000000        -0.2704831362     -0.4234000742     -20.7962532       -33.33921432      -0.006017189007   0.001857206225    0.1715524495      -0.1712632626     
3100000000        -0.3184417784     -0.3808449507     -23.70667076      -30.77926064      -0.005594744347   0.002766106743    0.1654024869      -0.1327111572     
3140000000        -0.3395850956     -0.3400042951     -27.66331673      -26.78604507      -0.00600937428    0.003004420083    0.1152876765      -0.1608982384     
3180000000        -0.3756556511     -0.3028736115     -30.11034012      -23.40689278      -0.005045039114   0.003899192903    0.1242597625      -0.14531596       
3220000000        -0.3922683597     -0.2504474223     -32.90664291      -18.63606262      -0.005596374627   0.004073097371    0.07394646108     -0.1547743082     
3260000000        -0.4109045565     -0.2172584832     -33.88239288      -14.78224659      -0.004531038925   0.004791887011    0.1185856462      -0.1531137377     
3300000000        -0.419906646      -0.162705794      -35.02101898      -10.71392345      -0.004885994829   0.005335097201    0.04255202785     -0.111116387      
3340000000        -0.4252731502     -0.1287644506     -34.78338623      -6.44797039       -0.003816565964   0.005665078294    0.07498459518     -0.153812781      
3380000000        -0.4294606447     -0.07801426947    -35.10412979      -3.220175505      -0.003876089584   0.006470138673    0.02000279352     -0.1052294075     
3420000000        -0.4255482256     -0.03991500288    -34.64732742      1.007461071       -0.003030404449   0.006149333436    0.06853951514     -0.1524034142     
3460000000        -0.4154021144     0.003097237553    -33.33952332      5.22672987        -0.002788997022   0.007344392594    0.02739456296     -0.06300382316    
3500000000        -0.4190018773     0.03635777161     -32.15760422      9.237277031       -0.002010934288   0.006752385292    0.01943189278     -0.1277314574     
3540000000        -0.4004932046     0.08402256668     -30.70458031      11.68567085       -0.001576530281   0.007962274365    0.01173493825     -0.07399570942    
3580000000        -0.3849196732     0.1034521461      -28.62750053      14.90776348       -0.0008741926868  0.007287067827    0.02017509378     -0.1330193132     
3620000000        -0.374153018      0.1483592838      -26.3537693       17.30306435       -0.0002063244174  0.008259356953    0.04027779773     -0.04778429121    
3660000000        -0.3451420665     0.1687937081      -23.78756142      20.20134735       0.0002999053977   0.007539314218    -0.005077937618   -0.08932505548    
3700000000        -0.3341934979     0.2044653147      -20.85129356      22.3667469        0.001092369086    0.008301539347    0.02253383584     -0.05991587043    
3740000000        -0.2971946001     0.2266371399      -18.00010681      23.83902168       0.001585947       0.00789163541     0.0009564042557   -0.09269385785    
3780000000        -0.2867642641     0.2504673898      -15.13825607      25.17243385       0.002588371281    0.008034286089    0.04807812348     -0.05827467889    
3820000000        -0.249287501      0.2738950551      -12.32297134      26.0827961        0.002902434207    0.007817254402    0.004749452695    -0.04117003083    
3860000000        -0.2334747463     0.2920433581      -8.976831436      26.92931366       0.003865462262    0.007578288205    0.01703978144     -0.06464955211    
3900000000        -0.1945676357     0.3117310405      -6.019816399      27.24659729       0.004379845224    0.007650126237    0.01791814715     -0.05321175605    
3940000000        -0.1764259636     0.3180776238      -2.741645813      27.28043365       0.005149693694    0.006869126577    0.03349743783     -0.07321514189    
3980000000        -0.1358327121     0.3381343186      0.08137752116     26.97516823       0.005713126622    0.007086506113    0.03944026306     -0.02241164446    
4020000000        -0.1162342206     0.3354265988      2.985279322       26.2866993        0.006361479405    0.006006503943    0.000234863488    -0.07042787224    
4060000000        -0.08019199967    0.3514308929      5.294033527       25.39378738       0.006972282659    0.006158418488    0.05123855919     -0.0484155789     
4100000000        -0.05549340695    0.3452739716      7.646957874       24.36820602       0.007194197737    0.005220384803    0.02767283469     -0.07243157923    
4140000000        -0.0168103613     0.3607015014      9.940285683       23.0162735        0.008258062415    0.0052183019      0.07580747455     -0.03111332469    
4180000000        0.005821524188    0.3380000889      11.75006104       21.57969666       0.008234759793    0.004155274946    2.448447049e-05   -0.05724281818    
4220000000        0.02880201861     0.3611015677      14.01905632       19.80481529       0.009383755736    0.003716540989    0.06261624396     -0.0747924149     
4260000000        0.07749845088     0.3327931464      15.71503735       17.80800819       0.008814044297    0.002987310756    0.02928071842     -0.07139186561    
4300000000        0.08503586054     0.3326091766      17.29430199       15.86564064       0.01005508658     0.002376788761    0.08174757659     -0.07131703943    
4340000000        0.123127237       0.3291208744      18.527771         13.79609013       0.009503374808    0.001528282184    0.02263535745     -0.05262741074    
4380000000        0.146938622       0.3196865916      19.85051537       11.59932995       0.01062889863     0.0006370210322   0.05479693413     -0.1036944315     
4420000000        0.1769025475      0.2922014296      20.38892365       9.022044182       0.01000060793     1.543539111e-05   0.04336288944     -0.07870037854    
4460000000        0.182513386       0.290173769       20.94680214       6.939759254       0.01069490425     -0.001039594179   0.05916631222     -0.09930422157    
4500000000        0.2294679731      0.2745055258      21.17655373       4.595540047       0.01029713172     -0.001681179274   0.04235074669     -0.06523358822    
4540000000        0.2317343205      0.2453442365      21.10589981       2.698672771       0.01043051481     -0.002760762116   0.02169012465     -0.1124393567     
4580000000        0.2623918653      0.2374714464      21.19608116       0.730312705       0.0106154643      -0.003334543668   0.05736877397     -0.1043615863     
4620000000        0.2702717483      0.2060190737      20.75634575       -1.423425555      0.009807316586    -0.004670292605   0.02534022555     -0.1143836603     
4660000000        0.2985928655      0.1960326731      20.26903915       -3.594386101      0.01037388295     -0.005036827177   0.05560423061     -0.1101224869     
4700000000        0.3047681749      0.1566953659      19.30677986       -5.598337173      0.009101169184    -0.00652280869    -0.0007232248317  -0.1209376231     
4740000000        0.3193559349      0.1475700885      18.5014801        -7.27864933       0.009597840719    -0.006694620475   0.05087304115     -0.1395941526     
4780000000        0.3316815197      0.105002746       17.29279327       -9.110154152      0.008275067434    -0.008060092106   0.009834587574    -0.1167382076     
4820000000        0.3422117829      0.09346564859     16.08938217       -10.61131191      0.008617546409    -0.008530488238   0.02951278538     -0.1396750212     
4860000000        0.3512549996      0.04972134531     14.63386917       -12.17941093      0.007153356913    -0.009530234151   -0.01302536111    -0.1224057004     
4900000000        0.3451911211      0.03997698426     13.04265976       -13.29028702      0.007083162665    -0.01011287887    0.003991513979    -0.1631583869     
4940000000        0.3621440232      -0.002474932931   11.56178093       -14.53147697      0.005923861638    -0.01070880331    -0.005216145888   -0.1280197799     
4980000000        0.3513370752      -0.02417605184    9.951283455       -15.27687359      0.005295651499    -0.01161995716    -0.02613976784    -0.1537029594     
5020000000        0.3604899943      -0.05485256016    8.36545372        -16.00423813      0.004363035783    -0.01166698709    -0.022728201      -0.1413384825     
5060000000        0.3423265815      -0.07831986248    6.462040424       -16.45911026      0.003194098826    -0.01274856552    -0.04787653685    -0.1621170491     
5100000000        0.3526397943      -0.1145693511     4.785738468       -16.97637558      0.002679407364    -0.01248786785    -0.02809398621    -0.1463307887     
5140000000        0.3246793747      -0.1380300671     2.897617579       -16.99115562      0.0009235475445   -0.01362296659    -0.08229259402    -0.1437677145     
5180000000        0.3344300985      -0.1657882631     1.246148825       -17.09233093      0.0004585702554   -0.01303099561    -0.06345679611    -0.1613527089     
5220000000        0.3062634766      -0.1984333843     -0.5159243941     -16.94154549      -0.001114725019   -0.01388599165    -0.08415611833    -0.1447114944     
5260000000        0.2994987369      -0.2166867554     -2.129046202      -16.53358078      -0.001747162547   -0.01346372627    -0.07549151033    -0.1520327181     
5300000000        0.2703925371      -0.2466734797     -3.897148371      -16.07697678      -0.003285973333   -0.01357667986    -0.1128124669     -0.1153739989     
5340000000        0.2633595169      -0.2605608702     -5.385919094      -15.25581455      -0.004139146302   -0.01377271302    -0.1335122138     -0.1606017202     
5380000000        0.230927825       -0.2994809151     -7.0430336        -14.64440918      -0.005632173736   -0.01296644006    -0.1111269295     -0.1220697984     
5420000000        0.2109439373      -0.3010467291     -8.405003548      -13.51694679      -0.006748698186   -0.01355985459    -0.1344002038     -0.1183308885     
5460000000        0.1882445961      -0.3289178312     -9.603638649      -12.56447792      -0.007851953618   -0.01204338763    -0.1362008452     -0.06559875607    
5500000000        0.1614720523      -0.3383453488     -10.71437263      -11.19672489      -0.009098959155   -0.01292303577    -0.2009667009     -0.09732165933    
