! RsaToolbox (C) 2015 Rohde & Schwarz America
! 
! Number of points: 93
! Number of ports: 2
! Balanced ports?: No
! 
! 
# Hz S RI R 50
1740000000        -0.05312823504    0.4848827124      13.91038609       40.84479904       0.0002495476801   -0.002290584613   -0.248773694      0.1046180949      
1780000000        0.003723935224    0.4791036546      17.33454514       37.4614296        0.0002345214307   -0.002197695198   -0.2351931036     0.1334889382      
1820000000        0.05421742424     0.4774740636      21.61294365       33.23451996       -9.819187107e-05  -0.002166125458   -0.2436222732     0.1640798151      
1860000000        0.1090168208      0.4578177035      23.55336189       30.40815163       -4.31846056e-05   -0.002181385877   -0.2445551604     0.1825132072      
1900000000        0.1507065892      0.4594683051      25.65987587       24.42270088       -0.0003734218189  -0.001983453054   -0.2380767018     0.2211779952      
1940000000        0.2020630687      0.433447361       26.32736969       22.75006104       -0.0002063285792  -0.002085514599   -0.2226518691     0.2335346341      
1980000000        0.2466700673      0.4139799774      26.75341225       19.10733414       -0.000571904704   -0.001869985834   -0.198467657      0.3020849526      
2020000000        0.29692173        0.3946152627      26.20842171       16.64068794       -0.0003392407089  -0.001935492037   -0.1854214817     0.2992044091      
2060000000        0.3382077217      0.3701434731      26.369627         14.60035992       -0.0005566594191  -0.001817632001   -0.1669437885     0.355819732       
2100000000        0.3864288628      0.3394414186      26.02633286       12.8378334        -0.0004079138453  -0.001955373446   -0.1212104931     0.3463532925      
2140000000        0.4263929129      0.2947463691      26.11493111       11.4908762        -0.0005317242467  -0.001883920864   -0.08378469199    0.4182419181      
2180000000        0.4755090177      0.2620118856      26.4258213        9.910941124       -0.0005196491256  -0.002023607958   -0.02275072038    0.402015835       
2220000000        0.5093591213      0.2020230144      27.29720116       9.079614639       -0.0004691607319  -0.002022248926   -0.003470119089   0.4370809197      
2260000000        0.5379818082      0.1447917819      29.14358711       6.912619591       -0.0007406132063  -0.002301602392   0.07848029584     0.4060502648      
2300000000        0.5742042065      0.07882599533     29.6901207        6.235872269       -0.0005806071567  -0.002239185851   0.1069409698      0.4222787321      
2340000000        0.5760591626      0.004815792665    31.83378601       2.805150032       -0.001073157298   -0.002652302384   0.1764935851      0.4062718749      
2380000000        0.5905796289      -0.06632012129    33.10699844       0.8554844856      -0.0008813649183  -0.002568211406   0.2093327045      0.3848488033      
2420000000        0.5703988075      -0.1449034065     34.62932968       -4.009717941      -0.001641910989   -0.002909283154   0.2641104162      0.3484658301      
2460000000        0.561838448       -0.2161243856     34.55979156       -7.498414993      -0.001432990422   -0.002830764279   0.3036936522      0.3002540767      
2500000000        0.5216209888      -0.2854860425     33.73071289       -12.70218277      -0.002284326823   -0.00300245313    0.3224975169      0.2858724296      
2540000000        0.4898846447      -0.3475578427     33.59226608       -16.91077042      -0.002261053538   -0.00301747839    0.3489608467      0.2081963569      
2580000000        0.4321964681      -0.4014934599     29.67589569       -21.03822517      -0.003009310924   -0.002957568271   0.3533910513      0.2020194381      
2620000000        0.3867307007      -0.4490813613     28.54436684       -26.20696449      -0.003283760976   -0.002896314487   0.3800871968      0.09235929698     
2660000000        0.3084148169      -0.4966188073     24.84575462       -28.38091469      -0.003532827133   -0.002444816986   0.350364387       0.1141966656      
2740000000        0.1853723675      -0.5522245765     18.15190315       -35.45009995      -0.004196058959   -0.001718086889   0.332219094       0.02034416422     
2820000000        0.05509437993     -0.5582866073     7.116705894       -38.90174866      -0.004912076518   -0.0008995197713  0.3183500469      -0.05486062914    
2860000000        -0.00284650363    -0.5429173112     0.9015420675      -38.23352051      -0.005608130712   -0.0009940854507  0.2774197161      -0.08019229025    
2900000000        -0.05968376622    -0.5322055817     -3.661354303      -37.91435242      -0.005542666651   -0.0001520754304  0.2817648947      -0.1167242602     
2940000000        -0.12785469       -0.5164477825     -8.142700195      -37.88350296      -0.005848221481   0.0003612007713   0.2275003046      -0.1105893031     
2980000000        -0.1641550362     -0.491330564      -12.38071823      -35.23534775      -0.005837167613   0.0007253539516   0.2240709811      -0.1419924051     
3020000000        -0.2296183407     -0.4561365843     -16.41766357      -34.73112869      -0.005948889069   0.001680352958    0.1881058514      -0.1289462745     
3060000000        -0.2555236816     -0.4298523962     -20.04827881      -30.36387253      -0.00597285945    0.001830087975    0.1702506691      -0.1699872613     
3100000000        -0.313039571      -0.3826928139     -23.41901588      -29.28509903      -0.005588453729   0.00276270695     0.1654281169      -0.1332406849     
3140000000        -0.3266379237     -0.349170059      -26.58472252      -24.12965775      -0.006001274567   0.00302069285     0.1157144681      -0.1598589122     
3180000000        -0.3667384684     -0.3033753633     -29.13372803      -22.18946075      -0.005026561674   0.003892201232    0.1225352362      -0.1455036849     
3220000000        -0.3820622861     -0.2639160752     -31.37094688      -17.01693153      -0.005581170321   0.00408888422     0.07440583408     -0.1547560394     
3260000000        -0.4040460885     -0.2169685364     -32.65251923      -13.67414856      -0.004547867458   0.00479718158     0.1169715673      -0.1527992487     
3300000000        -0.413175106      -0.1672506034     -33.94591904      -9.754623413      -0.004877375439   0.005332831759    0.04489407316     -0.1107781306     
3340000000        -0.4181568921     -0.1369678974     -33.06427002      -5.763942719      -0.003823584877   0.005652998108    0.07200025022     -0.1530532092     
3380000000        -0.4253835678     -0.08059758693    -34.11494827      -2.718651533      -0.003882531775   0.006425878964    0.02092976868     -0.106265828      
3420000000        -0.4245038331     -0.04477542266    -33.81195831      1.166757464       -0.003026543651   0.006159252021    0.06818348169     -0.1517033726     
3460000000        -0.4146671593     -0.004180232063   -32.30384827      5.384040356       -0.0028176778     0.007332561538    0.02767495997     -0.06419892609    
3500000000        -0.415156275      0.03015776165     -31.10579681      9.044239044       -0.00199983432    0.006761764176    0.01807533205     -0.1260880381     
3540000000        -0.3977254927     0.08151298761     -29.88433456      11.67335987       -0.001558624324   0.00795594044     0.01165045612     -0.07452300936    
3580000000        -0.3874090016     0.0970820263      -27.57594109      14.86240578       -0.0008665026398  0.007288885303    0.01949730143     -0.1317444891     
3620000000        -0.3720257878     0.1457625479      -25.59281158      17.12836266       -0.0001910798601  0.008257475682    0.04025892913     -0.04799238965    
3660000000        -0.3482491374     0.1640618742      -22.92817879      20.09069824       0.0002994564711   0.007516820915    -0.004737870302   -0.08779838681    
3700000000        -0.334985286      0.2006952614      -20.36036301      22.02465439       0.001129628508    0.00830620341     0.02208548412     -0.06065584347    
3740000000        -0.3006701767     0.223288238       -17.50662804      23.5804882        0.001592326211    0.007854936644    0.001689665252    -0.09213970602    
3780000000        -0.2885838747     0.2483651042      -14.64334583      24.82738876       0.002602472901    0.008007948287    0.04801862687     -0.05879513174    
3820000000        -0.2522915602     0.2716388702      -12.10351849      25.75339317       0.002906600013    0.007796572521    0.004671926145    -0.04145598784    
3860000000        -0.2371816635     0.2888793349      -8.66778183       26.454813         0.0038759897      0.007574571762    0.01690765843     -0.06445463002    
3900000000        -0.1966806054     0.3088544309      -5.886762619      26.8190403        0.004368381109    0.007642041426    0.01793347299     -0.05307141691    
3940000000        -0.1823183894     0.3177727461      -2.516772985      26.84457397       0.005154839717    0.006847188342    0.03346109763     -0.07342829555    
3980000000        -0.1386859268     0.3367810249      0.08694326133     26.67909241       0.005711752456    0.007093933411    0.03941115737     -0.02243926562    
4020000000        -0.1194129065     0.335413903       3.044946671       25.84985733       0.006368848961    0.005998326       -3.591529094e-05  -0.06997608393    
4060000000        -0.08277121186    0.3510365784      5.327337265       25.05385208       0.00696349889     0.006179441698    0.05143238604     -0.049057208      
4100000000        -0.05709830672    0.3466098309      7.71625948        24.05260468       0.007208322641    0.005215481389    0.02793695405     -0.0714315325     
4140000000        -0.01951190457    0.3589445651      9.822699547       22.63291359       0.008234146051    0.00519545842     0.07539013028     -0.03157150745    
4180000000        0.004622307606    0.3402055502      11.82753372       21.43423271       0.008234977722    0.004146315157    9.290967137e-05   -0.05684153736    
4220000000        0.02488410659     0.3621025681      13.86195278       19.43399811       0.009369865991    0.003711587051    0.06286179274     -0.07476761937    
4260000000        0.07463060319     0.3342296779      15.51036835       17.73715401       0.008802657016    0.002978830365    0.02920616791     -0.07172949612    
4300000000        0.08276899904     0.3332227767      17.09973145       15.61571693       0.01004940365     0.002374526579    0.08104512095     -0.07141587138    
4340000000        0.1210611388      0.3291142881      18.34737015       13.56245804       0.009487021714    0.001518216101    0.02307702973     -0.05275381729    
4380000000        0.1450197846      0.3201944232      19.68720818       11.38841248       0.01061645895     0.0006398917758   0.05413071066     -0.1041757911     
4420000000        0.1754812449      0.2942324877      20.28516769       8.87769413        0.00997433532     -2.116407995e-05  0.04338024184     -0.07864565402    
4460000000        0.1805799007      0.2922545969      20.78449249       6.804367065       0.01068264619     -0.001038295683   0.05897395685     -0.09920645505    
4500000000        0.2281644046      0.2760639489      20.9887104        4.462851524       0.01030045561     -0.001671642647   0.04275619611     -0.06503871083    
4540000000        0.2317477316      0.2467678338      20.99307823       2.603244781       0.01041171048     -0.002747781342   0.02097503096     -0.1124415621     
4580000000        0.2602483034      0.2382115275      20.95645905       0.6798603535      0.01058314834     -0.003330618143   0.05719796196     -0.1047220826     
4620000000        0.2690757513      0.2071064115      20.50538635       -1.453260422      0.009819116443    -0.004643801134   0.0252963379      -0.1149161756     
4660000000        0.2962574661      0.200077489       20.15176582       -3.454874992      0.01036467217     -0.00502670696    0.05484423414     -0.1108307019     
4700000000        0.3040557206      0.1566582024      19.15330124       -5.63388443       0.009102085605    -0.006506650709   -0.0005843692925  -0.1202890277     
4740000000        0.3198085129      0.1491230428      18.39589119       -7.329666138      0.009612546302    -0.006703103893   0.05062523484     -0.1393913478     
4780000000        0.331781745       0.1074418128      17.2388649        -9.072085381      0.008275318891    -0.008042824455   0.008851837367    -0.1167060509     
4820000000        0.3408414125      0.0958866626      15.8946619        -10.55360222      0.0086347498      -0.008481996134   0.02856431343     -0.1402812153     
4860000000        0.3519853354      0.051104296       14.56391048       -12.1643734       0.007166982628    -0.009520499967   -0.01315236278    -0.1226376966     
4900000000        0.3480816782      0.04161144048     13.00020218       -13.29608917      0.007083675358    -0.01011416595    0.003706867807    -0.1628458947     
4940000000        0.3617398739      0.0001130765304   11.45824051       -14.42414474      0.005898838397    -0.01071206108    -0.005614043213   -0.1278549135     
4980000000        0.3515422642      -0.02083921432    9.862817764       -15.13174534      0.005271049216    -0.01160324086    -0.02551415376    -0.1538898051     
5020000000        0.3611585498      -0.05570800602    8.165924072       -15.9200325       0.004354256205    -0.01166010462    -0.02295930684    -0.1406386495     
5060000000        0.3447359502      -0.07817541063    6.456729412       -16.42978668      0.003192786127    -0.0127696842     -0.0479397811     -0.1622036397     
5100000000        0.3526623845      -0.1141677946     4.64625597        -16.85045815      0.002658479381    -0.01247507427    -0.02787894942    -0.1472767591     
5140000000        0.3245616555      -0.1389871538     2.787514448       -16.92037773      0.0009019071003   -0.01362014748    -0.08235770464    -0.1438270062     
5180000000        0.3345631063      -0.1654039174     1.231436014       -16.97970581      0.0004526216071   -0.01303197257    -0.06292719394    -0.1616192013     
5220000000        0.3067668974      -0.1975909173     -0.5318856239     -16.83717918      -0.001125012059   -0.01386235096    -0.08365370333    -0.1456283033     
5260000000        0.3005396128      -0.2171088457     -2.185692787      -16.47636986      -0.001727629686   -0.01347932965    -0.07623368502    -0.1521199644     
5300000000        0.2718812823      -0.2461291254     -3.869199753      -15.97984123      -0.003277202835   -0.01358270366    -0.1130467579     -0.1163062677     
5340000000        0.2662418485      -0.2604407072     -5.399730682      -15.22904205      -0.004140473902   -0.01374600455    -0.1333157718     -0.1605458558     
5380000000        0.2314228863      -0.2997999191     -7.016889572      -14.53093815      -0.005632144399   -0.01298266836    -0.1115032881     -0.1219300926     
5420000000        0.2116640508      -0.2998307347     -8.316224098      -13.43678284      -0.006704041734   -0.0135227805     -0.134313345      -0.1170520261     
5460000000        0.1899108738      -0.329713732      -9.597108841      -12.48002338      -0.007835203782   -0.01202181913    -0.1366606653     -0.06595034897    
5500000000        0.162664324       -0.3379315436     -10.67438507      -11.12966919      -0.00908527337    -0.01290925685    -0.2013808489     -0.09585957974    
