! RsaToolbox (C) 2015 Rohde & Schwarz America
! 
! Number of points: 31
! Number of ports: 2
! Balanced ports?: No
! 
! 
# Hz S RI R 50
4180000000        -0.01774068549    0.3491553068      11.35605431       19.01955795       0.008168894798    0.004055014811    0.0002298598411   -0.05622793362    
4260000000        0.05445092916     0.3423539102      14.28221893       16.38380623       0.008712531999    0.002901860513    0.03056031279     -0.07519241422    
4380000000        0.1312102228      0.3352183402      18.14890671       9.915472984       0.01050856989     0.0006430378999   0.0511447601      -0.1045338959     
4420000000        0.1612066478      0.3106304705      18.68372917       7.929926872       0.009840734303    -3.034099063e-05  0.04384087026     -0.08131592721    
4460000000        0.1750654727      0.3091031909      19.17682266       5.37640667        0.01063065697     -0.0009953863919  0.05675921962     -0.09720645845    
4500000000        0.2180081159      0.2945964932      18.9827919        3.563000441       0.01017791312     -0.001668218523   0.04360370338     -0.06874831766    
4540000000        0.2257560194      0.2626455128      19.72215462       2.082008839       0.01027362421     -0.002693456598   0.01979825646     -0.1130377874     
4580000000        0.2578941584      0.2544808984      19.50462914       0.1127741337      0.01051394641     -0.003272097558   0.05524494126     -0.1055918559     
4620000000        0.2683844566      0.2269582599      18.99090767       -1.839687109      0.009689781815    -0.004600186832   0.02564245835     -0.116239354      
4660000000        0.298538059       0.2137780637      18.78239822       -3.755920649      0.01024459675     -0.004925883841   0.05061424151     -0.1111998856     
4700000000        0.3051179647      0.1736715734      17.91268349       -5.547866344      0.009027025662    -0.006427268963   -0.0002786917612  -0.121265538      
4740000000        0.3240494132      0.1636983007      17.07254028       -7.346697807      0.009553049691    -0.006621575449   0.04702561721     -0.1396963        
4780000000        0.335589081       0.1200534999      16.27272606       -8.875814438      0.008219549432    -0.007991394959   0.009287250228    -0.1171642318     
4820000000        0.3508586884      0.1125801876      14.30635452       -10.23208427      0.008608062752    -0.008335882798   0.02513012104     -0.1396728009     
4860000000        0.3553437293      0.06269413233     13.84545994       -11.7321434       0.007135203108    -0.009415673092   -0.01504082233    -0.1227085367     
4900000000        0.3595803678      0.05360176414     11.70868587       -12.87718391      0.00709119346     -0.009995261207   0.001497920603    -0.1613676697     
4940000000        0.3715952635      0.008302249014    10.68067265       -13.96679878      0.005865390878    -0.01059084572    -0.007388849743   -0.128410995      
4980000000        0.3611612022      -0.01435445063    9.104588509       -14.69227982      0.005288240965    -0.01150887366    -0.02825696394    -0.1520206928     
5020000000        0.3738579452      -0.04729033634    7.484548092       -15.27107525      0.004423578735    -0.0115683917     -0.02515970916    -0.1406762302     
5060000000        0.3538542092      -0.07280221581    5.956018448       -15.94021988      0.003274595598    -0.01271551847    -0.04948716983    -0.1599518061     
5100000000        0.3706641197      -0.1090979427     3.963784456       -15.89782429      0.002696402837    -0.01244945079    -0.02985260449    -0.1460900605     
5140000000        0.3336314261      -0.1366354972     2.505804777       -16.41698265      0.0009292177856   -0.01360856276    -0.08372733742    -0.1415791214     
5180000000        0.3488900959      -0.165066123      0.6945203543      -16.10032082      0.0005371548468   -0.01298006158    -0.06419797987    -0.1585527807     
5220000000        0.3181277812      -0.1984508634     -0.7828159928     -16.26233864      -0.001097992761   -0.01382123306    -0.08450372517    -0.1442708373     
5260000000        0.3120710254      -0.2210031897     -2.528342724      -15.698699        -0.001668403274   -0.01345661841    -0.07766189426    -0.1486236602     
5300000000        0.2830616236      -0.2507479191     -3.988736391      -15.35662174      -0.0032204655     -0.01350502111    -0.1134229451     -0.1156307906     
5340000000        0.2752636373      -0.2657141685     -5.576182842      -14.58531189      -0.004018215928   -0.01378392801    -0.1342404038     -0.1573067456     
5380000000        0.2422307581      -0.3062281609     -6.958380699      -13.80479622      -0.005540054291   -0.01296855696    -0.1120607331     -0.1217112243     
5420000000        0.220424965       -0.3064567149     -8.256323814      -12.86192036      -0.006593580358   -0.0135141043     -0.1353244632     -0.1145781055     
5460000000        0.1952555031      -0.339915216      -9.561012268      -11.836483        -0.007770012133   -0.01203440409    -0.1367779672     -0.06415970623    
5500000000        0.1684960574      -0.3477446139     -10.53632259      -10.49589157      -0.008993905038   -0.01292377803    -0.2014215291     -0.09358924627    
