! RsaToolbox (C) 2015 Rohde & Schwarz America
! 
! Number of points: 58
! Number of ports: 2
! Balanced ports?: No
! 
! 
# Hz S RI R 50
2020000000        0.3042674959      0.4358612597      23.39359474       16.68371964       -0.0003454726539  -0.001927830512   -0.1846605986     0.2989883125      
2060000000        0.3462186456      0.4077837467      24.09655952       13.6011219        -0.0005737227038  -0.001824378734   -0.1662844718     0.3550177813      
2100000000        0.4000526667      0.3699943423      23.97515678       13.1004343        -0.0003996651503  -0.001947535435   -0.120236598      0.3467569351      
2140000000        0.4410105646      0.3211808801      24.64017677       11.64240742       -0.0005386203993  -0.001877873205   -0.08359840512    0.4174815416      
2180000000        0.4964118004      0.2937316298      24.25043678       9.76311779        -0.0005302489735  -0.002041579457   -0.02160319313    0.4016203284      
2220000000        0.5292614698      0.2234966606      25.81518745       9.316978455       -0.0004628321039  -0.002021229127   -0.003143198788   0.4365019798      
2260000000        0.5564428568      0.1641077548      27.22772217       6.148106098       -0.0007329066284  -0.002320125932   0.07970105112     0.4066989124      
2300000000        0.5949417949      0.09575846791     27.67733002       6.70334816        -0.0005894621136  -0.002219221322   0.1081901789      0.4213056564      
2380000000        0.6086823344      -0.05690370128    30.47728539       0.2634277344      -0.0008953288198  -0.002561556175   0.2103839368      0.3841190636      
3540000000        -0.3890613019     0.06307682395     -27.59395027      10.96352386       -0.001618754584   0.007909186184    0.01295968238     -0.07738160342    
3620000000        -0.3706279695     0.1273265034      -23.90795708      16.0480442        -0.0002292546269  0.008246725425    0.04082368314     -0.04952168465    
3660000000        -0.3595887125     0.1482346952      -20.42906761      19.15606689       0.0003154743172   0.007525093853    -0.004860565066   -0.08604416996    
3700000000        -0.3374404311     0.1901455075      -19.06327248      21.11917305       0.001101807458    0.008306686766    0.02140502818     -0.06135391444    
3740000000        -0.3095470071     0.2112189233      -15.85808563      22.45369148       0.001607019221    0.007872160524    0.00292783347     -0.09073570371    
3780000000        -0.2970388234     0.2393964976      -13.46951389      23.64439392       0.002607471775    0.008018674329    0.04710537195     -0.05838383734    
3820000000        -0.2583287954     0.2651786506      -11.2857914       24.89806938       0.002915657125    0.007802334148    0.005280218553    -0.04113741964    
3860000000        -0.2466127872     0.2839390934      -7.737784863      25.15439224       0.003882782767    0.007582407445    0.01610842906     -0.06378205121    
3900000000        -0.2030703872     0.3032761514      -5.434121609      25.87416458       0.004372021183    0.007630105596    0.01852728985     -0.05442452803    
3940000000        -0.1939570606     0.3167583644      -1.732388377      25.21943855       0.005162375048    0.006851629354    0.03319797665     -0.0718762055     
3980000000        -0.1434244066     0.3340250254      0.2655439377      25.94388008       0.005718306638    0.007071346976    0.03950991482     -0.02360724658    
4020000000        -0.1313622296     0.3365130424      3.448108435       24.50006676       0.006388255395    0.005994600244    0.0003644509707   -0.06911527365    
4060000000        -0.08965031803    0.3491462171      5.328158379       24.18958664       0.006954301149    0.00615991978     0.05086378753     -0.04993997514    
4100000000        -0.06401290745    0.3471964896      7.732206821       23.21482468       0.007204965688    0.005169889424    0.02844206803     -0.07102874666    
4140000000        -0.02588988468    0.3599810302      9.715351105       21.8606472        0.008224247955    0.005193561781    0.07477354258     -0.03273401782    
4180000000        -0.0003069485538  0.3416895568      11.73779869       20.84066582       0.008228848688    0.004114988726    -0.000144527643   -0.05686672404    
4220000000        0.01673698239     0.3664022982      13.52266693       18.31564903       0.009372008033    0.003710802179    0.062257424       -0.07419626415    
4260000000        0.07036778331     0.3372070789      15.28544807       17.41716766       0.008791230619    0.002957019256    0.02963679656     -0.07262893766    
4300000000        0.0780698657      0.3392173052      16.89170837       15.0291748        0.01004974823     0.002379608108    0.07978782058     -0.0713031888     
4340000000        0.1171253026      0.3319021463      18.02145386       13.06705189       0.0094760051      0.001500297803    0.02382144146     -0.0525598228     
4380000000        0.1426362097      0.3238206804      19.33114433       11.04761696       0.01059844624     0.000640564831    0.05337487906     -0.1038642824     
4420000000        0.1729943305      0.298779279       19.9536438        8.688790321       0.009953948669    -1.817457087e-05  0.04380051792     -0.07872792333    
4460000000        0.1788084358      0.295170486       20.38777924       6.466421604       0.01066246536     -0.001041069627   0.05838154256     -0.098597534      
4500000000        0.2270238549      0.2802096307      20.55329704       4.181849957       0.01027638        -0.00167030748    0.04285786301     -0.06613860279    
4540000000        0.2300592661      0.2498461455      20.68302536       2.45093441        0.01038879715     -0.002740505151   0.02140838653     -0.1127697974     
4580000000        0.2609757781      0.2424781919      20.69133377       0.5144402981      0.01056935079     -0.003316401504   0.05672155321     -0.1052421406     
4620000000        0.2693786323      0.2119433284      20.19471741       -1.55165875       0.009787622839    -0.004649411887   0.02559979446     -0.1156364381     
4660000000        0.2969338894      0.2027599066      19.82172585       -3.578552008      0.01032447442     -0.005007716827   0.0538248755      -0.1108771712     
4700000000        0.3047226965      0.1619509608      18.88932419       -5.570304871      0.009074725211    -0.006480505224   -0.0003584318329  -0.1211376488     
4740000000        0.320328176       0.1530286968      18.09123802       -7.327290058      0.009602624923    -0.006674256641   0.05028006062     -0.1399517059     
4780000000        0.3320786655      0.1097486764      16.98816109       -9.040086746      0.008274528198    -0.00802973751    0.008944442496    -0.1172892377     
4820000000        0.3439545631      0.09894803166     15.52194595       -10.54229546      0.008637082763    -0.008459180593   0.02732120827     -0.1400836259     
4860000000        0.3533730209      0.054587055       14.40533638       -12.03904343      0.007165328134    -0.009507541545   -0.01454674453    -0.122493647      
4900000000        0.3494133353      0.04468683153     12.66289616       -13.1693182       0.007085631136    -0.01008990593    0.002708184067    -0.1624610871     
4940000000        0.3655344248      0.002274062485    11.31687927       -14.33292866      0.005898227915    -0.01067864988    -0.00672707567    -0.1276604682     
4980000000        0.3536342978      -0.02013921924    9.633018494       -15.04920673      0.005310409237    -0.01160342246    -0.02745153755    -0.1528982222     
5020000000        0.3637968004      -0.05303476006    8.006416321       -15.7404356       0.004381748382    -0.01167175733    -0.02375261299    -0.1405528784     
5060000000        0.3460284173      -0.07571820915    6.298891068       -16.21806335      0.003227008041    -0.01277208142    -0.04825872183    -0.1611821055     
5100000000        0.3572356403      -0.1128656566     4.467803478       -16.63457489      0.002657713369    -0.01245745271    -0.0282975845     -0.1459608227     
5140000000        0.3276987374      -0.1390542984     2.726925135       -16.82445335      0.0009009937057   -0.01361060515    -0.08259801567    -0.1427863091     
5180000000        0.337846607       -0.1634766459     1.140318751       -16.69332314      0.0004409076646   -0.01301839016    -0.0629857704     -0.1606278718     
5220000000        0.3098017871      -0.1985946894     -0.6451785564     -16.71010399      -0.00113029324    -0.01386342943    -0.08397477865    -0.145218581      
5260000000        0.3052765131      -0.2171158791     -2.227278709      -16.30781937      -0.001726940391   -0.0134633258     -0.07605932653    -0.1510029882     
5300000000        0.2761627436      -0.2479116023     -3.924173117      -15.89064407      -0.003279001219   -0.01356472261    -0.1131908223     -0.116198197      
5340000000        0.2693986595      -0.260458231      -5.394994736      -15.07319164      -0.004111549351   -0.01376649085    -0.1338424236     -0.159202531      
5380000000        0.236181587       -0.3008522391     -6.94790411       -14.41139603      -0.00561810378    -0.01296877395    -0.1118747294     -0.1218032613     
5420000000        0.2141944766      -0.3023968041     -8.303807259      -13.3219223       -0.006697857287   -0.01352861337    -0.1347439736     -0.1168490425     
5460000000        0.1916088015      -0.3321059942     -9.573824883      -12.30746651      -0.007821790874   -0.01203983929    -0.1365864873     -0.06509649009    
5500000000        0.1637633145      -0.3405809999     -10.6417408       -10.96230602      -0.009098459035   -0.01290435158    -0.2012067139     -0.09524151683    
