! RsaToolbox (C) 2015 Rohde & Schwarz America
! 
! Number of points: 32
! Number of ports: 2
! Balanced ports?: No
! 
! 
# Hz S RI R 50
4180000000        -0.01393359527    0.3485913575      11.51800346       19.3409977        0.008176253177    0.004077426624    0.0002025885042   -0.0562687777     
4260000000        0.05733565241     0.3415767252      14.46159458       16.559412         0.00873978436     0.002917337231    0.03033790365     -0.07459324598    
4340000000        0.1053363159      0.3418638408      16.90331459       11.81297112       0.009375478141    0.001466812799    0.02713116258     -0.05371700227    
4380000000        0.1331182867      0.3328554928      18.36937141       10.09023476       0.01049956586     0.0006509966915   0.05162639171     -0.1046739519     
4420000000        0.163091898       0.3079720438      18.91074181       8.034193993       0.009855491109    2.929463517e-05   0.04382961616     -0.08072189242    
4460000000        0.1760785431      0.306268841       19.40558624       5.520960808       0.01058897004     -0.00100220344    0.05692992359     -0.09773886204    
4500000000        0.2196308225      0.292973727       19.2658577        3.647250175       0.01018481702     -0.00165752566    0.0435342975      -0.06877531856    
4540000000        0.2270453572      0.2598928809      19.90097809       2.122567654       0.01031555515     -0.002709388966   0.01994825155     -0.1133486181     
4580000000        0.2585522234      0.2521071732      19.67289925       0.16386199        0.01050348673     -0.00330779911    0.05529521033     -0.1062128395     
4620000000        0.2683620751      0.22434403        19.16719055       -1.792631626      0.00965918228     -0.004588315263   0.02573114634     -0.1162796989     
4660000000        0.2973920107      0.2120135725      18.90624428       -3.724501133      0.01027588919     -0.004955518059   0.05067772791     -0.1118221655     
4700000000        0.3053172529      0.1723218411      18.04779053       -5.532033443      0.00898690708     -0.006428179331   -0.0002084253356  -0.1216650829     
4740000000        0.3225472569      0.1618199348      17.23122787       -7.317026138      0.009527155198    -0.006586259697   0.04727759957     -0.139194876      
4780000000        0.3348882496      0.1184947193      16.39577866       -8.897632599      0.008227763698    -0.007988088764   0.009448948316    -0.1172438636     
4820000000        0.349824518       0.1099498421      14.50932693       -10.33893681      0.00860027317     -0.008416787721   0.02547914907     -0.1402028501     
4860000000        0.3559543192      0.06076568738     13.97344971       -11.83367825      0.007073896937    -0.009397783317   -0.01464491151    -0.1227620393     
4900000000        0.3583172262      0.05206204206     11.88540077       -12.9410429       0.00704825623     -0.01004271396    0.001640568022    -0.1611781567     
4940000000        0.3705674112      0.008234702051    10.82094193       -14.01033401      0.005875543691    -0.01060262136    -0.007442125119   -0.1285120547     
4980000000        0.361082375       -0.01609344408    9.168102264       -14.81619644      0.005248990841    -0.01151254401    -0.02858826518    -0.1522940993     
5020000000        0.3723133802      -0.04769347608    7.598627567       -15.34689713      0.004412451293    -0.01159561705    -0.02483046055    -0.1407678127     
5060000000        0.3522214592      -0.07327324897    6.022966385       -15.98899174      0.003255940974    -0.01267806906    -0.0491511561     -0.1600651592     
5100000000        0.3677608371      -0.109976761      4.032309532       -16.03510284      0.002707510721    -0.01243108697    -0.02961691841    -0.1456634104     
5140000000        0.3329545557      -0.1376688331     2.513418198       -16.51006508      0.001015610993    -0.01357575785    -0.08366037905    -0.1417110711     
5180000000        0.3479259014      -0.1654609442     0.7633924484      -16.22783661      0.000508850324    -0.01297120564    -0.06417563558    -0.1588356644     
5220000000        0.3173008561      -0.1991658956     -0.7575365305     -16.34692001      -0.001075858017   -0.01381876413    -0.08413663507    -0.1445976049     
5260000000        0.311182797       -0.2196607441     -2.461223125      -15.80691147      -0.001622138545   -0.01343537588    -0.07685033232    -0.1492617279     
5300000000        0.2824317217      -0.2508366704     -3.990105152      -15.47107506      -0.00319672958    -0.01354544889    -0.1133668348     -0.1160114706     
5340000000        0.2738488615      -0.2643065453     -5.552776814      -14.6629467       -0.004055408295   -0.01374902297    -0.134256959      -0.1581381112     
5380000000        0.2409083098      -0.305007726      -6.96759367       -13.87652588      -0.005542685743   -0.0129889166     -0.1121436432     -0.1212665662     
5420000000        0.2200137973      -0.3069523871     -8.303513527      -12.96873379      -0.006585099734   -0.01352996193    -0.1348848045     -0.1148427948     
5460000000        0.1953241229      -0.3386919796     -9.538025856      -11.9413023       -0.007755490951   -0.01201448869    -0.1368629634     -0.06402274221    
5500000000        0.1677046418      -0.3472564518     -10.58556461      -10.58597279      -0.0089723235     -0.01297482196    -0.2011935264     -0.09387331456    
