! RsaToolbox (C) 2015 Rohde & Schwarz America
! 
! Number of points: 68
! Number of ports: 2
! Balanced ports?: No
! 
! 
# Hz S RI R 50
1940000000        0.2031415403      0.4585326314      24.01234245       22.22722626       -0.0002006441209  -0.00209773751    -0.2214443386     0.2335093915      
1980000000        0.2463797778      0.444037199       24.88523102       18.54944229       -0.0005921061384  -0.001891920576   -0.1982307434     0.3011651039      
2020000000        0.3004125059      0.4218866825      24.26182938       16.8074131        -0.0003309378226  -0.001932819607   -0.1848327219     0.2989399731      
2060000000        0.3452951908      0.395365566       24.89389801       13.93967342       -0.0005526688183  -0.001826981781   -0.1664525717     0.355181247       
2100000000        0.3958956003      0.3579076231      24.61217499       13.02972317       -0.0004017247702  -0.001935924403   -0.1210201904     0.3465081751      
2140000000        0.4371844828      0.312662065       25.17279816       11.71621799       -0.0005441184621  -0.001881320262   -0.08351442963    0.4176708162      
2180000000        0.4911037683      0.2836279571      25.05003738       9.930766106       -0.0005243150517  -0.002026328584   -0.02219623327    0.4016735256      
2220000000        0.5227256417      0.2147842646      26.34086609       9.296819687       -0.0004737850686  -0.002023933223   -0.00313879922    0.4364530444      
2260000000        0.5506260395      0.1572335064      27.90710449       6.447816372       -0.0007359754527  -0.002319746651   0.07940783352     0.4068467617      
2300000000        0.588745892       0.08947800845     28.41859818       6.600996017       -0.0005886270083  -0.002217725618   0.1080319285      0.4216430783      
2340000000        0.5858524442      0.0145902615      29.86074638       1.225026011       -0.00106868858    -0.002646870213   0.1769471169      0.4071380794      
2380000000        0.6024708152      -0.05953519791    31.40752411       0.5048334599      -0.0008950674091  -0.002578361426   0.209882766       0.3845266402      
2420000000        0.5745402575      -0.1347358525     31.95475197       -5.272204399      -0.001625519479   -0.002911326475   0.2649877369      0.3489318788      
2460000000        0.5676495433      -0.209405899      31.87532425       -7.801503181      -0.001447351184   -0.002811838174   0.3038100898      0.2993858457      
3300000000        -0.4078713655     -0.1813617945     -31.8105545       -8.159026146      -0.004898598883   0.005284858402    0.04731744528     -0.1115170121     
3380000000        -0.4159384072     -0.08802840114    -32.01186752      -1.931099653      -0.00389968534    0.00643841736     0.0216498021      -0.1064863801     
3420000000        -0.418605864      -0.05085588992    -31.71664429      1.781499624       -0.003037883667   0.006166887004    0.06731086969     -0.1503625065     
3500000000        -0.4155011475     0.01850891486     -29.24177551      9.022306442       -0.001973562641   0.006751982495    0.01735600643     -0.1227469146     
3540000000        -0.3927830458     0.07061356306     -28.51650238      11.25221252       -0.001584024634   0.00792995654     0.01267946139     -0.07646345347    
3580000000        -0.3927993476     0.08480938524     -25.42777443      14.45993137       -0.0008498455863  0.007286022883    0.01815742813     -0.1289938241     
3620000000        -0.3704668581     0.1330796778      -24.47264671      16.39773178       -0.000196606532   0.008253064938    0.04050567001     -0.04903572798    
3660000000        -0.3559453785     0.1539768726      -21.26703262      19.55452728       0.0003270601446   0.007513027173    -0.004700673278   -0.08624053001    
3700000000        -0.3367072046     0.1942171901      -19.55586052      21.44892883       0.001099600806    0.008288418874    0.02172783017     -0.06028648838    
3740000000        -0.3054319322     0.2154456675      -16.45751381      22.88374329       0.001589647378    0.007871928625    0.002371203387    -0.09114457667    
3780000000        -0.2938832343     0.2433254421      -13.90470028      24.11686325       0.002590938937    0.008009281941    0.04766614363     -0.05851382017    
3820000000        -0.2561688721     0.2684404552      -11.55008698      25.27391815       0.00291718496     0.007800165564    0.004783301614    -0.04117333889    
3860000000        -0.2419854552     0.2855536938      -7.99302721       25.6145649        0.003877463518    0.007570024114    0.01638616063     -0.0638608709     
3900000000        -0.2008036673     0.3051999211      -5.557497978      26.17930984       0.004365348257    0.007636587135    0.01808794774     -0.05434370786    
3940000000        -0.1891958714     0.3167039752      -1.982500315      25.82609177       0.00514500821     0.006840513553    0.03319829702     -0.07210110873    
3980000000        -0.1430127025     0.3335997164      0.08865927905     26.15429306       0.005718185566    0.00706977956     0.03937772289     -0.02332113497    
4020000000        -0.1269675791     0.335452944       3.297130108       24.98595619       0.006376618054    0.005991769955    1.794355921e-05   -0.06964988261    
4060000000        -0.0869128108     0.3507362306      5.36902523        24.54358101       0.006958148442    0.006163394544    0.05138101801     -0.0494396165     
4100000000        -0.06216151267    0.3461038768      7.723604202       23.47275734       0.007206671871    0.005199957639    0.02817951888     -0.07133140415    
4140000000        -0.02465581521    0.3588174284      9.715445518       22.11006546       0.008234122768    0.00519482838     0.07470502704     -0.0323016867     
4180000000        0.001114600804    0.3408270776      11.76401043       21.06619263       0.008239208721    0.004129271023    -0.0002324329689  -0.05669169873    
4220000000        0.01947792806     0.3642784357      13.62462234       18.64875031       0.009357568808    0.003704700386    0.06246905774     -0.07430484146    
4260000000        0.07240531594     0.3370132744      15.43265247       17.56250954       0.008795352653    0.002976642689    0.02949368581     -0.07218973339    
4300000000        0.07888898998     0.3374983072      16.91227341       15.26403618       0.01005348004     0.002390046138    0.08042657375     -0.07115755975    
4340000000        0.1188015267      0.3316773772      18.16161728       13.22842216       0.009475216269    0.001497777295    0.02360030636     -0.052257061      
4380000000        0.1419695318      0.3225110471      19.38126183       11.19860268       0.01060172357     0.0006424292224   0.05325439945     -0.1042541713     
4420000000        0.1736579686      0.2969700694      20.07017136       8.760139465       0.009964521043    -9.972740372e-06  0.04391649738     -0.07884859294    
4460000000        0.1794585288      0.2959109545      20.53811455       6.672695637       0.01068050042     -0.001040180912   0.05862947181     -0.09859971702    
4500000000        0.2270893008      0.2791370451      20.68375015       4.311531067       0.01028274558     -0.001673093182   0.04303526878     -0.06538432091    
4540000000        0.2296239883      0.2493402809      20.76955223       2.574591398       0.010399675       -0.002738348674   0.02108778246     -0.1124452949     
4580000000        0.2612110972      0.240814209       20.81160164       0.5770068169      0.01057959069     -0.003331588581   0.05715151504     -0.1052131802     
4620000000        0.2706289589      0.2096497416      20.31875992       -1.580833435      0.009800557047    -0.004643187858   0.02558165975     -0.1155416593     
4660000000        0.2982838452      0.2008700669      19.9444046        -3.597918272      0.01033007633     -0.005015118048   0.05416613072     -0.1109743789     
4700000000        0.3045084774      0.1604881883      18.99022484       -5.612242222      0.009091847576    -0.006497072522   -0.0006112074479  -0.1210278869     
4740000000        0.3201209009      0.150485307       18.14769173       -7.340751171      0.009597547352    -0.006679751445   0.05041323602     -0.1399764717     
4780000000        0.3318238854      0.1082837135      17.05004692       -9.05932045       0.008274070919    -0.008020570502   0.009367716499    -0.1173505783     
4820000000        0.3417015672      0.09902083874     15.66073895       -10.49337864      0.008621608838    -0.00846441742    0.02819096111     -0.1397706866     
4860000000        0.3523732126      0.05372720957     14.46331024       -12.03831005      0.007171322126    -0.009520133957   -0.01387091354    -0.1230964065     
4900000000        0.348908335       0.04318448156     12.77046299       -13.25507736      0.007088348735    -0.01010511164    0.003090000711    -0.1626252979     
4940000000        0.3639533222      0.002242417075    11.38034248       -14.34472752      0.005911055021    -0.0106857568     -0.005752216093   -0.1275823563     
4980000000        0.3530520201      -0.02066851407    9.697021484       -15.08940697      0.005307580344    -0.01160947327    -0.02699383721    -0.1535291225     
5020000000        0.3631900847      -0.05422664434    8.066033363       -15.83576298      0.004373139236    -0.01167608704    -0.02398377657    -0.1403550059     
5060000000        0.3451479971      -0.0753243193     6.399398327       -16.2573452       0.003208419774    -0.01275399607    -0.04805266112    -0.1615222096     
5100000000        0.355714798       -0.1133230552     4.561482906       -16.69738007      0.002639604034    -0.0124767255     -0.02793939039    -0.146197319      
5140000000        0.3261907101      -0.1383197159     2.73884511        -16.83304596      0.0008904581773   -0.0136172967     -0.08182163537    -0.1433456242     
5180000000        0.335918963       -0.1640802473     1.122065783       -16.75750351      0.0004424483632   -0.01302016433    -0.06303523481    -0.1612659991     
5220000000        0.3078708053      -0.19749026       -0.5596897602     -16.69384575      -0.001121038222   -0.01386778336    -0.08449630439    -0.1458106935     
5260000000        0.302462697       -0.2179311365     -2.256486893      -16.36569214      -0.001721301931   -0.01347341016    -0.07625695318    -0.1521618962     
5300000000        0.2741365433      -0.2471298575     -3.893478155      -15.90324974      -0.003273874987   -0.0135715045     -0.1136700436     -0.1162766218     
5340000000        0.2679211199      -0.2611503005     -5.439833641      -15.13132668      -0.004124599043   -0.01377492305    -0.1332216114     -0.159343496      
5380000000        0.2343426496      -0.2994082272     -6.969529152      -14.40613461      -0.005605603103   -0.01297082193    -0.1118077934     -0.121564582      
5420000000        0.2139905095      -0.3006975353     -8.28622818       -13.37034607      -0.006699121557   -0.01350255404    -0.1345370263     -0.1165911481     
5460000000        0.1890434623      -0.3323808312     -9.63886261       -12.31380653      -0.007829473354   -0.01203991286    -0.1364540011     -0.06543059647    
5500000000        0.1628773212      -0.3399344087     -10.67496014      -10.98037243      -0.009088011459   -0.01290950458    -0.2007955909     -0.09536164254    
