! RsaToolbox (C) 2015 Rohde & Schwarz America
! 
! Number of points: 101
! Number of ports: 2
! Balanced ports?: No
! 
! 
# Hz S RI R 50
1500000000        -0.3838497102     0.3604981005      -27.68943787      52.51292419       0.001607267302    -0.001843646751   -0.2162670344     0.02621943317     
1540000000        -0.3309392929     0.3951117098      -17.43158913      54.01414871       0.001218887395    -0.001854473376   -0.229429096      0.05746323988     
1580000000        -0.258041352      0.4289439321      -10.84450626      55.41194153       0.00116510829     -0.002142424928   -0.2269899398     0.03427731991     
1620000000        -0.203063935      0.4459018409      -1.26150012       54.61376953       0.0009069681983   -0.002059521852   -0.2218300104     0.07482690364     
1660000000        -0.1370619237     0.4578140974      4.715922832       52.10718918       0.0006793547655   -0.002290571807   -0.2354942709     0.07181367278     
1700000000        -0.0830860436     0.4581445754      11.36988735       48.8848877        0.0005681516486   -0.002164856996   -0.2353972346     0.1015866697      
1740000000        -0.02914071642    0.460152477       16.69574165       45.25439072       0.0002709476103   -0.002265441697   -0.2513165176     0.1048828214      
1780000000        0.02178554982     0.4537624717      20.6530323        40.55893326       0.0002282321657   -0.002209448023   -0.2352994233     0.1337358803      
1820000000        0.06565972418     0.4519518316      24.46161461       36.29833984       -0.0001162637418  -0.00212153513    -0.2458182424     0.1655744165      
1860000000        0.116549015       0.4335115254      26.41514969       31.07902336       -4.42393648e-05   -0.002222575946   -0.2451272756     0.1833721399      
1900000000        0.1594209075      0.4271079898      28.06972313       26.65105247       -0.0003541663173  -0.002007242991   -0.2390918434     0.2224804461      
1940000000        0.2037731111      0.4068420529      28.34670067       22.5206604        -0.0001817371522  -0.002049186965   -0.2231570631     0.2330883443      
1980000000        0.2447342426      0.3914729655      28.48418808       19.18372154       -0.0005671242252  -0.00188780867    -0.1990060955     0.303170532       
2020000000        0.2877030969      0.3716181815      27.71743393       16.48887253       -0.0003296888608  -0.001915602712   -0.1857537031     0.2993459105      
2060000000        0.3317987323      0.3472384214      27.58236504       14.36545753       -0.0005413882318  -0.001826945925   -0.1672476679     0.3569537103      
2100000000        0.3744274676      0.3194732964      27.14780617       12.3548584        -0.0003820119891  -0.001957071247   -0.121419549      0.3467613757      
2140000000        0.4144926667      0.2818769217      27.00097656       11.22183514       -0.0005424707197  -0.001895242603   -0.08483862877    0.4184150398      
2180000000        0.4589264691      0.2458971143      27.49625397       9.540906906       -0.0005285032094  -0.002024976071   -0.02243231609    0.4018644989      
2220000000        0.4960855544      0.1910241544      28.13111877       8.674592018       -0.0004845608491  -0.002026370261   -0.003798987716   0.4366591573      
2260000000        0.5261619687      0.1375002861      30.02143288       6.942997932       -0.0007322767633  -0.002326725284   0.0782391727      0.4064649343      
2300000000        0.5575751662      0.07073917985     30.61989784       5.714913845       -0.000573569152   -0.002218778012   0.1070357785      0.4225724936      
2340000000        0.5662086606      -0.0002011079341  32.87857437       3.375590801       -0.001056161709   -0.002655048855   0.1760840714      0.4063955843      
2380000000        0.5777660608      -0.0725582391     34.09613037       0.3865308762      -0.0008933930658  -0.002577324165   0.2094650567      0.3853962123      
2420000000        0.5641923547      -0.1496930569     35.9455452        -3.392280579      -0.00162477768    -0.002871273784   0.2636526823      0.3480422795      
2460000000        0.5509492755      -0.216379717      35.75503159       -7.475208282      -0.001421527937   -0.00282207015    0.303127259       0.300370276       
2500000000        0.5204054117      -0.291374892      36.49633789       -11.65017128      -0.002280935179   -0.002998339012   0.3219626844      0.287176013       
2540000000        0.4803321362      -0.3486104608     35.04393387       -16.73522186      -0.002233470324   -0.002995742718   0.3490147591      0.2075994313      
2580000000        0.4313234389      -0.4163169265     33.84111786       -21.20867157      -0.003014635295   -0.002937479643   0.3504916131      0.2017787248      
2620000000        0.3775881529      -0.453505367      30.99505806       -26.59134102      -0.003291690256   -0.002911891788   0.381665647       0.09190568328     
2660000000        0.310902983       -0.5100960732     28.02187538       -29.85995102      -0.003590252483   -0.002422526712   0.3500065207      0.1171893105      
2700000000        0.2429601699      -0.5235571861     23.09836769       -34.58495331      -0.004456267692   -0.00260201632    0.3709135354      0.0169457458      
2740000000        0.1878893226      -0.5552486181     19.78822327       -36.56142807      -0.004197201226   -0.00172718009    0.3330511451      0.02158261277     
2780000000        0.1166529432      -0.5541532636     14.12160397       -39.07008743      -0.005202713888   -0.002031606156   0.3327817023      -0.03934971616    
2820000000        0.05064346269     -0.5646960735     8.752019882       -40.77497101      -0.004913021345   -0.0009337879019  0.3198983669      -0.05440984666    
2860000000        -0.02361673489    -0.5579314828     3.373972893       -42.21244431      -0.005598086398   -0.000942567538   0.2764906883      -0.08154635131    
2900000000        -0.07265520096    -0.5360310078     -2.273656845      -41.19118118      -0.005586049054   -0.000168924671   0.2831247151      -0.1163285151     
2940000000        -0.1414634138     -0.5211459398     -7.018240929      -40.9559288       -0.005856363568   0.0003729922464   0.2264202982      -0.1090565398     
2980000000        -0.1868818849     -0.4910356998     -12.26179314      -39.00872803      -0.005840085912   0.0006564735668   0.2260541767      -0.1425088346     
3020000000        -0.2436654419     -0.4575642645     -16.4128685       -37.33749008      -0.005914888345   0.001680097543    0.1871337146      -0.1272037178     
3060000000        -0.2761477828     -0.4255462587     -20.99781227      -34.37657547      -0.006019757129   0.001855172915    0.171034947       -0.1720467508     
3100000000        -0.3248369694     -0.3847035766     -24.13306618      -31.46018219      -0.005617106333   0.002749705222    0.1657463312      -0.1310493946     
3140000000        -0.3428589702     -0.3417984247     -27.84692764      -27.63537216      -0.005997961387   0.003043060657    0.1146090478      -0.161398828      
3180000000        -0.3782621026     -0.3044933379     -30.36836052      -23.79124641      -0.005044418853   0.00392380869     0.1247329861      -0.1454047859     
3220000000        -0.3911507726     -0.2545204759     -32.98493958      -19.58984375      -0.005573899485   0.004106156528    0.07383695245     -0.1550893784     
3260000000        -0.4125224948     -0.2160419226     -34.21086121      -15.04107285      -0.004553462379   0.004822121933    0.1189578399      -0.1541186571     
3300000000        -0.4192038476     -0.1602397859     -35.17028427      -10.89453697      -0.004903313704   0.005310216919    0.04248706251     -0.1110481545     
3340000000        -0.4247467816     -0.1289059073     -35.16396332      -6.896166801      -0.00384332845    0.005649018567    0.07552432269     -0.1521982104     
3380000000        -0.4299404621     -0.07698057592    -35.2950058       -3.292732716      -0.003925537225   0.006433240604    0.02087910473     -0.1063345224     
3420000000        -0.4279965758     -0.03724499047    -35.05472183      0.9161840677      -0.003016777337   0.006170875859    0.06883529574     -0.1528036594     
3460000000        -0.4205648899     0.005629755091    -33.90593719      5.267831802       -0.002747126855   0.007375732996    0.02769873478     -0.06291259825    
3500000000        -0.4158807397     0.03681281209     -32.23468781      9.072695732       -0.002000800567   0.006755940616    0.0190841686      -0.1273021102     
3540000000        -0.399872154      0.08680526912     -30.7266922       11.71560669       -0.001571155502   0.007955801673    0.01214220095     -0.07381092012    
3580000000        -0.3850881159     0.1085035875      -28.94826126      15.23461628       -0.0009050647495  0.007302268408    0.02004562505     -0.133233577      
3620000000        -0.374783814      0.1520126164      -26.56747437      17.56576729       -0.0002005661663  0.008267826401    0.04058966786     -0.04755640402    
3660000000        -0.3466925621     0.1700972319      -24.11816978      20.34677696       0.00029471991     0.007517350838    -0.004959588405   -0.08907599747    
3700000000        -0.3337746263     0.2053530961      -20.98955345      22.42489243       0.001099389046    0.008308830671    0.02284426801     -0.06028948724    
3740000000        -0.2958493829     0.2286604047      -18.10477829      24.02201271       0.001577506773    0.007871130481    0.001095885644    -0.09253833443    
3780000000        -0.2841035128     0.2514918745      -15.12847519      25.23549271       0.002596065169    0.008035873994    0.04826078564     -0.05836902559    
3820000000        -0.2483317256     0.2766893506      -12.32692146      26.23708916       0.002909512026    0.007822648622    0.004615903832    -0.04088170454    
3860000000        -0.2328285873     0.2933285236      -9.090316772      27.16770935       0.00386562082     0.007582082413    0.01741431281     -0.06466034055    
3900000000        -0.1936930567     0.3111631274      -6.037660122      27.26963234       0.004375135992    0.00764530478     0.01777608693     -0.0534308292     
3940000000        -0.1750568151     0.3185691535      -2.800284386      27.44992638       0.005129984114    0.006877975538    0.03413347155     -0.07364940643    
3980000000        -0.1345408559     0.338424474       0.1043492705      27.0290184        0.005708477926    0.007094155531    0.03943816945     -0.02214184031    
4020000000        -0.1147783771     0.3332737684      2.790628195       26.3474102        0.006372956093    0.006014379673    -0.0001232293434  -0.0706968382     
4060000000        -0.07938705385    0.3529703915      5.342988014       25.59704971       0.006972821429    0.006166700739    0.05172512308     -0.04830213264    
4100000000        -0.05294737965    0.3458003104      7.762983799       24.45279884       0.007199323736    0.005230563227    0.02752663754     -0.07232639939    
4140000000        -0.0166640766     0.3589476347      9.909412384       23.08697128       0.008266388439    0.005217951722    0.07555646449     -0.0305646956     
4180000000        0.008392871358    0.3385550976      11.89004898       21.62509727       0.008230579086    0.004146098159    -0.0002446713042  -0.05725273862    
4220000000        0.02708850056     0.3611690402      13.9461565        20.06934166       0.00937256217     0.003746251576    0.0630921945      -0.07501574606    
4260000000        0.07628273964     0.3344783187      15.68365192       17.91086006       0.008817593567    0.003008246422    0.02874425799     -0.07163034379    
4300000000        0.08377502859     0.3298276663      17.23069          15.84601498       0.01006736979     0.002377361991    0.08175695688     -0.07141537219    
4340000000        0.1235863194      0.3259203732      18.57258415       13.70379829       0.00951039046     0.001499345293    0.02161359601     -0.05231711268    
4380000000        0.1470865458      0.3194532096      19.92098236       11.61807156       0.01061139163     0.0006528271479   0.05325435102     -0.1033620909     
4420000000        0.1766698956      0.293292731       20.46590996       9.081366539       0.009996909648    -5.109104677e-07  0.04341164604     -0.07850488275    
4460000000        0.1813694835      0.2892414629      20.9479084        6.940393925       0.01068169624     -0.001054750755   0.0586239621      -0.09885692596    
4500000000        0.2313543558      0.2720781565      21.24772835       4.459723473       0.01032792125     -0.001679592766   0.04290543497     -0.06516556442    
4540000000        0.2311999649      0.2443433553      21.12319183       2.68981123        0.01043195464     -0.0027433699     0.02179399133     -0.112381354      
4580000000        0.262696594       0.2377349734      21.20588684       0.6748440266      0.01059191115     -0.003342103213   0.05762633681     -0.1046285778     
4620000000        0.2689755559      0.2049290687      20.65797043       -1.428948641      0.009840012528    -0.004642337561   0.02546165511     -0.1147728711     
4660000000        0.2968485951      0.1965319365      20.29270363       -3.427749395      0.0103489235      -0.005031504668   0.05526624247     -0.1100167036     
4700000000        0.3058574796      0.1546295136      19.36038399       -5.703566551      0.009097130038    -0.006516553462   -0.0005392949097  -0.1203141883     
4740000000        0.3187190592      0.1481723189      18.53026962       -7.284309387      0.009605486877    -0.00668597687    0.05219611153     -0.1385895908     
4780000000        0.3323536217      0.1058061644      17.51226425       -9.091197014      0.008274967782    -0.008061592467   0.008702374063    -0.1167696938     
4820000000        0.341509223       0.09360872954     16.13313103       -10.60808849      0.00863737613     -0.008511056192   0.02977778018     -0.1400236487     
4860000000        0.3535286784      0.05112896487     14.736619         -12.25538063      0.00718908757     -0.009540805593   -0.01326295268    -0.1227860078     
4900000000        0.3449760079      0.03909675032     13.09557343       -13.31430054      0.007076607551    -0.01011185721    0.004258295055    -0.1628727466     
4940000000        0.3620747626      -0.004474707879   11.54303551       -14.58764935      0.005917365663    -0.01070503145    -0.005497369915   -0.1284367889     
4980000000        0.3503832221      -0.02458613925    9.922060013       -15.29374218      0.005271040834    -0.01162793022    -0.0259175729     -0.1544038206     
5020000000        0.360540688       -0.0572700426     8.336627007       -16.09347534      0.004361932166    -0.01166554634    -0.02269958705    -0.1410063058     
5060000000        0.3433279097      -0.07810652256    6.476331234       -16.47480392      0.003209546674    -0.01276627276    -0.04814393073    -0.1628093421     
5100000000        0.349252522       -0.1153600439     4.74487114        -16.93404007      0.002656709403    -0.01247927267    -0.02698614635    -0.1463793516     
5140000000        0.3223699927      -0.1424257457     2.748939991       -17.05033875      0.0009406829486   -0.01361627504    -0.08189783245    -0.1438752115     
5180000000        0.3352611959      -0.1635025144     1.366364241       -17.10248375      0.000428588537    -0.01300714538    -0.06391073018    -0.1618439555     
5220000000        0.3061568737      -0.1991274953     -0.5568128824     -17.02490997      -0.001084749587   -0.01390558388    -0.08425267786    -0.1457596719     
5260000000        0.2995704412      -0.2163177133     -2.163951874      -16.58770561      -0.001733786892   -0.01347281598    -0.07512695342    -0.1515070349     
5300000000        0.2707079649      -0.2481408417     -3.936666965      -16.17394638      -0.003275383962   -0.01356227137    -0.1131883189     -0.1167077273     
5340000000        0.2644540668      -0.2618976831     -5.456231594      -15.31111622      -0.004157319199   -0.0137929311     -0.1338371038     -0.1612305641     
5380000000        0.2312721461      -0.3009499013     -7.049662113      -14.70426655      -0.005650098901   -0.01297729462    -0.1117213368     -0.1224500984     
5420000000        0.2091738135      -0.2984071374     -8.319612503      -13.5265007       -0.006738450378   -0.01353900507    -0.1334772408     -0.118445307      
5460000000        0.1880570054      -0.3285522163     -9.613928795      -12.56387901      -0.007847365923   -0.01203596033    -0.1366708428     -0.06584060937    
5500000000        0.1615764052      -0.3380768001     -10.68453979      -11.2559948       -0.00908936467    -0.0128790671     -0.200395152      -0.09613811225    
