! RsaToolbox (C) 2015 Rohde & Schwarz America
! 
! Number of points: 37
! Number of ports: 2
! Balanced ports?: No
! 
! 
# Hz S RI R 50
3980000000        -0.1553795785     0.3273908496      0.3012756407      24.61841202       0.005665901117    0.00709223561     0.03948300332     -0.02510954812    
4060000000        -0.1020234227     0.3487899303      5.260124683       22.73480225       0.006877465174    0.00610967027     0.04991580173     -0.05182334036    
4100000000        -0.07773925364    0.3508051634      7.704746246       21.78367043       0.00713743642     0.005098264199    0.03001033328     -0.06938774884    
4140000000        -0.04003208131    0.360928148       9.333101273       20.44104385       0.008149572648    0.005148700438    0.07374230772     -0.03443553299    
4180000000        -0.01046697889    0.3452853262      11.51177788       19.88296318       0.008132236078    0.00407060422     0.0001649333863   -0.05626321584    
4260000000        0.06092450023     0.3399979472      14.73200226       16.89251328       0.008689537644    0.00292671076     0.03006933071     -0.07446944714    
4300000000        0.07004603744     0.3475173414      16.29306602       13.82348537       0.009998216294    0.002342125634    0.07690262794     -0.07088904083    
4340000000        0.1089943945      0.3379994035      17.29198265       12.2521143        0.009413259104    0.00147859205     0.02633639053     -0.05342127383    
4380000000        0.1356513798      0.3293368816      18.68114662       10.43025112       0.01053061616     0.0006290581659   0.05228284001     -0.1044559404     
4420000000        0.1661070436      0.3048539162      19.26846695       8.279849052       0.009855301119    8.942683053e-06   0.04355612397     -0.08041427284    
4460000000        0.1760064811      0.3033830225      19.77412987       5.916873932       0.01061277371     -0.001020127558   0.05752291903     -0.09805496037    
4500000000        0.2208884954      0.2885905802      19.67271042       3.87474966        0.010214746       -0.00166124152    0.04324485734     -0.06760691851    
4540000000        0.2278514206      0.2565134466      20.18902206       2.245782375       0.01028055139     -0.00274510053    0.02056381479     -0.1128032729     
4580000000        0.2590003312      0.2484589666      20.04379845       0.3024246693      0.010491658       -0.003295252798   0.05597807094     -0.1057001278     
4620000000        0.2676094174      0.2192552984      19.53623009       -1.67011857       0.009723086841    -0.004619439133   0.0256435927      -0.1159662381     
4660000000        0.2979890704      0.2085159272      19.28118896       -3.705758333      0.0102583766      -0.004955461249   0.05190187693     -0.1111643538     
4700000000        0.3053976893      0.1677552164      18.39010811       -5.597109795      0.00899476558     -0.006464108359   -0.0003046728671  -0.1211521029     
4740000000        0.322393775       0.1591664851      17.57551575       -7.335593224      0.009528676048    -0.006598635577   0.04820285738     -0.1393365264     
4780000000        0.3336863816      0.1156018376      16.6163578        -8.919243813      0.008205601946    -0.007939778268   0.009467959404    -0.1171849892     
4820000000        0.3471651673      0.1072426438      14.88821697       -10.382967        0.008603012189    -0.00838354975    0.02624716051     -0.139823243      
4860000000        0.3546578586      0.05888015032     14.11094475       -11.9179697       0.007065683603    -0.009457399137   -0.01476335898    -0.1225740537     
4900000000        0.35455513        0.04919417575     12.15393353       -13.01839542      0.007033788133    -0.009995743632   0.001910174266    -0.1617700458     
4940000000        0.3686845005      0.007227114402    11.03303051       -14.11693478      0.005920215044    -0.01066260692    -0.007136357948   -0.1281834394     
4980000000        0.3584669232      -0.01748558879    9.32973671        -14.88087749      0.00528656831     -0.01149264071    -0.0285618566     -0.1527606398     
5020000000        0.3699695766      -0.04832648113    7.767141819       -15.48659706      0.004426380154    -0.01160511281    -0.02502684295    -0.1401893944     
5060000000        0.3508491218      -0.07426130772    6.11741972        -16.09070778      0.003291140543    -0.01270663459    -0.04899527133    -0.1601725519     
5100000000        0.3641261756      -0.1111185178     4.183056831       -16.23607063      0.002745393664    -0.0124290958     -0.02894465998    -0.1455486268     
5140000000        0.3302591443      -0.1382153928     2.565670252       -16.55400467      0.0009375080117   -0.01353892125    -0.0829429999     -0.1417647898     
5180000000        0.3447530866      -0.1641017795     0.8959180117      -16.40289116      0.0004915940808   -0.01301647816    -0.06359329075    -0.159540534      
5220000000        0.3147930801      -0.198467955      -0.6959756613     -16.46603012      -0.001083663781   -0.01382076088    -0.08393652737    -0.144789055      
5260000000        0.3087056577      -0.2195726037     -2.400930405      -15.98298073      -0.001637360547   -0.01344997901    -0.07700133324    -0.1500650346     
5300000000        0.279483974       -0.2484304011     -3.946877241      -15.57962132      -0.003250385867   -0.01354977675    -0.1133041978     -0.1156144887     
5340000000        0.2729163766      -0.2639285922     -5.521202087      -14.81312752      -0.004044904839   -0.01372000389    -0.1339446902     -0.1580523849     
5380000000        0.2401130497      -0.3038886487     -6.963021755      -14.094244        -0.005593534093   -0.01294141822    -0.1120203733     -0.1216776595     
5420000000        0.2185492516      -0.3043490052     -8.280842781      -13.10831547      -0.006625804119   -0.01351690572    -0.1347485036     -0.1157194972     
5460000000        0.193821311       -0.3373088241     -9.596493721      -12.06489754      -0.007778963074   -0.01205490157    -0.1368816793     -0.06448181719    
5500000000        0.1674831361      -0.3450284004     -10.61450005      -10.73600101      -0.009026600048   -0.01292089466    -0.2013374865     -0.09442012757    
