! RsaToolbox (C) 2015 Rohde & Schwarz America
! 
! Number of points: 101
! Number of ports: 2
! Balanced ports?: No
! 
! 
# Hz S RI R 50
1500000000        -0.3741364181     0.3622814715      -28.18832397      55.29628372       0.001595187234    -0.001844243496   -0.2159113586     0.02559972554     
1540000000        -0.3165431619     0.3964284062      -18.49583817      56.91273117       0.001215561293    -0.001856916118   -0.2300866097     0.05696742982     
1580000000        -0.2497125268     0.4270375669      -10.5460453       57.50307465       0.001148901647    -0.002123776358   -0.2270776182     0.03389117494     
1620000000        -0.1919163465     0.4412810206      -1.637665868      56.70498657       0.0009005839238   -0.002025593538   -0.2219079137     0.0744587183      
1660000000        -0.1337496787     0.4505688846      5.199046135       53.2767067        0.0007080340292   -0.002256474691   -0.2357011884     0.07112653553     
1700000000        -0.07377701998    0.4550867081      12.22467804       50.11288452       0.0005512821372   -0.002178859198   -0.2346190959     0.1021982953      
1740000000        -0.02508484758    0.4528229833      17.27725792       45.85734558       0.0002619808365   -0.002277513267   -0.2513630688     0.1054201797      
1780000000        0.02309922688     0.449352473       21.32497025       41.29029465       0.0002382708044   -0.002174604218   -0.2350652218     0.1341246665      
1820000000        0.06708400697     0.4421412647      24.77675819       36.20913315       -0.0001525935077  -0.002160910517   -0.2466314733     0.165958792       
1860000000        0.1141585335      0.4278154671      26.84911156       31.35314751       -1.384587631e-05  -0.002188145183   -0.245496586      0.1833916456      
1900000000        0.1561546922      0.4163492322      28.27238274       26.67892456       -0.0003655460023  -0.001972001279   -0.2396089733     0.2224875689      
1940000000        0.2010295987      0.4025743604      28.64548874       22.54519653       -0.0001817093289  -0.002073520562   -0.2219894677     0.2325033545      
1980000000        0.242487222       0.3879748583      28.80104065       19.24378777       -0.0005484995199  -0.00189824542    -0.1990769953     0.3038613796      
2020000000        0.2889006734      0.3638567924      28.11357117       16.15460014       -0.0003337326634  -0.001918370835   -0.1859004498     0.2996788323      
2060000000        0.3256113231      0.3422253728      27.68704033       14.43086147       -0.0005306601524  -0.001830753754   -0.1683079898     0.3567066789      
2100000000        0.3720824718      0.3174090683      27.39000702       12.34757805       -0.0003934176639  -0.001955942484   -0.1218458861     0.3469639719      
2140000000        0.4122881591      0.2815416753      27.22773552       11.29584312       -0.000509087462   -0.001874388545   -0.084085159      0.4181421995      
2180000000        0.4573917687      0.2421448827      27.79085541       9.498736382       -0.0005140880239  -0.002013015794   -0.0230858475     0.4021591842      
2220000000        0.4948799908      0.1923626065      28.42073059       8.694360733       -0.0004717063275  -0.002037864411   -0.004317793995   0.437490046       
2260000000        0.5239444971      0.1342445165      30.24689293       6.807743549       -0.0007048669504  -0.002301238244   0.07873739302     0.4060505927      
2300000000        0.5530946255      0.06878777593     30.74077225       5.523756027       -0.0005531233037  -0.00222352799    0.1069890112      0.4220321178      
2340000000        0.568569839       0.002438841388    33.17313766       3.613573074       -0.001091855345   -0.002671512309   0.1749992967      0.4066446126      
2380000000        0.5750133395      -0.07148072869    34.27290726       0.4019168615      -0.0008777096518  -0.00261281617    0.2084185034      0.3855342865      
2420000000        0.5618594289      -0.1459596902     36.11975098       -3.251913309      -0.001615069224   -0.002915077144   0.2635865211      0.3487312496      
2460000000        0.5530640483      -0.2202053517     36.29737854       -7.868693829      -0.001432434306   -0.002828096738   0.3033415675      0.3015346229      
2500000000        0.5182998776      -0.2924121618     36.64652634       -11.64153767      -0.002308852272   -0.002988148713   0.3209311664      0.2875451744      
2540000000        0.4879337847      -0.3506768644     35.95044708       -16.80594444      -0.002318204148   -0.003004757222   0.3499496281      0.2064639926      
2580000000        0.4272910655      -0.4165355861     33.967453         -21.25647354      -0.002989044413   -0.002878518542   0.350509882       0.2023959458      
2620000000        0.3809686005      -0.4560939372     31.57907867       -26.77929688      -0.003300376702   -0.002864373149   0.3804187179      0.09112553298     
2660000000        0.3130050898      -0.514759779      28.48841667       -30.2362957       -0.003585242201   -0.002411725698   0.3495155573      0.1167817563      
2700000000        0.2455537617      -0.5252203345     23.98246384       -34.7510643       -0.004437565338   -0.002572512021   0.3701223433      0.01701881364     
2740000000        0.1789184362      -0.5594705343     19.39157295       -37.00622177      -0.004171226639   -0.001665249933   0.3329249322      0.02216831967     
2780000000        0.1069444418      -0.5617505908     14.48494911       -39.97423935      -0.005152825266   -0.001971307676   0.3321866691      -0.03982008621    
2820000000        0.05440894142     -0.5640620589     9.11755085        -40.9453125       -0.004881259985   -0.0009299579542  0.3203630149      -0.05474207923    
2860000000        -0.02465654351    -0.5532667041     3.702650547       -42.01259995      -0.005624752957   -0.0009604297229  0.275872767       -0.08158171922    
2900000000        -0.07615471631    -0.5367370844     -2.304764748      -41.73830795      -0.005582534708   -0.0001802387269  0.2852201462      -0.1167325303     
2940000000        -0.1460125595     -0.5241366625     -7.08311367       -41.50030136      -0.005854652263   0.00038824699     0.2275973558      -0.1097926795     
2980000000        -0.1899338663     -0.4914700985     -12.12092113      -39.48728561      -0.005868851673   0.0007054632297   0.2273056358      -0.1435042322     
3020000000        -0.2468535304     -0.4632086456     -16.39657402      -37.96191788      -0.0059051672     0.001629791921    0.1864676625      -0.1282789111     
3060000000        -0.2818648219     -0.4252763391     -21.16580009      -34.73835373      -0.005952450447   0.001851167064    0.1713042706      -0.1710066795     
3100000000        -0.327637583      -0.3880122602     -24.14457321      -32.04207993      -0.00558173703    0.002765358659    0.1666917354      -0.13195467       
3140000000        -0.3445376158     -0.335737735      -28.03967094      -27.77673531      -0.005984585732   0.003028723411    0.1155588999      -0.1610399187     
3180000000        -0.380017221      -0.3012703657     -30.4910984       -23.83529663      -0.005051112734   0.00390976062     0.1245553568      -0.1453636587     
3220000000        -0.3941932917     -0.2490643412     -33.23085785      -19.74277306      -0.005594780203   0.004101579078    0.07303598523     -0.1560477614     
3260000000        -0.4134029448     -0.215786159      -34.43637466      -15.27058029      -0.004564841278   0.004798432346    0.119358182       -0.1538214833     
3300000000        -0.4214659631     -0.1606946141     -35.37352753      -11.1526432       -0.004889046308   0.005355631001    0.04132714868     -0.1117370427     
3340000000        -0.4272013307     -0.1311897337     -35.57215118      -7.150504589      -0.003832538612   0.005658386741    0.07552924007     -0.1532143205     
3380000000        -0.4306389987     -0.07320939749    -35.53364182      -3.20313859       -0.003891263623   0.006435603369    0.02013000473     -0.1059230119     
3420000000        -0.4263300598     -0.03469376266    -35.18510818      1.107230663       -0.003065729979   0.006155003794    0.06814578176     -0.152732715      
3460000000        -0.4236440361     0.01033841725     -34.43685913      5.431657314       -0.002827210817   0.007357225288    0.02794774994     -0.06111146137    
3500000000        -0.4204549491     0.03713488579     -32.75514221      9.106006622       -0.002012095647   0.006759811658    0.01921133138     -0.1289386153     
3540000000        -0.3993855417     0.08887014538     -30.93153954      11.87479115       -0.001571546542   0.007974934764    0.01232746989     -0.07430843264    
3580000000        -0.3847571909     0.1060973257      -29.26663589      14.92855072       -0.0008954514633  0.007298811339    0.02094205469     -0.1327214837     
3620000000        -0.3738362789     0.1519774199      -26.74770355      17.41765594       -0.0001918358321  0.008264624514    0.04019766673     -0.04669544473    
3660000000        -0.345408529      0.172533527       -24.25016403      20.49409103       0.0002689195098   0.007524673361    -0.004488782492   -0.089189969      
3700000000        -0.3370036483     0.2053344548      -21.24667931      22.62449074       0.001103971503    0.008309875615    0.02276015282     -0.06007497013    
3740000000        -0.2948906124     0.2289834768      -18.23519135      24.0738678        0.00155607285     0.007896610536    0.0006918727886   -0.09209936857    
3780000000        -0.2844420075     0.2521567941      -15.30300522      25.3412571        0.00260178512     0.008020785637    0.04821623862     -0.05813398585    
3820000000        -0.2471466511     0.2764087915      -12.4031477       26.30213928       0.002895377344    0.007835877128    0.003818860278    -0.04086885229    
3860000000        -0.231028527      0.2926266789      -9.108533859      27.1325264        0.003862146521    0.007597831544    0.01727949455     -0.06534635276    
3900000000        -0.1904985309     0.3134695888      -5.838305473      27.54959488       0.004375297111    0.007646433078    0.01774331182     -0.05330885947    
3940000000        -0.1726976931     0.3190075755      -2.736498833      27.58092117       0.005152255762    0.006878240965    0.03339969739     -0.07377334684    
3980000000        -0.137297675      0.3404194117      -0.0455892086     27.36282158       0.005717402324    0.007100949995    0.03995422274     -0.02245141193    
4020000000        -0.1117346212     0.3359481096      2.940117359       26.54858017       0.006378997117    0.006031858269    -0.0006648406852  -0.07128022611    
4060000000        -0.0793453753     0.3522548079      5.352958679       25.59459877       0.006984755397    0.006185125094    0.05209253356     -0.04918272421    
4100000000        -0.05453929678    0.3455696106      7.64745903        24.50062943       0.007222907152    0.005222704262    0.02744310535     -0.07278450578    
4140000000        -0.01489245892    0.3601595163      10.0221262        23.16074371       0.008296597749    0.005197636317    0.07527571917     -0.03133875132    
4180000000        0.007137607783    0.3407219052      11.94034672       21.91891098       0.008239927702    0.004136539996    2.099340782e-05   -0.05763819069    
4220000000        0.02977401949     0.3610645235      14.09723377       20.01948738       0.009397902526    0.003700754372    0.06244256347     -0.07470995188    
4260000000        0.07838743925     0.3342002034      15.71137333       17.93179131       0.008836779743    0.003010014072    0.02837472782     -0.07064983249    
4300000000        0.08580747247     0.3346278071      17.38580894       16.10918236       0.01007947698     0.002387312008    0.08164767176     -0.07143379003    
4340000000        0.1232753173      0.3275415897      18.59486008       13.83007717       0.009512693621    0.001530734589    0.02181028016     -0.05215233937    
4380000000        0.1488443017      0.3177126646      19.8829155        11.54767799       0.01062287297     0.0006331418408   0.05499493703     -0.1039708033     
4420000000        0.1790183932      0.2909686565      20.51336861       8.907100677       0.009985551238    -2.746700193e-05  0.04382684827     -0.07768106461    
4460000000        0.1832002252      0.2891804278      21.03222656       6.986875534       0.01066126022     -0.001053365297   0.05962210894     -0.09903427958    
4500000000        0.231201157       0.273591727       21.38193893       4.622777939       0.01030208543     -0.001657308894   0.04289613292     -0.06408955902    
4540000000        0.2313738316      0.2432291806      21.16742897       2.66278553        0.01042103115     -0.002765860641   0.02127035893     -0.1124034077     
4580000000        0.2622149587      0.2365432084      21.27831078       0.815916419       0.01058197208     -0.00333169708    0.0581465885      -0.1049031913     
4620000000        0.2704348862      0.2031657398      20.77349472       -1.417775154      0.00981464237     -0.004646656103   0.02567477897     -0.115427196      
4660000000        0.2996239662      0.192922473       20.38040161       -3.680207491      0.01035416592     -0.005046141334   0.05537443608     -0.1105165556     
4700000000        0.3040123284      0.1529311538      19.36002731       -5.687031269      0.009119332768    -0.006498445757   -0.0004423696082  -0.1211311445     
4740000000        0.3198358715      0.1442552358      18.58971214       -7.402872562      0.009606517851    -0.006713515148   0.05174692348     -0.1404952109     
4780000000        0.3291555345      0.1040761098      17.32791901       -9.088253975      0.008291321807    -0.00802765321    0.008870899677    -0.1175239384     
4820000000        0.3401916623      0.09330526739     16.11726952       -10.59775162      0.008602974005    -0.008472692221   0.02917211317     -0.14038755       
4860000000        0.3514032364      0.04930306226     14.7003231        -12.22255611      0.007224828005    -0.009504557587   -0.01364440005    -0.1229644865     
4900000000        0.3461392224      0.0403425619      13.18883038       -13.38876629      0.00711083319     -0.01015033387    0.003142173868    -0.1629496962     
4940000000        0.3604201674      -0.004519151524   11.61432743       -14.58355045      0.005923469551    -0.01070527174    -0.005384183023   -0.1276823878     
4980000000        0.3480798602      -0.02589632198    9.827194214       -15.27526379      0.005272208247    -0.01160676405    -0.02670321986    -0.1532305479     
5020000000        0.3548564315      -0.05874762684    8.186308861       -15.94732666      0.004361626226    -0.01168436557    -0.02304166742    -0.1412819177     
5060000000        0.3411154151      -0.08018277586    6.491485119       -16.41570663      0.003176473081    -0.01277862582    -0.04799843207    -0.1618150026     
5100000000        0.349181354       -0.1161140725     4.724997997       -17.0110836       0.002682667226    -0.01249316894    -0.02715702169    -0.1457108408     
5140000000        0.3213268518      -0.1395934373     2.81487751        -16.9625988       0.0008821752854   -0.01365562528    -0.08198691905    -0.1447116435     
5180000000        0.3318200409      -0.1658653617     1.304592848       -17.07458687      0.0004156384966   -0.01302101091    -0.06264494359    -0.1624267995     
5220000000        0.3036402762      -0.1987638772     -0.6083533764     -16.97267342      -0.001095657004   -0.01387216803    -0.08304221183    -0.1447131038     
5260000000        0.2978279591      -0.2193195522     -2.125965595      -16.65719414      -0.001749793533   -0.01351191383    -0.07511645555    -0.1524370015     
5300000000        0.2686390877      -0.2451053858     -3.853662491      -16.03081703      -0.003287373343   -0.01359147113    -0.1134562194     -0.1167487949     
5340000000        0.2619712353      -0.2573477626     -5.297193527      -15.29440022      -0.00417620549    -0.01374655217    -0.1336192936     -0.1609718651     
5380000000        0.229694739       -0.2978793085     -6.990965843      -14.6833868       -0.005637916736   -0.01296471152    -0.111116372      -0.1212789565     
5420000000        0.2081288099      -0.2995162904     -8.318929672      -13.49297142      -0.006722394843   -0.01348891295    -0.1348532736     -0.117612794      
5460000000        0.1877557933      -0.3312398493     -9.679741859      -12.62290764      -0.007852598093   -0.01204563864    -0.1367797107     -0.06665816903    
5500000000        0.1646157056      -0.3369397223     -10.68262482      -11.34014702      -0.009106688201   -0.01289651822    -0.2007234693     -0.09629130363    
