! RsaToolbox (C) 2015 Rohde & Schwarz America
! 
! Number of points: 40
! Number of ports: 2
! Balanced ports?: No
! 
! 
# Hz S RI R 50
3820000000        -0.2659921646     0.2566697001      -10.58348083      23.80261612       0.002924886299    0.007781497203    0.006031670142    -0.04144121334    
3900000000        -0.2121659815     0.2962003648      -5.185622692      24.8164444        0.004358429927    0.0076198522      0.01921449415     -0.05534581095    
3980000000        -0.1507840604     0.3294204175      0.277648598       25.10329628       0.005708101206    0.007072123699    0.03946267068     -0.02450990118    
4060000000        -0.09676802158    0.3492329121      5.313823223       23.36664009       0.006946705747    0.006144979969    0.05021078885     -0.05098044127    
4100000000        -0.07195061445    0.3492014408      7.747300148       22.4175396        0.007212963887    0.005166629329    0.02891845629     -0.07025910914    
4140000000        -0.03435195982    0.3598567545      9.481124878       21.02652931       0.008209267631    0.005186745431    0.0743650347      -0.03367212042    
4180000000        -0.00513232965    0.344167918       11.65914822       20.29047966       0.00822083652     0.00411254121     0.0002400658559   -0.05675815046    
4220000000        0.009493374266    0.3700959384      13.04183483       17.1661377        0.009360933676    0.003701742273    0.06216403842     -0.07361822575    
4260000000        0.06493134797     0.3375197351      14.93012524       17.06604958       0.008774419315    0.002949276008    0.02962957509     -0.0736162886     
4300000000        0.07339727134     0.3440058231      16.57286453       14.33202171       0.01004600339     0.002376210876    0.07813943923     -0.07107689977    
4340000000        0.1126337349      0.3359877467      17.60883522       12.58732796       0.009466636926    0.001485748799    0.0250715334      -0.05294016749    
4380000000        0.1378996819      0.3283139169      18.99838257       10.75237751       0.01058117766     0.0006373077631   0.05283825472     -0.1041474044     
4420000000        0.1693158299      0.3020267487      19.56227303       8.44408989        0.009943004698    -1.164790592e-05  0.04373628274     -0.07995981723    
4460000000        0.1770544201      0.2985335886      20.03055382       6.115509033       0.01065947115     -0.001042849035   0.05788335204     -0.09843292087    
4500000000        0.2241213918      0.2844804227      20.04508781       3.968724728       0.0102579752      -0.001681801514   0.04335299134     -0.06720825285    
4540000000        0.2295669913      0.2546204627      20.41806984       2.349005699       0.01038052794     -0.002731106477   0.02076324448     -0.1128197238     
4580000000        0.2605426013      0.2462537885      20.36747551       0.3638387918      0.01056312211     -0.003318400122   0.05612580851     -0.1052402556     
4620000000        0.2678767443      0.2155626565      19.77694321       -1.625104547      0.009789600037    -0.004642995074   0.02546271123     -0.1156400368     
4660000000        0.298181355       0.2057211697      19.50130081       -3.690537214      0.01033472549     -0.005014163908   0.05263656378     -0.1112347543     
4700000000        0.3051380515      0.165301159       18.57380295       -5.566572666      0.009069901891    -0.006486714818   -0.0003274907358  -0.1210813969     
4740000000        0.3217501044      0.1558749825      17.76797295       -7.355322838      0.00959443301     -0.006668666843   0.04905097187     -0.1398364902     
4780000000        0.3339518011      0.1133620963      16.79529381       -9.001191139      0.008270738646    -0.008024320006   0.008968606591    -0.1174032986     
4820000000        0.3447870612      0.104064092       15.14687538       -10.41389275      0.008622170426    -0.008432607166   0.02654983476     -0.14022322       
4860000000        0.354370147       0.05727846548     14.27661991       -11.98554611      0.007161126938    -0.009501444176   -0.0145350378     -0.1230290383     
4900000000        0.3520431817      0.04698145762     12.33637142       -13.11586857      0.007100281306    -0.01008707657    0.0018245182      -0.1620182246     
4940000000        0.3681356311      0.003559229895    11.10096931       -14.27424526      0.005908734165    -0.01066214126    -0.006871563848   -0.1276489496     
4980000000        0.3563593924      -0.01819232665    9.46353817        -14.93696594      0.005321464501    -0.01158262603    -0.02794993669    -0.1527977586     
5020000000        0.368380785       -0.05100100487    7.850683212       -15.61578274      0.004378389101    -0.01166731212    -0.02395648696    -0.1404361874     
5060000000        0.3493196666      -0.07609429955    6.173389435       -16.1692543       0.003194869729    -0.01275905594    -0.04891525954    -0.160662815      
5100000000        0.3616500795      -0.1103434116     4.356617928       -16.38269806      0.002661357401    -0.0124491239     -0.02882374264    -0.1456452906     
5140000000        0.3293714225      -0.1383032799     2.620139599       -16.67173004      0.0009231470758   -0.01359146275    -0.08256010711    -0.1422939003     
5180000000        0.3410997093      -0.1652241349     0.9406354427      -16.51486588      0.0004410416586   -0.01302676369    -0.06345052272    -0.1599875391     
5220000000        0.311802119       -0.1984072179     -0.6737838984     -16.5467453       -0.00113118859    -0.01385999937    -0.08380899578    -0.1449632049     
5260000000        0.3057830036      -0.218408078      -2.373020172      -16.07870865      -0.001705476665   -0.01346015558    -0.07663542032    -0.1503813714     
5300000000        0.2778910697      -0.2481269091     -3.924883127      -15.70008469      -0.003275036812   -0.01355860382    -0.1136415154     -0.1162320226     
5340000000        0.2706620693      -0.2631897926     -5.514925957      -14.91366577      -0.004114973824   -0.01376747247    -0.134291023      -0.1589653343     
5380000000        0.2375350744      -0.3034081161     -7.028577805      -14.19415283      -0.005614742171   -0.01297298819    -0.1119546518     -0.1212905496     
5420000000        0.2171313167      -0.3028121889     -8.26164341       -13.21743488      -0.006682471838   -0.01352410112    -0.13455531       -0.1160859466     
5460000000        0.1927651316      -0.334428668      -9.559000969      -12.16558647      -0.007835601456   -0.01203473285    -0.1369026601     -0.06435816735    
5500000000        0.1648869365      -0.3429499567     -10.64114761      -10.79292488      -0.00908313226    -0.01291071996    -0.201058194      -0.09474786371    
