! RsaToolbox (C) 2015 Rohde & Schwarz America
! 
! Number of points: 99
! Number of ports: 2
! Balanced ports?: No
! 
! 
# Hz S RI R 50
1580000000        -0.2746170759     0.4337235689      -11.15353966      51.07969284       0.00114417146     -0.002152157947   -0.2257776707     0.03502172232     
1620000000        -0.2240685821     0.4484961629      -0.8961760402     50.17237473       0.0008962146821   -0.002042579465   -0.2212911695     0.07481292635     
1660000000        -0.1512735933     0.4675016105      3.151390553       49.41212845       0.0007115351036   -0.002286850242   -0.2338422835     0.07127230614     
1700000000        -0.09836161882    0.4674410522      10.57440948       46.15252686       0.0005578995333   -0.002163097728   -0.234846279      0.1016812772      
1740000000        -0.03817985579    0.4705361724      15.74028301       43.58619308       0.0002593019453   -0.002271253616   -0.2504158318     0.1047688797      
1780000000        0.01463967748     0.4659091532      19.32458115       39.5816803        0.0002391945454   -0.002205276163   -0.2346778959     0.1335952282      
1820000000        0.06293798238     0.461569488       23.32868958       35.07643509       -0.000134713875   -0.00214179093    -0.2447934002     0.1647062451      
1860000000        0.1146489531      0.4450089037      25.38166237       30.93590927       -1.14667364e-05   -0.002127846703   -0.2446183413     0.1829043478      
1900000000        0.1535183638      0.4397743642      26.97188759       26.00983047       -0.0003987923556  -0.001994590508   -0.2384771258     0.2222459912      
1940000000        0.20370166        0.419542402       27.43228722       22.71564674       -0.0001936884946  -0.002078976482   -0.2228830606     0.2337300777      
1980000000        0.2457892597      0.4030256271      27.79364204       19.30567551       -0.0005652855034  -0.001891413471   -0.1989094615     0.3025444746      
2020000000        0.2925173044      0.3818597496      27.10378456       16.59664154       -0.0003356611414  -0.00193108432    -0.1854952127     0.2992869616      
2060000000        0.3351506591      0.3568137884      27.13138008       14.520298         -0.0005466616713  -0.001838717493   -0.1668021679     0.3559321165      
2100000000        0.3813660145      0.3265830874      26.60923386       12.48919678       -0.0004055303871  -0.001950261532   -0.1214353144     0.3467142284      
2140000000        0.4224150479      0.2867927253      26.77002907       11.30311108       -0.0005305025843  -0.001895654481   -0.08399640769    0.4182760119      
2180000000        0.4645885229      0.2527899444      26.98396492       9.802921295       -0.0005321312346  -0.002034213394   -0.02271725982    0.4018313587      
2220000000        0.5022748709      0.1949798167      27.83285904       8.810334206       -0.0004509237478  -0.002035310492   -0.003690518439   0.4365389049      
2260000000        0.531519115       0.1395018101      29.58173752       6.95059824        -0.0007469007978  -0.002313089557   0.07870591432     0.4057932794      
2300000000        0.5629127026      0.07450452447     30.13441658       5.91656208        -0.0005894428468  -0.002236707835   0.1077103987      0.422273159       
2340000000        0.571474731       0.002299645916    32.48638535       3.363275051       -0.00107743789    -0.002652338473   0.1766633391      0.4058575034      
2380000000        0.5841776729      -0.06737138331    33.6336174        0.7950501442      -0.0008868126897  -0.002570716897   0.2084826529      0.3851615489      
2420000000        0.5660634041      -0.1471898705     35.38131332       -3.40786171       -0.001630432787   -0.0029010328     0.26353091        0.3489523232      
2460000000        0.5570644736      -0.2181992978     35.44718552       -7.511751175      -0.001432318473   -0.002821677132   0.3024550378      0.3005315661      
2500000000        0.519974947       -0.2924007475     35.62200546       -12.08278465      -0.002301509958   -0.003010521643   0.3225518465      0.2862308323      
2540000000        0.4844224453      -0.3484739065     34.70214081       -16.75461197      -0.002280083019   -0.003034891095   0.3495407403      0.2066794932      
2580000000        0.434410125       -0.4118585289     32.68783569       -21.11382484      -0.003025213955   -0.002954021329   0.3517094851      0.2029709518      
2620000000        0.3801676929      -0.4545193613     30.33708382       -26.51395798      -0.003349201521   -0.0029108983     0.381283164       0.09289050847     
2660000000        0.3126271367      -0.5047097802     27.23351669       -29.31398392      -0.003565192455   -0.002432048786   0.3492611647      0.1168706492      
2700000000        0.2581788301      -0.5143586397     21.38957787       -33.64957809      -0.004403028637   -0.002562430222   0.3682029843      0.01802105084     
2740000000        0.1854055822      -0.5524884462     19.07922745       -36.1084671       -0.004209108185   -0.001687395386   0.3318760693      0.02067545056     
2780000000        0.1231106892      -0.546777904      11.53860188       -37.64295959      -0.005136345513   -0.001962899696   0.3305455446      -0.03832464293    
2820000000        0.05321907997     -0.5652865767     8.340231895       -40.39708328      -0.004902570974   -0.0008831837331  0.3197615445      -0.05461316928    
2860000000        -0.01323339902    -0.5537464023     2.590019226       -40.99324036      -0.005600378383   -0.000989379012   0.276632607       -0.08055348694    
2900000000        -0.0699083358     -0.5358116031     -2.910254717      -40.28552628      -0.005524053704   -0.0001696499385  0.2837154567      -0.1178886145     
2940000000        -0.133816421      -0.5169590712     -7.321243763      -39.79368973      -0.005854325369   0.0003797134559   0.2277054191      -0.1097376198     
2980000000        -0.1798198223     -0.4920570552     -12.46268749      -37.7506485       -0.00584244635    0.0006715167547   0.2256561071      -0.1424757093     
3020000000        -0.2344769537     -0.4551928937     -16.15418625      -36.41004944      -0.005870132707   0.001649767626    0.1869352609      -0.1286389232     
3060000000        -0.2682128549     -0.4246118069     -20.74451065      -32.71087265      -0.005968552548   0.00184585643     0.1704282463      -0.1717734337     
3100000000        -0.3179666102     -0.3833501935     -23.76089287      -30.65462303      -0.005573912524   0.002762768883    0.1656462103      -0.132665053      
3140000000        -0.3377427757     -0.340416342      -27.57286835      -26.14712715      -0.005944658536   0.003011729103    0.1158485934      -0.1611644626     
3180000000        -0.3718960583     -0.3040316701     -29.7617054       -23.21270752      -0.005034450907   0.003889779793    0.123568207       -0.1464187652     
3220000000        -0.3893306255     -0.2557393014     -32.59696579      -18.49691772      -0.005584682804   0.004079629201    0.07425004244     -0.1553794146     
3260000000        -0.4098766744     -0.2182392329     -33.6014595       -14.74710655      -0.004549728241   0.004807477817    0.1173895523      -0.1539111137     
3300000000        -0.4193365574     -0.1635874063     -34.79324722      -10.59173584      -0.00488939276    0.005316838622    0.04236085713     -0.1116350144     
3340000000        -0.4236762226     -0.1316621453     -34.45483398      -6.421415806      -0.003853388363   0.005635211244    0.07341153175     -0.1530329287     
3380000000        -0.4266167283     -0.07652908564    -34.69872665      -2.985033512      -0.003888556967   0.006415572017    0.02035587654     -0.1055648401     
3420000000        -0.4254150689     -0.0415738374     -34.44785309      0.9268416166      -0.003033913439   0.006154637318    0.06779935211     -0.1525753886     
3460000000        -0.4160496891     0.002700289944    -33.11661148      5.318751335       -0.002795112552   0.007333972026    0.02748160623     -0.06308888644    
3500000000        -0.4159969091     0.03477751836     -31.84576225      9.050899506       -0.001993195154   0.006745714694    0.01866978407     -0.1274581552     
3540000000        -0.4003709257     0.08357688785     -30.65044022      11.64114571       -0.001577811548   0.007943036035    0.01130229793     -0.07383082807    
3580000000        -0.3843559325     0.1029247195      -28.36837387      14.90133953       -0.0009073350811  0.007293156348    0.01998202503     -0.1320919693     
3620000000        -0.3733334541     0.1470909566      -26.27205276      17.22238541       -0.0002115129028  0.008264184929    0.04040376469     -0.04715459794    
3660000000        -0.3451022804     0.1661770642      -23.55492783      20.12165642       0.0002806807752   0.007545759436    -0.004472591914   -0.0881408304     
3700000000        -0.3323867917     0.2051528245      -20.57691765      22.39174652       0.001090981299    0.00831948407     0.02204550989     -0.05984261632    
3740000000        -0.2974947691     0.2274352163      -17.87641525      23.92113495       0.001587989507    0.007898821495    0.001304996898    -0.09167199582    
3780000000        -0.2870779932     0.2502099574      -15.03922272      25.10689163       0.002588621574    0.008032127284    0.04876666516     -0.05824440718    
3820000000        -0.24894391       0.2756630778      -12.20802307      26.13168144       0.002907548333    0.007841449231    0.004911085591    -0.04106832668    
3860000000        -0.2330140769     0.2905108035      -8.841838837      26.87376022       0.003861703211    0.007594978437    0.01760849915     -0.06466860324    
3900000000        -0.1942545325     0.3111160398      -5.920687675      27.20492363       0.004368845373    0.007672776002    0.01817245409     -0.05357943848    
3940000000        -0.1797839999     0.31631881        -2.807938814      27.20888901       0.005143352784    0.006871199701    0.03333640099     -0.0739588961     
3980000000        -0.1352046728     0.3366894722      0.1512747854      26.86693192       0.005723618902    0.00710960757     0.04030284286     -0.02312028967    
4020000000        -0.1178429797     0.3358208537      3.005817413       26.3044281        0.006380350795    0.006055490579    0.0005435391795   -0.0720051676     
4060000000        -0.08214185387    0.352214396       5.303479671       25.38685036       0.006971253548    0.006198482588    0.05179037154     -0.04955544695    
4100000000        -0.05678283423    0.3470804989      7.683030605       24.34727478       0.00722553255     0.005221264437    0.02730571851     -0.07307403535    
4140000000        -0.01839789376    0.3597508967      9.89832592        22.89217186       0.008285599761    0.00521772448     0.07589709014     -0.03112784214    
4180000000        0.006771000568    0.3391757607      11.9529047        21.58107948       0.008257198147    0.004135554191    -0.0008361199289  -0.05696326867    
4220000000        0.02730898        0.3604889512      13.90752983       19.65967751       0.00939943362     0.003729795339    0.06245912239     -0.07482979447    
4260000000        0.07643210888     0.3363005817      15.69423294       17.90433121       0.008833150379    0.002982059959    0.02827189118     -0.07133802772    
4300000000        0.08317612857     0.3331810832      17.18348122       15.85844898       0.01007426064     0.002376313321    0.08127598464     -0.0708335042     
4340000000        0.122374922       0.3282542527      18.46810913       13.70057678       0.00949860923     0.00150704314     0.02193274163     -0.05245156586    
4380000000        0.1460838318      0.3190697134      19.73288918       11.52594662       0.01061857305     0.0006248448044   0.0535412766      -0.1031416431     
4420000000        0.1767240316      0.292165786       20.37350082       8.929053307       0.009982289746    -2.274425788e-05  0.04328562692     -0.07787375897    
4460000000        0.1819833517      0.2893308401      20.7865696        6.843316555       0.01068522688     -0.001062409603   0.05900184438     -0.09794112295    
4500000000        0.2289396375      0.2741604149      21.08135223       4.546094894       0.0103032738      -0.001689440687   0.04318277538     -0.06492361426    
4540000000        0.2311885804      0.2449949086      21.08355331       2.644479036       0.0104081817      -0.00275632483    0.02139541321     -0.112013258      
4580000000        0.2626077831      0.2375036478      21.16763115       0.7097687721      0.01058134902     -0.003339224495   0.05745732039     -0.1042870954     
4620000000        0.2713118792      0.2060379535      20.6652298        -1.478654265      0.009812746197    -0.004660993814   0.02508157492     -0.1151234359     
4660000000        0.2966362238      0.1983076334      20.2351799        -3.496923685      0.01034456771     -0.005027271342   0.05490542203     -0.1104861498     
4700000000        0.3042491376      0.154828608       19.20832634       -5.647770882      0.009081527591    -0.006507568993   2.725422382e-05   -0.1206329837     
4740000000        0.3188444972      0.1483964026      18.50546837       -7.278934479      0.009609592147    -0.006692017429   0.05198866874     -0.1395027786     
4780000000        0.3320031762      0.1053738594      17.3761425        -9.105176926      0.008286817931    -0.008045096882   0.009674721397    -0.1177465245     
4820000000        0.3432005048      0.09390862286     16.09971619       -10.65858936      0.008607187308    -0.008490691893   0.02978651971     -0.1399931759     
4860000000        0.3532496095      0.04840463027     14.59357071       -12.2458353       0.007171181962    -0.009537567385   -0.01329853386    -0.1232735813     
4900000000        0.3477854729      0.04071510211     13.15415287       -13.35772228      0.007078271359    -0.01011861116    0.004584134556    -0.163195163      
4940000000        0.3622190654      -0.002624082379   11.54196072       -14.51768303      0.005905201193    -0.01068324409    -0.005186260678   -0.1281362474     
4980000000        0.3508793116      -0.02530360594    9.830410004       -15.25967693      0.005276792683    -0.0116048241     -0.0263091363     -0.1549600065     
5020000000        0.3609443009      -0.05498631299    8.329735756       -15.98069668      0.004388290457    -0.01166491862    -0.02300255187    -0.141605705      
5060000000        0.3438080549      -0.07886891812    6.483822823       -16.43366432      0.003190706717    -0.01274958812    -0.0485297814     -0.1630561501     
5100000000        0.3504714966      -0.115239948      4.680367947       -16.92424202      0.002660549944    -0.01246745698    -0.02816768922    -0.1463466734     
5140000000        0.3215645552      -0.1387334913     2.804719925       -16.91291046      0.0009213181911   -0.01360514667    -0.08237059414    -0.1435724497     
5180000000        0.3331079781      -0.1644653231     1.241733193       -16.99491882      0.0004253298393   -0.01304199174    -0.06390596926    -0.1623249799     
5220000000        0.3051910996      -0.1983953416     -0.5554279089     -16.92513275      -0.001109037781   -0.01387764979    -0.08448722959    -0.1447198093     
5260000000        0.3002251685      -0.216698125      -2.138577223      -16.56215286      -0.001737301587   -0.01347945537    -0.07611766458    -0.1515624523     
5300000000        0.2706724107      -0.2480273098     -3.924589157      -16.12336922      -0.003297191579   -0.01357201394    -0.1136911809     -0.115872629      
5340000000        0.2648968101      -0.2613636553     -5.43580389       -15.2905283       -0.004155534785   -0.01375762932    -0.1330345571     -0.1607666314     
5380000000        0.2336397916      -0.2986316979     -6.94446516       -14.63857269      -0.005623877048   -0.01297553256    -0.1117412522     -0.1217607632     
5420000000        0.2111839056      -0.2986284792     -8.287775993      -13.51260281      -0.006725335028   -0.01351079997    -0.1343772262     -0.1174217984     
5460000000        0.1866788864      -0.330814898      -9.673085213      -12.51091862      -0.007834881544   -0.01202201657    -0.1360024214     -0.06554874778    
5500000000        0.1605525315      -0.3389771283     -10.72545815      -11.18298721      -0.009092586115   -0.01289097127    -0.2002300918     -0.09629036486    
