! RsaToolbox (C) 2015 Rohde & Schwarz America
! 
! Number of points: 96
! Number of ports: 2
! Balanced ports?: No
! 
! 
# Hz S RI R 50
1660000000        -0.1602264345     0.4728256762      2.083098888       46.88312149       0.0007110717706   -0.00230015954    -0.2324483246     0.0716208145      
1740000000        -0.04523720965    0.4774693549      14.8376236        41.98405457       0.0002480830008   -0.002275975887   -0.2494262755     0.1045235768      
1780000000        0.009818993509    0.4732764661      18.33946991       38.4845047        0.0002256154112   -0.002208148362   -0.2347630411     0.133310318       
1820000000        0.05678289384     0.4703532755      22.27499962       34.19496155       -0.0001197333841  -0.002164726611   -0.2439863533     0.1642758995      
1860000000        0.1106299609      0.4513680935      24.28565216       30.69352913       -5.577792399e-05  -0.002135571558   -0.2450866252     0.1824443042      
1900000000        0.1514434665      0.4498704672      26.25175858       25.19450188       -0.0003826741304  -0.001991249155   -0.2386718988     0.2216097862      
1940000000        0.2022217065      0.4256642163      26.82804489       22.65461922       -0.000213796724   -0.002099705627   -0.2223322093     0.2327772379      
1980000000        0.2459318787      0.4077762961      27.16258812       19.14766502       -0.0005826736451  -0.001895346213   -0.1986975819     0.3031848669      
2020000000        0.2943025529      0.389770329       26.58381271       16.69967842       -0.0003408870834  -0.001924782293   -0.1854406595     0.2991077602      
2060000000        0.3363761008      0.3637751937      26.68698502       14.55347061       -0.0005389285507  -0.001830752357   -0.1671149582     0.3560327888      
2100000000        0.3847900033      0.3314838409      26.26124573       12.55822277       -0.0004085630062  -0.001936481451   -0.121406503      0.3464871943      
2140000000        0.4237324595      0.293571651       26.42079163       11.53609943       -0.0005445986753  -0.001882773242   -0.08435170352    0.4180065393      
2180000000        0.4723380208      0.2585239708      26.76224518       9.878393173       -0.0005295153242  -0.002028222661   -0.02294998989    0.4016234279      
2220000000        0.5059255362      0.1994171143      27.54696846       9.035069466       -0.000473320717   -0.002029355615   -0.004085373133   0.4371299744      
2260000000        0.5367277265      0.145476073       29.43281364       7.044395447       -0.0007426954107  -0.002282120753   0.07893843949     0.4056764543      
2300000000        0.5691477656      0.07892160863     29.92679596       6.205613613       -0.000584856607   -0.002224625088   0.1075201631      0.4223881364      
2340000000        0.5754460692      0.004649687558    32.22315216       3.183452845       -0.001061701681   -0.002640596358   0.1759728193      0.4065032601      
2380000000        0.5876255631      -0.07194451988    33.39967728       0.5636868477      -0.0008880118257  -0.002572657773   0.2090925574      0.3854832351      
2420000000        0.5685899854      -0.1436569095     35.0271759        -3.514220715      -0.001614179346   -0.002898767591   0.2633898556      0.3477112055      
2460000000        0.5604565144      -0.2181227505     35.01308823       -7.513818741      -0.00143535051    -0.002832612721   0.3035361767      0.3005632162      
2500000000        0.5204984546      -0.2912570536     34.78953171       -12.4737339       -0.002289211378   -0.002984176856   0.3230661154      0.2856499553      
2540000000        0.4880351126      -0.3500058651     34.19435883       -17.04985237      -0.002254328458   -0.003031286877   0.3493534923      0.2071458399      
2580000000        0.4296269119      -0.4075870812     30.91398239       -21.26362038      -0.003023953177   -0.002963113599   0.3534940481      0.2028700262      
2620000000        0.3808766603      -0.4533829391     29.29265022       -26.50503159      -0.003297486342   -0.002898445586   0.3810424507      0.09311905503     
2660000000        0.3094613254      -0.4984561205     25.91014481       -28.75650597      -0.003543688683   -0.002439547796   0.3501851559      0.1151578277      
2700000000        0.2586452365      -0.5088092089     19.15719604       -32.70445251      -0.00443936279    -0.002591110766   0.3671448231      0.0190851707      
2740000000        0.1852717251      -0.5554521084     18.72308922       -35.89052582      -0.004207771737   -0.001706317416   0.3326997161      0.02028839849     
2780000000        0.1300488561      -0.5424141288     9.980583191       -36.24385071      -0.005141186528   -0.001994951162   0.3289051056      -0.03759089112    
2820000000        0.05511925742     -0.5602903366     7.731013298       -39.47789764      -0.004924609326   -0.0009070083033  0.319051981       -0.0551575534     
2860000000        -0.0122090159     -0.5469991565     1.302340031       -39.43825912      -0.005618472118   -0.0009447585908  0.2760275304      -0.08037763089    
2900000000        -0.06439837813    -0.5340772867     -3.355183363      -39.09000778      -0.005530952942   -0.0001594448986  0.2839707136      -0.1166503727     
2940000000        -0.1311888844     -0.5134994984     -7.752714157      -38.71246719      -0.00588661572    0.0003866460756   0.2270206511      -0.1103723347     
2980000000        -0.1692252159     -0.4898383617     -12.28338814      -36.29611206      -0.005795042962   0.0006840375718   0.2248317152      -0.141516909      
3020000000        -0.2324883789     -0.4569134116     -16.33945465      -35.59815979      -0.005917554721   0.001635003602    0.1876236647      -0.1284371018     
3060000000        -0.2627426982     -0.4263000488     -20.50871277      -31.43669701      -0.005988403689   0.001842933823    0.1697242409      -0.170860976      
3100000000        -0.3169424236     -0.3852379918     -23.69624138      -30.1497612       -0.005560646765   0.0027599514      0.1652085185      -0.1332615763     
3140000000        -0.3320859075     -0.3471212983     -27.11028671      -25.24267197      -0.005960152484   0.003000423545    0.1154783517      -0.160593316      
3180000000        -0.369653374      -0.304754585      -29.57880592      -22.70402145      -0.005040397402   0.003915586509    0.1236934289      -0.1460834146     
3220000000        -0.3843625486     -0.2584543228     -31.97546005      -17.73653603      -0.005601057317   0.004110738635    0.07423054427     -0.1554507613     
3260000000        -0.4093107581     -0.2182822675     -33.31245041      -14.15559101      -0.004521042574   0.004815657157    0.118121855       -0.1531987339     
3300000000        -0.4174121022     -0.1645133495     -34.50785446      -10.0376482       -0.004886541516   0.00534129329     0.04370658845     -0.1109374538     
3340000000        -0.421274662      -0.1318309456     -33.73317719      -5.898827553      -0.003824351588   0.00567167392     0.07311104238     -0.1531493366     
3380000000        -0.4254688323     -0.07836578041    -34.37700272      -2.812809944      -0.00388467405    0.006445803214    0.02017387003     -0.1060386449     
3420000000        -0.4249943495     -0.04038504511    -34.12108994      1.318969846       -0.003028302221   0.006175447255    0.0683786273      -0.1519321799     
3460000000        -0.4146535099     0.00212481292     -32.64713287      5.536893368       -0.002772131702   0.007340564393    0.02858682349     -0.0642639026     
3500000000        -0.4167293608     0.03102938086     -31.46672821      9.069512367       -0.001986816525   0.006735261064    0.01844996214     -0.126140222      
3540000000        -0.3982458413     0.08246386796     -30.15727997      11.66015816       -0.001560442382   0.007938853465    0.01238190196     -0.07437404245    
3580000000        -0.3867686093     0.0999160409      -28.00046539      14.92513561       -0.0008708002279  0.007273961324    0.020077575       -0.1316343099     
3620000000        -0.3742538989     0.1452533156      -26.02766228      17.12395668       -0.0001957299537  0.008271838538    0.0400964655      -0.04753322154    
3660000000        -0.3468872607     0.165427506       -23.23924446      20.16154671       0.0003163067449   0.007527453825    -0.005034570117   -0.08862758428    
3700000000        -0.3367370367     0.2025792748      -20.60797501      22.16845131       0.001112294383    0.008286042139    0.02214699984     -0.0605748482     
3740000000        -0.2987552583     0.2251656801      -17.60176086      23.7224617        0.001592174754    0.007880671881    0.001423342852    -0.09176594019    
3780000000        -0.2873414159     0.2496245056      -14.79045486      24.94782829       0.002609719289    0.008032318205    0.04811860994     -0.05810145661    
3820000000        -0.2492463887     0.27376315        -12.08878231      25.86589813       0.002922402229    0.007805537898    0.004841132089    -0.04145626351    
3860000000        -0.2355944216     0.2905780077      -8.770922661      26.71603394       0.003867835971    0.007570639253    0.01709076948     -0.06507173181    
3900000000        -0.1951239854     0.3099001646      -5.914999485      26.95725822       0.004362696782    0.007637489587    0.01794489659     -0.05345616117    
3940000000        -0.1800483912     0.3162027299      -2.679223537      26.93719292       0.005166167859    0.006847778801    0.03358141705     -0.07285485417    
3980000000        -0.1380321085     0.337149322       0.0516769886      26.77413559       0.005721206777    0.007081864402    0.03942919895     -0.02276214771    
4020000000        -0.1176716387     0.3355633616      3.037198782       26.01182175       0.006362727378    0.006005059928    -8.786702529e-05  -0.0703990683     
4060000000        -0.08043032885    0.3526835442      5.429755688       25.22395134       0.006973809563    0.006149291527    0.05164159462     -0.04855058342    
4100000000        -0.05667706951    0.3453547657      7.679979324       24.16109467       0.007217796519    0.005213516299    0.02795725688     -0.07215711474    
4140000000        -0.01863388903    0.3591805696      9.83481884        22.76362419       0.008247588761    0.005208096933    0.07556264848     -0.03161638975    
4180000000        0.005949140526    0.3392954469      11.85082912       21.48040199       0.008244374767    0.004133894574    -0.0002513045911  -0.0571461916     
4220000000        0.02650866099     0.3623338938      13.93866348       19.58099556       0.009374703281    0.00371891493     0.06289733201     -0.07454194874    
4260000000        0.07559713721     0.3343575597      15.6015625        17.82588768       0.008816124871    0.002988987835    0.02878095955     -0.07189106196    
4300000000        0.08171897382     0.3329513371      17.09218597       15.78584671       0.01006634347     0.002365310676    0.08113124222     -0.0710297972     
4340000000        0.1225585565      0.3285924196      18.48420715       13.60855198       0.009513176046    0.001532011316    0.02258823067     -0.0524742566     
4380000000        0.1439762712      0.320910871       19.64399147       11.56915855       0.01062063687     0.0006538064335   0.05451714993     -0.1038856134     
4420000000        0.1762966216      0.2936089039      20.33693504       8.949467659       0.00998690445     -8.110386261e-06  0.04375428706     -0.07873882353    
4460000000        0.1804987937      0.2920920551      20.81422997       6.90606308        0.01069229189     -0.001035489491   0.05926625431     -0.09877739102    
4500000000        0.2296050042      0.2760069668      21.09375954       4.487576008       0.01031544805     -0.001679344103   0.0427438505      -0.06489490718    
4540000000        0.2309753895      0.2470990121      21.0181179        2.659389257       0.01040155813     -0.002753525041   0.02118626237     -0.112870194      
4580000000        0.2620114982      0.2392825186      21.07307816       0.7203592062      0.0106041925      -0.003331723623   0.05757132173     -0.1047836915     
4620000000        0.2695937157      0.2072388828      20.59900856       -1.443276882      0.009826511145    -0.004646233283   0.02541447803     -0.1148213148     
4660000000        0.2973710895      0.1977084428      20.1798954        -3.495265484      0.01034774911     -0.005027977284   0.05462084711     -0.1106393114     
4700000000        0.3045152426      0.1565648615      19.22086716       -5.639651299      0.009104422294    -0.006515831221   -0.000371250324   -0.1205414981     
4740000000        0.3191232979      0.14743191        18.38600349       -7.36628437       0.009586934       -0.006717321929   0.0512015596      -0.140189901      
4780000000        0.3315363228      0.1061285436      17.26110649       -9.072237968      0.00829709135     -0.008058967069   0.009423641488    -0.1165480837     
4820000000        0.3416281939      0.09579880536     15.99352169       -10.54728699      0.008616843261    -0.008478577249   0.02906084433     -0.1397211701     
4860000000        0.3521026373      0.05128121749     14.62099171       -12.16166878      0.00714768935     -0.009520744905   -0.01376368012    -0.1226563603     
4900000000        0.3466012478      0.04041361064     12.97241879       -13.32402229      0.007085716352    -0.01011497434    0.003717670683    -0.1623425633     
4940000000        0.3632618189      -0.0009273197502  11.52686691       -14.48834324      0.005913833156    -0.01071278099    -0.005243934225   -0.1274551898     
4980000000        0.3513072431      -0.02381987683    9.832247734       -15.19522381      0.005293742754    -0.01163367089    -0.02626166865    -0.154210642      
5020000000        0.3612934947      -0.05489719659    8.29428196        -15.95655823      0.004373947158    -0.01167858392    -0.02283479646    -0.1409120411     
5060000000        0.3441669941      -0.07640358061    6.537599087       -16.38931084      0.003213411197    -0.01277670544    -0.04785535857    -0.1620558798     
5100000000        0.353041321       -0.1143239141     4.724618912       -16.90762329      0.002642905572    -0.01247434225    -0.02729807608    -0.1465808451     
5140000000        0.3232012987      -0.1398866028     2.788658619       -16.97075653      0.0009049326181   -0.01362548303    -0.08181846142    -0.1438526511     
5180000000        0.3339575529      -0.1660336703     1.246620893       -16.96448135      0.0004336309503   -0.01301120128    -0.06325611472    -0.1616436541     
5220000000        0.3061000407      -0.199547559      -0.6117507219     -16.90958023      -0.001128666336   -0.0138642136     -0.0838797465     -0.1457509547     
5260000000        0.3000730276      -0.2167120576     -2.152598381      -16.50409698      -0.001713376725   -0.01349209249    -0.07588876039    -0.1523037851     
5300000000        0.2705908716      -0.2459996343     -3.884837627      -16.02794266      -0.003291777801   -0.01359431259    -0.1138011143     -0.1164400503     
5340000000        0.2651281953      -0.2579731643     -5.335258484      -15.18340206      -0.004151844885   -0.01377831027    -0.1332735121     -0.1607798338     
5380000000        0.2325345576      -0.2983811796     -6.959252357      -14.57780266      -0.005626933184   -0.01297389437    -0.111925818      -0.1222073287     
5420000000        0.2110354602      -0.298538208      -8.273785591      -13.48412514      -0.006727075204   -0.0135361487     -0.1345271766     -0.1176339164     
5460000000        0.1878387034      -0.3309956491     -9.658131599      -12.50376797      -0.00785641931    -0.01206616964    -0.1363083869     -0.06608293205    
5500000000        0.1621439606      -0.3363561034     -10.66073704      -11.15280151      -0.009109788574   -0.01291190274    -0.2004638463     -0.09616454691    
