! RsaToolbox (C) 2015 Rohde & Schwarz America
! 
! Number of points: 101
! Number of ports: 2
! Balanced ports?: No
! 
! 
# Hz S RI R 50
1500000000        -0.3769305348     0.3605132103      -28.29603577      54.79738235       0.001579241129    -0.001861318713   -0.2155306041     0.02583147585     
1540000000        -0.3206334114     0.397115171       -18.4637928       56.8000679        0.001246208791    -0.00185635325    -0.2296480089     0.05653047562     
1580000000        -0.2504637837     0.4266144931      -10.51779366      57.01125717       0.001153935213    -0.002127142856   -0.2280593067     0.03383236378     
1620000000        -0.1923775226     0.4394365251      -1.440527916      56.19201279       0.0009265866247   -0.002045679837   -0.2213362157     0.07488488406     
1660000000        -0.1363348663     0.4526310265      5.056114674       53.33007431       0.0007024986553   -0.002277248073   -0.2363307029     0.07070325315     
1700000000        -0.07574829459    0.4545453489      12.02269363       49.81271744       0.0005688313395   -0.002168226987   -0.2353160977     0.1026256755      
1740000000        -0.02436520904    0.456437856       17.4643383        45.76892853       0.0002349090355   -0.002228367608   -0.2515779734     0.1047015563      
1780000000        0.0244084131      0.4489711225      21.26586151       40.97903061       0.0002141848672   -0.00221360079    -0.2347967476     0.1340498477      
1820000000        0.06542016566     0.4429524243      24.63515282       36.33939362       -9.163666255e-05  -0.002149544889   -0.2465590686     0.1649996042      
1860000000        0.115538545       0.4311255515      26.78368378       31.4216938        -4.618881576e-05  -0.002169358311   -0.2461949289     0.1830152869      
1900000000        0.1540105045      0.420489639       28.16210938       26.84622383       -0.0004264683521  -0.001984385308   -0.2384822965     0.2222218961      
1940000000        0.1991668046      0.4023648798      28.54546738       22.66178513       -0.0001729873766  -0.002069827402   -0.2228996009     0.2333355248      
1980000000        0.2434308529      0.3881533146      28.76641846       19.21886635       -0.0005898629897  -0.001915776636   -0.1992007792     0.3039406538      
2020000000        0.2874879241      0.3664179742      28.02504349       16.26806068       -0.0003297392686  -0.001916853478   -0.1856376529     0.2990724742      
2060000000        0.3285095394      0.3444447517      27.87718964       14.38267803       -0.0005446233554  -0.001809948357   -0.1676416546     0.3571906388      
2100000000        0.3695395887      0.314250797       27.09938622       12.24898434       -0.0003922941396  -0.001927016536   -0.1217633635     0.3475063443      
2140000000        0.4147843122      0.277356416       27.29764748       11.0197916        -0.0005213222466  -0.001871604356   -0.08402127773    0.417658776       
2180000000        0.4593279064      0.2437236309      27.87576294       9.471666336       -0.0005054260255  -0.002019414678   -0.02309804782    0.4020321369      
2220000000        0.498732388       0.1890494376      28.58463287       8.528852463       -0.0004414126743  -0.002023491543   -0.003549441695   0.4373552203      
2260000000        0.523157835       0.1364147365      30.16086769       6.869090557       -0.0007015155861  -0.002279924694   0.07820278406     0.4067339301      
2300000000        0.5505874753      0.06926407665     30.59604073       5.590055466       -0.0005948030157  -0.002240739297   0.1079491749      0.423080802       
2340000000        0.5650851727      -0.002755288035   32.92852783       3.317679644       -0.001042979537   -0.002636078047   0.1752642542      0.4073649645      
2380000000        0.5756362677      -0.07062595338    34.25554276       0.4173560143      -0.0008790764259  -0.002585301409   0.2092210054      0.3850091398      
2420000000        0.5630108118      -0.144910261      36.01750183       -3.147035599      -0.001600776566   -0.002904973924   0.2632496953      0.3481290638      
2460000000        0.5524943471      -0.2167729586     36.1760025        -7.621058464      -0.001437357394   -0.002849887591   0.3027649522      0.2999855876      
2500000000        0.5152766705      -0.2929468751     36.46360397       -11.8506012       -0.002302911831   -0.003031355096   0.3217165768      0.2868417799      
2540000000        0.4856581688      -0.3484208286     35.56042862       -16.63918877      -0.002299477812   -0.003035786096   0.3490650356      0.2076910436      
2580000000        0.430595994       -0.4163556695     34.22994995       -21.17439842      -0.003065989353   -0.002959266305   0.3507940471      0.2013628781      
2620000000        0.3828897774      -0.4579344392     31.70227051       -26.7492485       -0.003341972828   -0.002896440448   0.3809271455      0.0908120051      
2660000000        0.3106313944      -0.5055696964     28.15600777       -29.68134308      -0.003598775482   -0.002436581999   0.349472791       0.1166510507      
2700000000        0.238871932       -0.5215715766     23.51175308       -34.56839752      -0.004469738808   -0.002621626714   0.3685691655      0.01693491451     
2740000000        0.1864361167      -0.5553485155     19.82204247       -36.70163727      -0.004229729064   -0.00175195816    0.3324028254      0.02269736305     
2780000000        0.1089700237      -0.5588067174     14.42258072       -39.71109772      -0.005108907353   -0.002022468951   0.33234182        -0.03951326758    
2820000000        0.05267287418     -0.5617789626     9.063970566       -40.82713699      -0.004917275626   -0.0009353234782  0.3199515939      -0.05418340862    
2860000000        -0.02345619351    -0.5526117086     3.777209759       -42.01820374      -0.005613582674   -0.0009939341107  0.2756150067      -0.08028207719    
2900000000        -0.07934553921    -0.5419698954     -2.496389627      -41.97232056      -0.005572942551   -0.0001487294794  0.2833113372      -0.1166458651     
2940000000        -0.1441647112     -0.5143944621     -7.152519226      -40.73238754      -0.005847484805   0.0003545878571   0.2268442065      -0.1091332436     
2980000000        -0.1901678145     -0.4970473945     -12.24278545      -39.74434662      -0.005857838318   0.0007349667139   0.226371929       -0.1440669596     
3020000000        -0.2451445013     -0.4523497522     -16.40159988      -37.11826706      -0.005929395556   0.001686516334    0.1871693134      -0.1271875799     
3060000000        -0.2759439647     -0.422929883      -20.86113358      -34.58880234      -0.006001386326   0.00181346247     0.1717292517      -0.1701376438     
3100000000        -0.3242400885     -0.3891004026     -24.01318932      -32.03940582      -0.005595985334   0.002784721786    0.1657986939      -0.1322925687     
3140000000        -0.3475206494     -0.3390110433     -28.25614738      -27.87295723      -0.005944810808   0.003033675719    0.1147878245      -0.1617372632     
3180000000        -0.3805350959     -0.3045459688     -30.5449295       -24.00431633      -0.005056475289   0.003954799846    0.1244855598      -0.1452220082     
3220000000        -0.3927689195     -0.2489586174     -33.11196136      -19.56077385      -0.005579774268   0.00407282589     0.07407847792     -0.1557057798     
3260000000        -0.4124833941     -0.2159090191     -34.27203369      -15.17479801      -0.004578444641   0.004810517188    0.1195059791      -0.1545573324     
3300000000        -0.4220665693     -0.1628177464     -35.35559082      -11.29769897      -0.004892759025   0.00534122251     0.04149200022     -0.1112519503     
3340000000        -0.4279238284     -0.1296911091     -35.56531906      -7.039669991      -0.00382433529    0.005674961023    0.07538544387     -0.1534959823     
3380000000        -0.4290174544     -0.07368368655    -35.33666992      -3.25496316       -0.003856673371   0.006416347343    0.01954261772     -0.105968006      
3420000000        -0.4245696664     -0.03625757247    -34.91434097      0.9628261328      -0.003035657573   0.006158870179    0.06769121438     -0.1529213935     
3460000000        -0.4160779119     0.008969737217    -33.80764389      5.30295229        -0.00276598474    0.007340585347    0.02816218138     -0.06278730184    
3500000000        -0.4171462357     0.04072224349     -32.46483612      9.186020851       -0.002014264232   0.006753431633    0.01862298511     -0.1284130365     
3540000000        -0.4015570581     0.08722810447     -31.08857155      11.72522926       -0.00157609384    0.007970954292    0.01097990852     -0.07418859005    
3580000000        -0.384043932      0.1064047515      -28.98555946      15.03813648       -0.0009107346414  0.007280683145    0.02115384303     -0.1331979632     
3620000000        -0.3716813922     0.151344493       -26.5100174       17.41719627       -0.0001967802236  0.008260238916    0.04031864926     -0.04748225585    
3660000000        -0.3438266516     0.1719978899      -24.10289192      20.41775322       0.0002791113511   0.007544837426    -0.004265564028   -0.08922360092    
3700000000        -0.3344026804     0.2055503875      -21.02555275      22.51937485       0.001083709067    0.008339340799    0.02254416049     -0.06010838225    
3740000000        -0.2969022095     0.2295678705      -18.29294205      24.08248138       0.001595032169    0.007885085419    0.0008398904465   -0.09226360917    
3780000000        -0.2855792344     0.25309816        -15.35550785      25.47107124       0.002599855885    0.008029321209    0.04849974439     -0.05801367387    
3820000000        -0.2468479872     0.2783443928      -12.30099773      26.38263321       0.002927141963    0.007836436853    0.004305819515    -0.04109266773    
3860000000        -0.233305946      0.2914584577      -9.218644142      27.16753769       0.003864468308    0.00759684667     0.01646993682     -0.06485572457    
3900000000        -0.1927938014     0.3123360872      -6.016278267      27.44213486       0.004366777837    0.007681967225    0.01831540465     -0.05314791203    
3940000000        -0.1746723354     0.319255054       -2.861312389      27.72625351       0.005136549473    0.006886997726    0.03389256448     -0.0741854161     
3980000000        -0.1342073828     0.3369490504      0.0113876611      27.04483795       0.005709485617    0.007110843901    0.03938871995     -0.0223323144     
4020000000        -0.1130601838     0.3378277421      3.060907841       26.62670326       0.006361080334    0.006041379645    0.0002328043338   -0.07151511312    
4060000000        -0.08134829998    0.3530991077      5.299639702       25.71379852       0.006999359       0.006201559212    0.05230491981     -0.04817460477    
4100000000        -0.05424628779    0.347335279       7.744014263       24.63105202       0.00719691487     0.005258756224    0.02754787356     -0.07333473861    
4140000000        -0.01726474799    0.3610251546      9.883441925       23.2243576        0.008284734562    0.005231357645    0.07524329424     -0.03104844876    
4180000000        0.007790939882    0.3384464383      11.92977238       21.72284698       0.008255924098    0.00413960265     -0.0009621857898  -0.05715387687    
4220000000        0.02770677954     0.360629648       14.05541325       20.08731079       0.009399608709    0.00373780774     0.06270492822     -0.07517190278    
4260000000        0.07946776599     0.3365682662      15.85796642       18.06381989       0.008844288066    0.003014059737    0.02814086899     -0.07168257236    
4300000000        0.08700919151     0.3314212561      17.4108696        15.90673637       0.01007914823     0.002374460455    0.08153764158     -0.07127607614    
4340000000        0.125800088       0.3284209371      18.6994133        13.81542778       0.009504880756    0.001544705825    0.02165869251     -0.05200442672    
4380000000        0.1476645172      0.3190736473      19.91244698       11.62996387       0.01064659469     0.0005993181258   0.05444209278     -0.1023827121     
4420000000        0.1773635596      0.2942077518      20.4864769        9.178868294       0.009999594651    -3.403161827e-06  0.04331459105     -0.07739447802    
4460000000        0.1812920719      0.2899650037      20.98098946       7.058224201       0.01066455897     -0.001061460353   0.06013334543     -0.09827149659    
4500000000        0.2315012366      0.2731769979      21.28376007       4.601794243       0.01030130219     -0.001690992853   0.04291799292     -0.06325303763    
4540000000        0.2338335365      0.244554311       21.32380104       2.667490005       0.01043614373     -0.002761555603   0.02192683704     -0.1115019247     
4580000000        0.2631930411      0.2367709577      21.34914207       0.7866466045      0.01058974583     -0.003337541828   0.05874186754     -0.1044980064     
4620000000        0.2688473463      0.2051426321      20.74577713       -1.275457859      0.009782921523    -0.004672395531   0.02545732632     -0.1145669818     
4660000000        0.2985568047      0.1971823126      20.46170235       -3.452689171      0.01033080555     -0.005040642805   0.05637075379     -0.1098274142     
4700000000        0.3053323925      0.1547954381      19.45245934       -5.592547417      0.009084249847    -0.00650951406    -0.0007974323817  -0.1212930679     
4740000000        0.319522202       0.1452495754      18.52046585       -7.346546173      0.009601356462    -0.006691148505   0.05201659724     -0.1404818892     
4780000000        0.3301663697      0.1024026498      17.35321236       -9.163108826      0.008291424252    -0.008029554971   0.01016841084     -0.1176910475     
4820000000        0.3395304084      0.09399601817     16.18947792       -10.53252506      0.008631747216    -0.008474063128   0.03047795966     -0.1403564066     
4860000000        0.3496355712      0.0505547896      14.71652794       -12.13458633      0.007170960307    -0.009527648799   -0.01322608069    -0.1235801503     
4900000000        0.3461833298      0.03795264661     13.17310619       -13.41734505      0.00710192183     -0.01008338761    0.003170534037    -0.1641185433     
4940000000        0.3605195284      -0.001375742257   11.64581585       -14.58905315      0.00594079867     -0.01070055645    -0.005746154115   -0.1286190152     
4980000000        0.3499527872      -0.02307131514    10.0297327        -15.29139709      0.005318481475    -0.0116042411     -0.02613479085    -0.154170543      
5020000000        0.3604953587      -0.05702037364    8.334886551       -16.13244629      0.004368656315    -0.0116738053     -0.02427631058    -0.1407579482     
5060000000        0.3423210979      -0.08070396632    6.394192219       -16.50053215      0.003241076134    -0.01277220249    -0.04836275056    -0.161669448      
5100000000        0.3503359556      -0.1141075641     4.806035042       -16.95404053      0.00268313894     -0.01250803284    -0.02758952603    -0.1457202584     
5140000000        0.3250147998      -0.1401322484     2.890925407       -17.12466621      0.0009090767708   -0.01365669072    -0.08332182467    -0.1440852284     
5180000000        0.3337025046      -0.1653554142     1.313781261       -17.13741684      0.0004366037901   -0.01304909959    -0.06271527708    -0.1611000299     
5220000000        0.3039624393      -0.1995267123     -0.6073772907     -16.9833889       -0.001140025095   -0.01388271619    -0.08376117796    -0.1448496133     
5260000000        0.2967180908      -0.2169423997     -2.129625797      -16.59510231      -0.001741147018   -0.01351105236    -0.07485811412    -0.1509984732     
5300000000        0.270616889       -0.2483028322     -3.908703327      -16.19072723      -0.003304261481   -0.01359427907    -0.1126223356     -0.1165719852     
5340000000        0.2640951872      -0.2605797648     -5.36217165       -15.42252731      -0.004195119254   -0.01376674511    -0.1334491819     -0.1606738269     
5380000000        0.2311510295      -0.2972620428     -6.983747959      -14.71141815      -0.005650313571   -0.01294690929    -0.1113270074     -0.1223559827     
5420000000        0.2102964222      -0.2996240556     -8.306380272      -13.64958572      -0.006733110175   -0.01349663362    -0.1329504997     -0.1172715276     
5460000000        0.1882735342      -0.3280135989     -9.61125946       -12.58282185      -0.007861245424   -0.01202256419    -0.1361107975     -0.06630855799    
5500000000        0.1622297317      -0.336034894      -10.67550755      -11.24328136      -0.009113688022   -0.01293911226    -0.2004371881     -0.09757164866    
