! RsaToolbox (C) 2015 Rohde & Schwarz America
! 
! Number of points: 78
! Number of ports: 2
! Balanced ports?: No
! 
! 
# Hz S RI R 50
1860000000        0.1049648821      0.4743807912      21.62620544       29.56856537       -3.67263201e-05   -0.002162141493   -0.2446820438     0.182267502       
1940000000        0.203040421       0.4490674436      24.94242668       22.53624153       -0.0002107052569  -0.00207352615    -0.2217226177     0.2330468595      
1980000000        0.2488392293      0.4318880439      25.75578308       18.80135155       -0.0005891422625  -0.001888573752   -0.1981942207     0.3020323813      
2020000000        0.2984803319      0.4108546972      24.97112656       16.81330681       -0.0003420864523  -0.00193422928    -0.1850538254     0.2990542948      
2060000000        0.342628926       0.3842259049      25.46428871       14.22730923       -0.0005638877628  -0.001830275985   -0.1669536978     0.3555879593      
2100000000        0.3920881748      0.3514138758      25.14493561       12.99052906       -0.0004029128177  -0.001939919428   -0.1208447814     0.3463427126      
2140000000        0.4321419001      0.3066226542      25.53170967       11.74154663       -0.0005374012399  -0.001879727584   -0.08362170309    0.4174617529      
2180000000        0.4862712026      0.2742692828      25.68571854       9.982980728       -0.0005222585751  -0.002022153698   -0.02229016274    0.401799351       
2220000000        0.5175220966      0.2091465443      26.73181152       9.232998848       -0.0004662799183  -0.002035404788   -0.003530632704   0.4366121888      
2260000000        0.5470999479      0.1506431252      28.55848122       6.59773159        -0.0007457042811  -0.002312768018   0.07904919982     0.4062824547      
2300000000        0.5831534266      0.08302278817     28.95346832       6.432639599       -0.0005791144213  -0.002218500245   0.1080009043      0.421574682       
2340000000        0.581869483       0.01243168861     30.64401245       1.897321701       -0.001086449134   -0.002648624126   0.1769524962      0.4063095152      
2380000000        0.5960152745      -0.0644068718     32.0330162        0.6044609547      -0.0008930361946  -0.002570151817   0.209416762       0.3845778704      
2420000000        0.5733693838      -0.1370977908     33.004776         -4.685026169      -0.001627533347   -0.002900415799   0.26426965        0.3490756452      
2460000000        0.5653022528      -0.2133445442     32.93402481       -7.786541939      -0.001428054413   -0.002819163958   0.3035273254      0.3001102507      
2500000000        0.5227504969      -0.277666837      31.37908745       -13.1367569       -0.002303574001   -0.00299342256    0.3238104582      0.2844183743      
2540000000        0.491989851       -0.342220068      31.5057888        -17.07982445      -0.0022552968     -0.003019741969   0.3489463627      0.2074503452      
2740000000        0.1887845546      -0.5437273979     16.608181         -33.9325676       -0.004204095807   -0.00170559308    0.333406806       0.01898859441     
2820000000        0.06541006267     -0.5500473976     6.018709183       -36.58871841      -0.004895034246   -0.0008952729986  0.3186607957      -0.05510857701    
3020000000        -0.2137589604     -0.4584987462     -15.85125542      -32.45027924      -0.00595069211    0.001618682989    0.1896547824      -0.1302140802     
3100000000        -0.3011078238     -0.3855694234     -22.42352867      -27.38167953      -0.005602313206   0.002773103071    0.1656492352      -0.1339324564     
3180000000        -0.3590623736     -0.3047508597     -28.0210228       -20.62005615      -0.005043764133   0.00389594119     0.1220559701      -0.1465833336     
3260000000        -0.3952665925     -0.2209317386     -31.08089447      -12.60973835      -0.00453409832    0.004802008159    0.1146332324      -0.1521944851     
3300000000        -0.4101945162     -0.175237         -32.73563766      -8.827882767      -0.004881427158   0.00532219559     0.04614976794     -0.1115828231     
3380000000        -0.4202133119     -0.08634769917    -32.95274734      -2.358775139      -0.003887236817   0.006429488771    0.02084457316     -0.1060569063     
3420000000        -0.4205332696     -0.04695931077    -32.52245712      1.626232862       -0.003007552819   0.006168799009    0.06700684875     -0.1506503522     
3460000000        -0.4113724828     -0.009156914428   -30.8475647       5.705997944       -0.002808178077   0.007335441187    0.02835230529     -0.06612506509    
3500000000        -0.4148434997     0.02429965138     -29.98340225      9.105088234       -0.001978584798   0.006759750657    0.0177072119      -0.1240887493     
3540000000        -0.3958261013     0.07440273464     -29.13965607      11.39049721       -0.001575580915   0.007933971472    0.01218660362     -0.07542748749    
3580000000        -0.3908731639     0.09113248438     -26.30488396      14.74264145       -0.0008543800213  0.007275946438    0.01871331967     -0.1297877431     
3620000000        -0.3701120019     0.1369547397      -24.95790672      16.66117096       -0.0002020888205  0.00825371407     0.04052184522     -0.04820110276    
3660000000        -0.3517075777     0.1576617807      -21.94875526      19.76805115       0.0002982680453   0.0075252885      -0.004458457232   -0.08739117533    
3700000000        -0.3363155723     0.1958731413      -19.97331238      21.70474052       0.001108403085    0.008311857469    0.02220611461     -0.06045275554    
3740000000        -0.3040903807     0.2184271365      -16.97658348      23.19171143       0.001597470138    0.007876139134    0.002182110911    -0.09144853055    
3780000000        -0.2903409898     0.2452228516      -14.1365118       24.40600777       0.002599441912    0.008037371561    0.04788224399     -0.05831591785    
3820000000        -0.2531526685     0.270175606       -11.71232796      25.49612808       0.002926527988    0.007810971234    0.005099575035    -0.04134038463    
3860000000        -0.2415308952     0.2873955667      -8.285943985      26.00990486       0.003892775392    0.007580050733    0.01656533964     -0.06474552304    
3900000000        -0.1989051551     0.3064221442      -5.699013233      26.42697334       0.004382261075    0.007653458044    0.01809223369     -0.05401099473    
3940000000        -0.1860727221     0.3171520829      -2.180793285      26.2897377        0.005152891856    0.006856974214    0.03312879801     -0.0731959641     
3980000000        -0.1397088468     0.3362529576      0.2149856836      26.39396286       0.005720316432    0.007095546462    0.03967591375     -0.02326002158    
4020000000        -0.1231162399     0.3363439441      3.274475813       25.34885406       0.006386409514    0.005994508974    0.0001383521594   -0.07006826997    
4060000000        -0.08583296835    0.3514075875      5.33806324        24.75868225       0.006981725805    0.006155982148    0.0510510318      -0.04918275028    
4100000000        -0.05929231271    0.345821619       7.739337444       23.66183662       0.007213084958    0.00519232871     0.02761973068     -0.07124589384    
4140000000        -0.02279720455    0.3599068224      9.802323341       22.35432243       0.008250173181    0.005184302572    0.0749527216      -0.03135290369    
4180000000        0.003386854427    0.3416314125      11.84571457       21.23137093       0.008238238283    0.004114994314    -0.0005166793126  -0.05643016472    
4220000000        0.02203672938     0.3639320731      13.74365139       19.02048874       0.009362685494    0.003699900117    0.06227502599     -0.0740416497     
4260000000        0.07353632152     0.3363014758      15.47415447       17.63458443       0.008796324953    0.002966933884    0.02904090844     -0.07182533294    
4300000000        0.08127182722     0.3362094462      17.02008247       15.40017414       0.01004923601     0.002372864634    0.08070974052     -0.07100830972    
4340000000        0.1198667511      0.3289616108      18.21402359       13.33234501       0.009480010718    0.001505619148    0.02325039357     -0.05255470797    
4380000000        0.1442977488      0.3216929138      19.52955818       11.25849819       0.01059876289     0.0006355448859   0.05371100083     -0.1039493456     
4420000000        0.1738913655      0.2951244414      20.0874958        8.838066101       0.009971358813    -1.948033605e-05  0.04393147305     -0.0786228478     
4460000000        0.1805776954      0.2930105627      20.62922478       6.683650494       0.01066600066     -0.001037326292   0.05940062553     -0.09907779098    
4500000000        0.2282568216      0.2768834531      20.83716965       4.333435059       0.01027946733     -0.001672437647   0.0432453528      -0.06567700952    
4540000000        0.2311784178      0.2482593656      20.89294815       2.592851639       0.01040540915     -0.002745860955   0.02174764872     -0.1128084958     
4580000000        0.2612610459      0.2398436368      20.88372993       0.6369622946      0.01057336479     -0.00330212852    0.05724022537     -0.10519851       
4620000000        0.2697479129      0.2098069787      20.44854546       -1.472649693      0.009802454151    -0.00462766597    0.02549653128     -0.1152614057     
4660000000        0.2978784442      0.2003908306      20.04826736       -3.570157051      0.01033997722     -0.005018435419   0.05415135249     -0.1108662859     
4700000000        0.305208534       0.158015579       19.05558205       -5.658401012      0.009097987786    -0.006496185437   -0.0007173039485  -0.1210239157     
4740000000        0.3201162219      0.1517468989      18.31267166       -7.313108921      0.00960020069     -0.006674464326   0.05050035194     -0.1401697248     
4780000000        0.3321016133      0.1093056053      17.18421936       -9.027719498      0.008277933113    -0.00802541431    0.00852931384     -0.1169724315     
4820000000        0.3422990143      0.09777145833     15.77367878       -10.56151581      0.008623569272    -0.008465412073   0.02805715054     -0.1402433068     
4860000000        0.3531411886      0.05286428332     14.51249027       -12.11573982      0.007161489688    -0.009511317126   -0.01393807493    -0.122820586      
4900000000        0.3483538926      0.04138695821     12.81372833       -13.31808567      0.00709649967     -0.01009207591    0.00249136379     -0.1626735479     
4940000000        0.3656794429      6.422586739e-05   11.44059372       -14.47452545      0.005923789926    -0.01069270819    -0.006060625426   -0.1276129186     
4980000000        0.3524700701      -0.02169850655    9.724143982       -15.13264847      0.005312074441    -0.01160185877    -0.02704659849    -0.153698504      
5020000000        0.3626018763      -0.05394294858    8.13369751        -15.83734035      0.004386427347    -0.01169000752    -0.02401595563    -0.1402302682     
5060000000        0.3451105654      -0.07703263313    6.395028114       -16.28030396      0.003208849579    -0.01276378054    -0.04798923433    -0.1614498049     
5100000000        0.354793191       -0.1129962131     4.635448933       -16.7507          0.002655104501    -0.01247418113    -0.02767944336    -0.1458326727     
5140000000        0.325735718       -0.1397185922     2.732591152       -16.89595795      0.0009047393687   -0.01360807195    -0.0826734826     -0.1429968774     
5180000000        0.3353550732      -0.1650394946     1.170136452       -16.8320694       0.0004299355205   -0.01301976014    -0.06306947023    -0.1610848159     
5220000000        0.3065446615      -0.1985513717     -0.6521261334     -16.75696945      -0.001123011578   -0.0138663603     -0.08313273638    -0.145413816      
5260000000        0.3019314706      -0.2170983404     -2.207613945      -16.37958908      -0.001728621311   -0.0134773748     -0.07581330091    -0.1512235105     
5300000000        0.2739018798      -0.2489103526     -3.938039064      -15.98357201      -0.00327754044    -0.01355941501    -0.1133561432     -0.1163207665     
5340000000        0.2669765055      -0.2612896264     -5.426216125      -15.14634323      -0.004134268966   -0.01376004051    -0.133712709      -0.1600689441     
5380000000        0.2340111434      -0.2992212772     -6.951499939      -14.4908514       -0.005613522604   -0.01296772901    -0.1118165255     -0.1220807657     
5420000000        0.2129239142      -0.3003675342     -8.264549255      -13.41739368      -0.006697535049   -0.01353080943    -0.1337805092     -0.1171127558     
5460000000        0.1903673112      -0.3315105438     -9.604354858      -12.42367172      -0.007836458273   -0.01203427557    -0.1368820667     -0.06575885415    
5500000000        0.1632233262      -0.3391883969     -10.67397785      -11.07381439      -0.00910309609    -0.0129281776     -0.200965181      -0.09640908986    
