! RsaToolbox (C) 2015 Rohde & Schwarz America
! 
! Number of points: 101
! Number of ports: 2
! Balanced ports?: No
! 
! 
# Hz S RI R 50
1500000000        -0.394654572      0.3630484641      -27.19671822      50.3435936        0.001596589223    -0.001844255487   -0.2159816325     0.02780745365     
1540000000        -0.3417179883     0.3954646289      -16.59880447      51.18143082       0.001263235812    -0.001862967969   -0.2285041809     0.05689216778     
1580000000        -0.2643003762     0.4309741557      -10.78111935      53.6547699        0.001159183099    -0.002163399011   -0.2261926532     0.03404497355     
1620000000        -0.2103028893     0.4433069229      -0.9701272249     52.46717834       0.0009107774822   -0.002038596896   -0.2208146453     0.07522928715     
1660000000        -0.1458186805     0.4621806443      3.859508991       51.18362427       0.0007081277436   -0.002288492396   -0.2346963733     0.07075522095     
1700000000        -0.08809147775    0.4604222178      11.01531506       47.79540634       0.0005590891815   -0.002170350635   -0.2350991815     0.1016868427      
1740000000        -0.03141147643    0.4620154202      16.24959946       44.36016846       0.0002573245729   -0.002272993792   -0.2506094873     0.1050555184      
1780000000        0.01730671711     0.4595595598      20.02490997       40.25536728       0.0002482405398   -0.002208285267   -0.2346681058     0.1342784017      
1820000000        0.06394722313     0.4543683529      23.90436935       35.71405792       -0.0001356715075  -0.002183380537   -0.2456436902     0.1650239974      
1860000000        0.1159289703      0.4398298264      26.03549576       31.11741257       -3.676626511e-05  -0.002194630215   -0.2454139739     0.1828782856      
1900000000        0.1539591551      0.4321931899      27.5428257        26.57403755       -0.0004069749557  -0.001985355048   -0.2391252071     0.2225013375      
1940000000        0.2018959969      0.4124662578      27.93560791       22.66331673       -0.0001894993184  -0.002062456449   -0.2228807658     0.2330198288      
1980000000        0.2431478947      0.395043999       28.02848816       19.24810028       -0.0005568868946  -0.001885577105   -0.1992353946     0.3030835986      
2020000000        0.2900408804      0.3760677576      27.47884941       16.46364784       -0.0003353404463  -0.001943595009   -0.1853218079     0.2992681563      
2060000000        0.3338191211      0.3535123169      27.43257904       14.55468655       -0.0005407826975  -0.001838192809   -0.1674831808     0.3560444415      
2100000000        0.3748339117      0.3212609291      26.68102264       12.40660954       -0.0004088215064  -0.001923928852   -0.1214190423     0.3466427326      
2140000000        0.4171240926      0.2827528417      26.81406021       11.23807049       -0.0005229884991  -0.001896662172   -0.08415082097    0.4188750088      
2180000000        0.4638588727      0.248679623       27.37284279       9.646743774       -0.0005390464794  -0.002036729595   -0.02314651012    0.4014574885      
2220000000        0.4994424582      0.1949214339      28.00714874       8.863163948       -0.0004649565381  -0.00202409015    -0.003883976489   0.437146008       
2260000000        0.5289359093      0.1383053362      29.84169388       6.954158306       -0.0007328188512  -0.002303357236   0.07814406604     0.4059031904      
2300000000        0.5640915036      0.07195384055     30.61804962       5.730527401       -0.0005790315918  -0.002240969567   0.1075157225      0.4223568141      
2340000000        0.5711368322      -0.003380360082   32.88991928       3.19614315        -0.00107660878    -0.002641005674   0.1760969311      0.4060457349      
2380000000        0.5825881958      -0.07083670795    33.96834183       0.5653748512      -0.0008908989839  -0.002574804006   0.2090756595      0.3852725327      
2420000000        0.5636274219      -0.1479458064     35.60383224       -3.313891888      -0.001635144581   -0.002884196583   0.2638394535      0.3484650254      
2460000000        0.5571466088      -0.2146660388     35.80876541       -7.351023674      -0.001418536413   -0.002819902729   0.3032096922      0.3004401922      
2500000000        0.5203605294      -0.2960028946     36.16088486       -12.00046635      -0.002306757495   -0.003001331352   0.3223142922      0.2869801223      
2540000000        0.4827799201      -0.3540939093     35.0161705        -17.15151596      -0.002256602282   -0.003022127785   0.3495495915      0.2068964541      
2580000000        0.432580471       -0.4145560265     33.52003479       -21.13493729      -0.003017870709   -0.002922827611   0.3514830172      0.2026625127      
2620000000        0.3818356991      -0.4553232193     30.90096092       -26.53647423      -0.00328048598    -0.002899916144   0.3820315003      0.09253127873     
2660000000        0.3154597282      -0.5079411864     27.96446609       -29.51457977      -0.00356783648    -0.002417413285   0.3500568271      0.1160134599      
2700000000        0.2455331683      -0.5196070671     22.18780708       -34.26502991      -0.004436466843   -0.002613198711   0.3685188591      0.0164672602      
2740000000        0.1881351024      -0.5567478538     19.6295166        -36.45227432      -0.004199773073   -0.001690495526   0.3319704235      0.02119178697     
2780000000        0.1149283126      -0.5573354363     12.95894527       -39.073349        -0.005166565999   -0.001994117629   0.331577003       -0.03915643692    
2820000000        0.05327790603     -0.5640990138     8.737094879       -40.65509033      -0.004952316172   -0.0009301849641  0.3194983006      -0.05420530587    
2860000000        -0.02214849554    -0.5525026917     3.022109747       -41.54578781      -0.005608027801   -0.0009536124999  0.2761845589      -0.0813427344     
2900000000        -0.0739621073     -0.5372330546     -2.715931416      -40.99865723      -0.0055635483     -0.000142292789   0.2828608453      -0.1173453704     
2940000000        -0.1414961368     -0.5188058019     -7.327673435      -40.54820251      -0.005866277963   0.0004000661138   0.2271037251      -0.1102887392     
2980000000        -0.1792383194     -0.4883662462     -12.00190258      -38.3628273       -0.005880782381   0.0006889390061   0.2265772372      -0.1428081095     
3020000000        -0.2384339124     -0.4566118717     -16.21200943      -36.97144318      -0.005942293443   0.001633687643    0.1868137717      -0.1283292621     
3060000000        -0.270352453      -0.4215965569     -20.70622253      -33.39403152      -0.006001457106   0.001840467565    0.1708521545      -0.1715885401     
3100000000        -0.3200691938     -0.3804165125     -23.81032944      -30.84145737      -0.005555458833   0.002751818858    0.1663518399      -0.1327781081     
3140000000        -0.3409881294     -0.3410742581     -27.81046104      -27.04288292      -0.005965398625   0.003041817574    0.1149450094      -0.1617628634     
3180000000        -0.3773826361     -0.3042703271     -30.27400589      -23.51630211      -0.005038900767   0.003917803988    0.1239747778      -0.1455004215     
3220000000        -0.3901554942     -0.2554171979     -32.81312943      -19.241745        -0.005583434831   0.004109317902    0.07384259254     -0.1556170732     
3260000000        -0.4113476574     -0.2159214616     -34.01004028      -14.76999855      -0.004539665766   0.004772041459    0.1183020175      -0.1538768709     
3300000000        -0.4217154384     -0.1630449593     -35.17474365      -10.89268494      -0.004868070129   0.005347306374    0.04236261174     -0.1114118099     
3340000000        -0.4223767221     -0.1304980516     -34.76787949      -6.777270317      -0.003823463107   0.005676604807    0.07496608049     -0.1530852616     
3380000000        -0.4298027158     -0.07759737968    -35.18085861      -3.145698547      -0.003857031465   0.006454576738    0.01985282078     -0.1060611978     
3420000000        -0.4274152517     -0.03986153752    -34.85841751      0.9599324465      -0.00302051194    0.006159259006    0.06904670596     -0.153067857      
3460000000        -0.418150425      0.003195982426    -33.56142044      5.268696785       -0.002800873481   0.007350482512    0.02781236358     -0.06290084124    
3500000000        -0.4159519374     0.0377798751      -32.02449417      9.156868935       -0.0020010632     0.00672805123     0.01904271543     -0.1272794902     
3540000000        -0.4009104371     0.08528855443     -30.76295853      11.73534679       -0.001558837714   0.007938316092    0.01150959171     -0.07294456661    
3580000000        -0.3861754537     0.1034656167      -28.75904846      14.90804577       -0.0008635622216  0.007263655309    0.02096737549     -0.1328318566     
3620000000        -0.3722737134     0.1514493227      -26.26997185      17.51437569       -0.0001993138285  0.008277919143    0.04012063891     -0.04742455855    
3660000000        -0.3457607031     0.1684933305      -23.84390831      20.28214073       0.0002870152239   0.007535144687    -0.004974727519   -0.08858472109    
3700000000        -0.3347080946     0.2047239989      -20.90778542      22.41520882       0.001092101913    0.008305718191    0.02222465724     -0.05993171036    
3740000000        -0.2981618941     0.2294202894      -18.10210419      24.07073784       0.00157228671     0.007884347811    0.001002003439    -0.09225703031    
3780000000        -0.2876526713     0.2524935901      -15.19824314      25.34637833       0.002598978113    0.008035298437    0.0480064936      -0.05804207548    
3820000000        -0.2491061538     0.2750457823      -12.39045143      26.16583633       0.002915295772    0.007822811604    0.003775654128    -0.0405141823     
3860000000        -0.2327121794     0.2916716635      -9.000959396      26.98036766       0.003871145425    0.007571398746    0.0162682198      -0.06488776952    
3900000000        -0.1952727437     0.3108502924      -6.058467865      27.23257065       0.004374189768    0.007639175747    0.0185243506      -0.05322789028    
3940000000        -0.1775650233     0.3179044425      -2.898543596      27.41368484       0.005147336051    0.00687359646     0.03369429335     -0.07335374504    
3980000000        -0.136596173      0.3395020366      0.05874723196     27.10525513       0.005707896315    0.007107771933    0.03936369345     -0.02227864787    
4020000000        -0.1155046895     0.3349515498      2.876771927       26.33168221       0.006384631153    0.006037730724    -0.0005552489311  -0.07113151997    
4060000000        -0.08055351675    0.3518166244      5.246812344       25.4675827        0.00697458908     0.006175007671    0.05189842358     -0.04851570353    
4100000000        -0.05343066901    0.34600389        7.774792671       24.31682205       0.007208637893    0.005211889278    0.02772065066     -0.07201504707    
4140000000        -0.01681050472    0.3584746718      9.915165901       22.97480392       0.008265434764    0.005201562773    0.07512746006     -0.03109983727    
4180000000        0.007765132003    0.339489758       11.86811733       21.68725777       0.008255563676    0.004140120931    -0.0006651342846  -0.05734029412    
4220000000        0.0281926766      0.3610126376      13.99964333       19.85989189       0.009390167892    0.0037199785      0.06260683388     -0.0747327134     
4260000000        0.0773948878      0.3338265717      15.70365334       17.89230537       0.008811502717    0.002986601321    0.02863905206     -0.07128335536    
4300000000        0.08235304058     0.3310067654      17.12257957       15.92940331       0.01007543597     0.002401934471    0.08200176805     -0.07069676369    
4340000000        0.1236184239      0.3279697597      18.5964222        13.72226334       0.009497793391    0.001525710337    0.02234368958     -0.05272616819    
4380000000        0.1479014158      0.3196745217      19.90017319       11.56605816       0.01063246652     0.0006444326136   0.05419989675     -0.1039699093     
4420000000        0.1779301465      0.2917098105      20.46468353       8.97919178        0.009998271242    -9.958086594e-06  0.043496117       -0.07803824544    
4460000000        0.1812612712      0.2898564041      20.91810036       6.965296745       0.0106981853      -0.001058628084   0.0592552349      -0.09886088967    
4500000000        0.2307520509      0.2744634748      21.26434517       4.517513275       0.01030511037     -0.001663855626   0.04215914384     -0.06472475827    
4540000000        0.2319447547      0.2444612086      21.11481285       2.592653275       0.01041202992     -0.002771138214   0.02183120698     -0.1123193353     
4580000000        0.2639153898      0.2373864353      21.23295975       0.6761348248      0.01058289688     -0.003337097121   0.05750064924     -0.1056286171     
4620000000        0.2704500556      0.2048407644      20.64369965       -1.464668274      0.009831622243    -0.004656457808   0.02511804551     -0.1144798175     
4660000000        0.2994857728      0.1958543062      20.35705185       -3.609987736      0.01035483088     -0.005039468408   0.0549076423      -0.110377647      
4700000000        0.3036051691      0.155477345       19.27301788       -5.603228569      0.009123036638    -0.006500519812   -0.0008719712496  -0.1209520921     
4740000000        0.3195262253      0.1483275145      18.57543182       -7.31108284       0.009617484175    -0.006699628662   0.05175541714     -0.1388029456     
4780000000        0.3301994503      0.1051035076      17.34409904       -9.030887604      0.008290426806    -0.008052058518   0.009546754882    -0.1169040799     
4820000000        0.3405751288      0.09226874262     15.98260021       -10.59640026      0.008629390039    -0.00850964617    0.02886291221     -0.139848277      
4860000000        0.3518071473      0.04919787496     14.64632511       -12.23239803      0.007175731473    -0.009510154836   -0.0135205863     -0.1221870631     
4900000000        0.3469050229      0.03887126967     13.07907772       -13.38753891      0.007105473895    -0.01012796629    0.003905930091    -0.1631988287     
4940000000        0.3628768921      -0.003133787774   11.58534241       -14.57619953      0.005922185723    -0.01068081893    -0.005221797619   -0.1276557446     
4980000000        0.3513424098      -0.02497237176    9.928809166       -15.32528496      0.005279815756    -0.01163047459    -0.02624612302    -0.1545076817     
5020000000        0.3570941687      -0.05650112033    8.212607384       -15.93660831      0.004371296149    -0.01168433577    -0.02318349853    -0.1412142366     
5060000000        0.3406009674      -0.07848598063    6.381886959       -16.38803291      0.003207345959    -0.01274588611    -0.04741812497    -0.1618507206     
5100000000        0.3509861231      -0.1142657623     4.807505131       -16.96570969      0.00267204456     -0.01246004365    -0.02771151438    -0.1465074718     
5140000000        0.3208015561      -0.1398714334     2.75357151        -16.96829605      0.0008992308867   -0.01361653488    -0.08262620866    -0.1436472684     
5180000000        0.3338494897      -0.1645852923     1.316188216       -17.03570175      0.000429834472    -0.01303109992    -0.06296031922    -0.1617130786     
5220000000        0.3052830398      -0.1994819492     -0.5984178185     -16.94825745      -0.0011236883     -0.01388743613    -0.08351516724    -0.1447171867     
5260000000        0.3000760376      -0.2166153193     -2.12340641       -16.59076118      -0.001736570499   -0.01349615026    -0.07578098774    -0.1525117904     
5300000000        0.2697815597      -0.248257637      -3.947966337      -16.07753563      -0.003310909495   -0.01357890945    -0.1129642352     -0.1157330349     
5340000000        0.2646972239      -0.2585143745     -5.332297802      -15.25169563      -0.004142736085   -0.01377530955    -0.1331607848     -0.1606923342     
5380000000        0.2310749888      -0.2971661687     -6.938039303      -14.62748337      -0.005630947184   -0.01297348831    -0.1111501753     -0.1220399886     
5420000000        0.2102507949      -0.299298346      -8.340711594      -13.52919102      -0.006715734024   -0.01353474893    -0.1343333274     -0.1183049008     
5460000000        0.1879311949      -0.3307117522     -9.662528992      -12.59879398      -0.007829125971   -0.01203885302    -0.1360657066     -0.06620188802    
5500000000        0.1607408971      -0.3373238146     -10.72189426      -11.2056427       -0.009129427373   -0.01291238703    -0.2013638318     -0.09646293521    
