! RsaToolbox (C) 2015 Rohde & Schwarz America
! 
! Number of points: 29
! Number of ports: 2
! Balanced ports?: No
! 
! 
# Hz S RI R 50
4260000000        0.05094558746     0.3438563645      14.09092426       16.20518494       0.008688313887    0.00289666024     0.03053136729     -0.07576724887    
4380000000        0.1290340722      0.3370862901      17.88451767       9.685825348       0.01051246002     0.0006301039248   0.0509003289      -0.1048722267     
4420000000        0.1594020426      0.3128731251      18.4443264        7.765949726       0.009851636365    -4.114468175e-05  0.04365279153     -0.08196526766    
4460000000        0.1748182625      0.3135681152      18.96772385       5.208890438       0.0106177507      -0.001011280692   0.056282565       -0.0971994102     
4540000000        0.224957943       0.2654289603      19.522789         2.024053574       0.0102834031      -0.002719410695   0.01966258511     -0.1130974442     
4580000000        0.2577495873      0.2575137913      19.29635239       0.06377851963     0.01050406974     -0.003264485858   0.05518946797     -0.105681479      
4620000000        0.2678022385      0.2289483547      18.71608734       -1.876063585      0.009694671258    -0.004603956826   0.02589446492     -0.1161059812     
4660000000        0.2980452478      0.2150989324      18.54410744       -3.804293871      0.01025054231     -0.004908663221   0.05012626201     -0.1113713533     
4700000000        0.3058678508      0.1762496978      17.71136856       -5.539725304      0.009001714177    -0.006462153513   -0.0004330065567  -0.1213051528     
4740000000        0.3230662048      0.1665425897      16.86098289       -7.259737015      0.009528728202    -0.006584805436   0.04647717997     -0.1391386837     
4780000000        0.3354676068      0.1213872433      16.08956337       -8.814406395      0.008235699497    -0.008002768271   0.0092650773      -0.1170224398     
4820000000        0.3534680009      0.1149104238      14.08440113       -10.19895267      0.008575353771    -0.008378699422   0.02438197285     -0.1398479491     
4860000000        0.3570890129      0.06338647008     13.76237392       -11.75188828      0.007103667129    -0.009442516603   -0.01495170593    -0.1226283982     
4900000000        0.3615296483      0.05609498173     11.55635738       -12.76991081      0.007083018776    -0.01001713518    0.001315746922    -0.1610584557     
4940000000        0.3728555441      0.009896848351    10.58510017       -13.88047028      0.005898469128    -0.01060989778    -0.007618980948   -0.1285286546     
4980000000        0.3629376292      -0.01375757623    8.984967232       -14.62506771      0.005281020422    -0.01150536351    -0.02852054685    -0.1517620385     
5020000000        0.3753648996      -0.04729410261    7.358220577       -15.16371155      0.004392981064    -0.01165259816    -0.02566413209    -0.1404616982     
5060000000        0.3551058769      -0.07187129557    5.910888672       -15.88111782      0.003280843608    -0.01264850236    -0.04947812483    -0.1595731825     
5100000000        0.3725619912      -0.1089995354     3.880373478       -15.73765182      0.002691244707    -0.01241524238    -0.03032655828    -0.1458673924     
5140000000        0.3348525465      -0.1374393404     2.43921423        -16.36536026      0.0009712149622   -0.01353952941    -0.08376000822    -0.1412660927     
5180000000        0.3512692153      -0.1664620042     0.6062423587      -15.99370575      0.0004928539274   -0.01300453115    -0.06429028511    -0.1583814025     
5220000000        0.3199478984      -0.1989644468     -0.8123072982     -16.18523598      -0.001096811495   -0.0138126798     -0.08440807462    -0.143962428      
5260000000        0.3154704273      -0.2208122909     -2.522353649      -15.62924957      -0.001647299854   -0.01341538411    -0.07774460316    -0.1483524591     
5300000000        0.2844808996      -0.2505847216     -3.983242273      -15.25001335      -0.003192077391   -0.01349468715    -0.1135706455     -0.1155135855     
5340000000        0.276829958       -0.2660924494     -5.587263107      -14.48088169      -0.004009954166   -0.01375887264    -0.1339796633     -0.1567023396     
5380000000        0.2436448038      -0.3070406616     -6.935850143      -13.72061825      -0.00549249351    -0.01289838832    -0.1122451946     -0.1218184307     
5420000000        0.2228886038      -0.3079310358     -8.261151314      -12.82943058      -0.006583618      -0.0135193076     -0.1354961246     -0.1139288694     
5460000000        0.1963810474      -0.3405278921     -9.517579079      -11.74768162      -0.007712184917   -0.01210174337    -0.1372588277     -0.06382665783    
5500000000        0.1689175218      -0.3496772349     -10.54067135      -10.40427589      -0.009033297189   -0.01293491106    -0.2013632953     -0.09329451621    
