! RsaToolbox (C) 2015 Rohde & Schwarz America
! 
! Number of points: 86
! Number of ports: 2
! Balanced ports?: No
! 
! 
# Hz S RI R 50
1860000000        0.1068589911      0.4636923075      22.60207939       30.01888084       -3.980760084e-05  -0.002176132286   -0.2446434051     0.1825387478      
1940000000        0.2030753791      0.4396389723      25.71827126       22.63772774       -0.0002077772806  -0.00207480113    -0.2218753099     0.2330622971      
1980000000        0.2469898164      0.4243964553      26.36149406       19.10033607       -0.0005879786913  -0.001892197761   -0.1986733377     0.3025478423      
2020000000        0.2982795835      0.4017942846      25.68419075       16.71034813       -0.000340795872   -0.001927506295   -0.1854449958     0.299161762       
2060000000        0.3380427361      0.376926899       25.86635399       14.50261497       -0.0005508780014  -0.001816948527   -0.1670668721     0.3559063077      
2100000000        0.3872984648      0.3448796272      25.54401016       12.94789886       -0.0004016588791  -0.001943591284   -0.120847851      0.3469165564      
2140000000        0.4295368493      0.2996394038      25.86244583       11.571311         -0.0005344279925  -0.001867457526   -0.08390101045    0.4181662202      
2180000000        0.4789752662      0.2660715878      25.98341751       9.936877251       -0.0005367797567  -0.002036853926   -0.02243070304    0.4019181132      
2220000000        0.513535738       0.2072725892      27.08517456       9.254501343       -0.0004610739416  -0.002022136236   -0.003429450095   0.4365415275      
2260000000        0.5441723466      0.1473136246      28.96385765       6.842469215       -0.0007256116369  -0.002316993661   0.07920967042     0.4060202837      
2300000000        0.5767018199      0.08045576513     29.26840019       6.306470871       -0.0005870168679  -0.002240683418   0.1073789373      0.4218742847      
2340000000        0.5787863731      0.007476855069    31.35948181       2.3740623         -0.001058782917   -0.002648486989   0.1765781343      0.4068031907      
2380000000        0.5924890041      -0.06523950398    32.58320999       0.7590337992      -0.0008903725538  -0.002571722493   0.2092171162      0.3848000467      
2420000000        0.5705529451      -0.1404326856     33.85687256       -4.323553085      -0.001642789226   -0.002916331869   0.2643055022      0.3483482599      
2460000000        0.5635320544      -0.2153515965     33.85043335       -7.65760231       -0.001447723247   -0.002832648112   0.3039048016      0.3000450432      
2500000000        0.5186576247      -0.2814396322     32.52690887       -12.97658443      -0.002297403757   -0.003008731874   0.3232863545      0.2846724987      
2540000000        0.4894383848      -0.3445521295     32.60119629       -17.0382061       -0.002279084176   -0.003054133151   0.3486664295      0.206956476       
2580000000        0.4321041703      -0.3967498839     28.34827614       -20.78230858      -0.003039209871   -0.002959443955   0.3546754718      0.2014020085      
2620000000        0.3875927031      -0.4427882433     27.34187317       -25.7574501       -0.003298438853   -0.002904391848   0.3794109523      0.09333524108     
2660000000        0.3095571101      -0.4908378422     23.66493225       -27.69311523      -0.003574362723   -0.002428024542   0.3501335382      0.1139734611      
2740000000        0.18377617        -0.5449513793     17.32622147       -34.72396469      -0.004195817746   -0.001702270587   0.3329865038      0.02033124305     
2820000000        0.06304620951     -0.5544145107     6.80422163        -37.88557434      -0.004898755811   -0.000909961178   0.3190757036      -0.05542845652    
2900000000        -0.05397427082    -0.5341532826     -4.04277277       -36.84006119      -0.005544675514   -0.0001657863468  0.2827704847      -0.1170522049     
2940000000        -0.1188116744     -0.5108321309     -8.177327156      -36.35147476      -0.005851422437   0.0003810317139   0.2283108085      -0.1107015163     
3020000000        -0.2249903083     -0.4545835555     -16.36554718      -33.51225662      -0.005894367583   0.001651832252    0.1891852766      -0.1299126148     
3100000000        -0.307972908      -0.3821296692     -23.05329323      -28.29283714      -0.005584347993   0.002742474899    0.1654971689      -0.1331856847     
3140000000        -0.3233810961     -0.3542654514     -26.06173515      -23.08625793      -0.00598051725    0.003009126289    0.1158805862      -0.1597057283     
3180000000        -0.3638640046     -0.3021366298     -28.7173748       -21.31302452      -0.005010177381   0.003895300673    0.1226657107      -0.1467859298     
3220000000        -0.3781131506     -0.2683478296     -30.59041023      -16.18824959      -0.005581020843   0.004083006177    0.07552788407     -0.1550972313     
3260000000        -0.3990693688     -0.2182757854     -31.93078995      -13.1620245       -0.004528793506   0.00481497962     0.1159421355      -0.1527704448     
3300000000        -0.412178278      -0.1710642576     -33.43235016      -9.415028572      -0.004859763198   0.005315327551    0.04535831138     -0.1111950576     
3340000000        -0.4146208465     -0.140495941      -32.16205978      -5.464177608      -0.003819660982   0.005676306318    0.07091058046     -0.1524664164     
3380000000        -0.4234662056     -0.080298841      -33.6088829       -2.339047432      -0.003878904274   0.006445944309    0.02082777582     -0.1056419313     
3420000000        -0.4231915772     -0.04375101253    -33.25969315      1.509204507       -0.003036132781   0.006165220402    0.06751526892     -0.1517592221     
3460000000        -0.4124571979     -0.004531302489   -31.56098938      5.634194851       -0.00279451767    0.007310341578    0.02782005072     -0.06523861736    
3500000000        -0.4167855978     0.02841196209     -30.68692589      9.150073051       -0.001977251144   0.006745044142    0.01781684719     -0.1249729916     
3540000000        -0.3966162503     0.0784463957      -29.58409882      11.49355888       -0.001562321326   0.007938891649    0.01208283845     -0.07513365895    
3580000000        -0.3888709247     0.09463571757     -27.01085854      14.7587719        -0.0008521759883  0.00727923587     0.01887956448     -0.1306048334     
3620000000        -0.3714830577     0.1416128725      -25.36571121      16.9105587        -0.0001972741156  0.008238079026    0.04056496918     -0.04775600508    
3660000000        -0.3497864306     0.1605693102      -22.55976295      19.91773224       0.0003002612502   0.007525474764    -0.004656739067   -0.08719076216    
3700000000        -0.3349969983     0.198178798       -20.19372368      21.81868362       0.001110942336    0.008297881112    0.0218486283      -0.06058121845    
3740000000        -0.3021665215     0.2216043323      -17.31082153      23.45585823       0.001588078099    0.007875178941    0.002112911083    -0.09182052314    
3780000000        -0.290196985      0.2473140806      -14.49575424      24.6847744        0.002590527292    0.008009235375    0.04786668345     -0.05807023123    
3820000000        -0.2517707944     0.2708929181      -11.87918854      25.62538719       0.002917804988    0.007802642882    0.004937325604    -0.0409011431     
3860000000        -0.2373443842     0.286595583       -8.481366158      26.1727581        0.003867528634    0.007579278667    0.01701314561     -0.06440991908    
3900000000        -0.1973019838     0.308065474       -5.748051643      26.68230247       0.004366190638    0.007640026975    0.01822506823     -0.05364637449    
3940000000        -0.1838076413     0.3172363639      -2.380526066      26.63620949       0.005157616455    0.006861907896    0.03365647793     -0.07271403074    
3980000000        -0.1378883272     0.336650461       0.1968549341      26.59100723       0.00571308611     0.007084520999    0.03949509561     -0.0227531381     
4020000000        -0.1212728918     0.3346405029      3.128526211       25.59297562       0.006372454111    0.006023922935    0.0001222530846   -0.07043462992    
4060000000        -0.08461142331    0.3510972559      5.328931808       24.91929817       0.006972179282    0.006173717324    0.05146281049     -0.04923734069    
4100000000        -0.05859613791    0.3460899591      7.763835907       23.88561249       0.007219460327    0.005203717854    0.02771495096     -0.0724299103     
4140000000        -0.02153924666    0.3595294654      9.79843235        22.55238533       0.008259515278    0.00519248005     0.07462486625     -0.03179428726    
4180000000        0.002574233338    0.3410501778      11.79032803       21.39435768       0.008231525309    0.004131019115    -0.0005110072088  -0.05735671893    
4220000000        0.02330278233     0.362814188       13.76233387       19.21595192       0.009370940737    0.003711677855    0.06277696043     -0.07420804352    
4260000000        0.07335475087     0.3361181915      15.49680996       17.73432541       0.008800048381    0.002970800968    0.02855258435     -0.0713743493     
4300000000        0.08218427002     0.3345842659      17.09150505       15.50892925       0.01004899479     0.002365971915    0.08082613349     -0.07130850106    
4340000000        0.1215596721      0.33004421        18.3818264        13.47354317       0.009474334307    0.001512698364    0.02270621434     -0.05258275196    
4380000000        0.144580856       0.3205808997      19.58583069       11.33887863       0.01059210487     0.0006349517498   0.05371624976     -0.1042254195     
4420000000        0.1764574647      0.2950095832      20.25046158       8.835567474       0.009972772561    -2.165571641e-05  0.04360580072     -0.07817527652    
4460000000        0.1820014119      0.2924343348      20.74934196       6.727683067       0.01068143733     -0.00103972014    0.05830686912     -0.098844558      
4500000000        0.2284705788      0.2769001424      20.91177559       4.438880444       0.01028526388     -0.001675745007   0.04312697425     -0.06541486084    
4540000000        0.2319579124      0.2471345514      20.97211838       2.608314037       0.01039259043     -0.002753915731   0.02162258141     -0.1120631099     
4580000000        0.2615745068      0.2401475906      21.01222229       0.7070190907      0.01057695318     -0.003330153413   0.05741075054     -0.1044713631     
4620000000        0.2689509988      0.2088430822      20.46422768       -1.385322809      0.00979180634     -0.004650006071   0.02524300665     -0.114769116      
4660000000        0.2978785932      0.1986829787      20.11997986       -3.533672333      0.01031388994     -0.005033622961   0.05464196205     -0.1107063666     
4700000000        0.3045134544      0.1571498662      19.10629082       -5.610566616      0.009075180627    -0.006490026135   -0.0003412086517  -0.1208435148     
4740000000        0.3192732334      0.1509649158      18.38973427       -7.293997765      0.009595504962    -0.006683971267   0.05132716894     -0.1400996        
4780000000        0.3315361738      0.1057015061      17.149086         -9.101074219      0.008265949786    -0.008039137349   0.009339010343    -0.1175364554     
4820000000        0.3421930969      0.09771613032     15.90707874       -10.52398586      0.008619528264    -0.008468858898   0.02873345837     -0.1403439641     
4860000000        0.3507631123      0.0528345257      14.53771114       -12.072155        0.007135813124    -0.009507985786   -0.01354349311    -0.122953251      
4900000000        0.3484213352      0.04237148538     12.94151688       -13.26952076      0.007069030311    -0.0101047568     0.003666074481    -0.1630076468     
4940000000        0.3635726273      -0.0001741880551  11.48267746       -14.43707561      0.005914691836    -0.01068313606    -0.005723845214   -0.1282609105     
4980000000        0.3512567282      -0.02204489522    9.793931007       -15.1641016       0.005286845844    -0.01160940155    -0.02641358599    -0.1541472971     
5020000000        0.3625648022      -0.05492670834    8.177260399       -15.93550587      0.004393055104    -0.01167560276    -0.02344331518    -0.1415068358     
5060000000        0.3443678319      -0.07796390355    6.368776321       -16.33060837      0.003218337428    -0.01274162065    -0.04883942381    -0.1619308442     
5100000000        0.3555732369      -0.1137338951     4.696854115       -16.84321404      0.00267532398     -0.01246909238    -0.02833787166    -0.1462729573     
5140000000        0.3253712654      -0.1392498612     2.763253689       -16.92865562      0.0009280781378   -0.01362884045    -0.08293374628    -0.1432610303     
5180000000        0.3355543911      -0.1645544767     1.189583063       -16.93879509      0.0004517760244   -0.01302376296    -0.06328928471    -0.1608407348     
5220000000        0.3076595366      -0.1984763294     -0.6210541129     -16.84620285      -0.001117395936   -0.01388291642    -0.08432044834    -0.1451848894     
5260000000        0.3016823828      -0.2177997828     -2.204954147      -16.43442535      -0.001735136379   -0.0134755373     -0.07555767149    -0.1511083394     
5300000000        0.2725068033      -0.2469874769     -3.921837091      -15.98074532      -0.003276415402   -0.01358574722    -0.1127603054     -0.1160369888     
5340000000        0.2658413053      -0.2628107667     -5.462985039      -15.1882019       -0.004136373755   -0.01378797088    -0.1329636574     -0.1600701064     
5380000000        0.2318893224      -0.2980430424     -6.924916267      -14.44933605      -0.005603083409   -0.01299477741    -0.1110945493     -0.1221410334     
5420000000        0.2126887888      -0.3016453981     -8.323459625      -13.4643116       -0.006703812629   -0.01351992134    -0.134231627      -0.1171038374     
5460000000        0.189332366       -0.3318506479     -9.630419731      -12.47589111      -0.007834430784   -0.01202648506    -0.136200428      -0.06534567475    
5500000000        0.1624704599      -0.3384937048     -10.66449261      -11.10307598      -0.009106295183   -0.01291389856    -0.2007785439     -0.09654916078    
