! RsaToolbox (C) 2015 Rohde & Schwarz America
! 
! Number of points: 39
! Number of ports: 2
! Balanced ports?: No
! 
! 
# Hz S RI R 50
3820000000        -0.2696056068     0.2545093298      -10.33053017      23.46821022       0.002922549145    0.007774478756    0.006240493618    -0.0409784019     
3900000000        -0.2149659991     0.2937390208      -5.107747555      24.42521858       0.004358375445    0.007614897564    0.01887401007     -0.05527845025    
3980000000        -0.1523197293     0.3281610012      0.3120485842      24.83132553       0.005700757727    0.007065590005    0.03969150409     -0.02486058883    
4060000000        -0.09890853614    0.3486528993      5.321084023       23.06081772       0.006953066215    0.006144561339    0.0501467064      -0.05107232183    
4100000000        -0.07522409409    0.3489348888      7.712510109       22.09907913       0.007219224703    0.005159986205    0.02902307175     -0.06978821009    
4140000000        -0.03713903576    0.3596653342      9.389178276       20.72644615       0.008217774332    0.005178522784    0.07431783527     -0.03381652758    
4180000000        -0.006913412828   0.3448388278      11.63569164       20.06625748       0.008217948489    0.00410175696     0.0002623581095   -0.05626278371    
4260000000        0.06355549395     0.3388643265      14.8715601        16.97071838       0.008771075867    0.002960223705    0.03002512455     -0.07367717475    
4300000000        0.07156428695     0.3449359536      16.401371         14.05056          0.01004018914     0.00239111227     0.07745037973     -0.07090553641    
4340000000        0.1110456139      0.3371275961      17.45416451       12.42987633       0.009459678084    0.001488861511    0.02565401606     -0.05337710306    
4380000000        0.1374519616      0.3274331093      18.80804253       10.54354          0.01058129873     0.0006394357188   0.05244898796     -0.1043505967     
4420000000        0.1679578871      0.3034804165      19.42035866       8.367905617       0.009933854453    -1.838211028e-05  0.04363327101     -0.07990657538    
4460000000        0.1770613939      0.3010859191      19.93278122       6.013228893       0.01066922676     -0.00104303495    0.05764673278     -0.09838238358    
4500000000        0.2227488905      0.2868618965      19.8590641        3.927932739       0.01024423726     -0.001675289473   0.04335048422     -0.06720501184    
4540000000        0.228636831       0.2555847168      20.30060196       2.326697826       0.01038441248     -0.002730199602   0.02057298832     -0.1126397997     
4580000000        0.2600221336      0.2468010038      20.19628525       0.2963526249      0.01055518724     -0.0033069083     0.05620272458     -0.1053247899     
4620000000        0.2702249885      0.2173942626      19.73726463       -1.718207359      0.009785435162    -0.004645089619   0.02549701743     -0.1155881509     
4660000000        0.2974044979      0.2062918991      19.38968277       -3.714144707      0.0103301527      -0.004984964151   0.05253231153     -0.1113689691     
4700000000        0.3046772182      0.1661418527      18.479702         -5.565686226      0.009082872421    -0.006480708718   -0.0004786655772  -0.1210420877     
4740000000        0.3209664822      0.1574048251      17.64752769       -7.310893536      0.009592259303    -0.006656997837   0.04869011417     -0.13987194       
4780000000        0.3329213262      0.1144509539      16.70270729       -8.921003342      0.008268766105    -0.008031425998   0.009371347725    -0.1172782034     
4820000000        0.3459714651      0.1046125889      15.00768471       -10.42746735      0.008634828031    -0.008439434692   0.02671582997     -0.1401529759     
4860000000        0.3537321091      0.05767329782     14.15264034       -11.92296791      0.007155370899    -0.009490925819   -0.01433165185    -0.1230762675     
4900000000        0.3527252972      0.0486054197      12.28586578       -13.06175137      0.007097935304    -0.01007686462    0.001926829573    -0.1620229334     
4940000000        0.3686324954      0.004414034076    11.03349972       -14.22070503      0.005908266641    -0.01066983864    -0.007086540107   -0.128289625      
4980000000        0.3563256264      -0.01831480116    9.369886398       -14.91359806      0.005309829488    -0.01158341207    -0.02820400707    -0.1526587605     
5020000000        0.3683174849      -0.05108849704    7.75379467        -15.55622959      0.004406571854    -0.01166717336    -0.02465015277    -0.1402105093     
5060000000        0.3494698703      -0.07461601496    6.172368526       -16.12464523      0.003231954761    -0.01276826579    -0.04914916679    -0.1602587253     
5100000000        0.363309741       -0.1110350564     4.281485081       -16.3233223       0.00265625515     -0.01246480178    -0.02876904793    -0.1457277685     
5140000000        0.3305620849      -0.1381729096     2.635390043       -16.64624786      0.0009087792132   -0.01360201836    -0.08275417984    -0.1419876516     
5180000000        0.3430153728      -0.1646741331     0.9025588036      -16.46240234      0.0004410159891   -0.01301178895    -0.06323973835    -0.1597139388     
5220000000        0.3124862909      -0.1983622313     -0.6913573742     -16.47354126      -0.001134499907   -0.01385376416    -0.08381662518    -0.1449073702     
5260000000        0.3076727688      -0.2181213945     -2.337600708      -16.05573463      -0.001712547382   -0.01345537324    -0.07693172246    -0.1502748877     
5300000000        0.2787583768      -0.2490231246     -3.952473164      -15.6558857       -0.003266276559   -0.01355503034    -0.1133586764     -0.1159844697     
5340000000        0.2715603113      -0.2632701695     -5.514300823      -14.85734558      -0.00410907669    -0.01376133505    -0.1340791732     -0.1584902406     
5380000000        0.2384934276      -0.3023636341     -6.925271988      -14.1104517       -0.005610125605   -0.01297881547    -0.1119392514     -0.1215413064     
5420000000        0.2172012478      -0.3033594191     -8.264292717      -13.13708878      -0.006682712585   -0.01352600567    -0.1351808757     -0.1157706976     
5460000000        0.1935680211      -0.335863173      -9.576909065      -12.12758064      -0.007826576009   -0.01203925256    -0.1370794028     -0.06439004838    
5500000000        0.1662211716      -0.3449683189     -10.62258911      -10.76868916      -0.009090154432   -0.01292531192    -0.201257661      -0.094490394      
