! RsaToolbox (C) 2015 Rohde & Schwarz America
! 
! Number of points: 94
! Number of ports: 2
! Balanced ports?: No
! 
! 
# Hz S RI R 50
1740000000        -0.04970386624    0.4808737636      14.38331223       41.50226593       0.0002452725894   -0.002279878128   -0.2490277886     0.1050888672      
1780000000        0.005982676987    0.4786512554      17.86231613       38.13399124       0.0002409083972   -0.002210976556   -0.234300375      0.1337469518      
1820000000        0.05461808667     0.4745768905      21.98123932       33.84822845       -0.0001095067273  -0.002163300989   -0.2442477047     0.1644394398      
1860000000        0.1111596003      0.4564556777      24.10891724       30.68358994       -2.470988875e-05  -0.002192656742   -0.2445883155     0.1826805174      
1900000000        0.1513970643      0.452872932       25.94608498       24.73971939       -0.0003834778036  -0.002007646719   -0.2386850417     0.2213129848      
1940000000        0.2043085098      0.429464221       26.68194199       22.69012833       -0.0001907123951  -0.002074450254   -0.2226867378     0.2333756834      
1980000000        0.2446670383      0.4101551771      26.88406563       19.14650917       -0.000573661644   -0.001893431181   -0.1983710527     0.3025974929      
2020000000        0.2961256802      0.3925174475      26.45209503       16.73407555       -0.0003343529534  -0.001941069961   -0.1850218773     0.2992328703      
2060000000        0.3376533985      0.3678196073      26.54548073       14.62674141       -0.0005534570082  -0.001826371299   -0.1671641022     0.3557669818      
2100000000        0.3833734393      0.332347095       26.03082848       12.57608795       -0.0003970601538  -0.001940019894   -0.1210265607     0.3468063772      
2140000000        0.4256128371      0.296425432       26.34137344       11.622159         -0.0005330844433  -0.001887978055   -0.08380969614    0.4178544879      
2180000000        0.4731318653      0.2595251501      26.57034492       9.85790062        -0.00052273029    -0.00201450265    -0.02256057411    0.4018740952      
2220000000        0.5088220239      0.2000562847      27.45430565       9.025947571       -0.0004690687929  -0.00203742669    -0.003853987902   0.4369230568      
2260000000        0.5361314416      0.1416544467      29.2551651        6.855116844       -0.0007329456275  -0.002297759056   0.07828909904     0.4060141444      
2300000000        0.5702238083      0.07952590287     29.76115417       6.292079449       -0.0005730393459  -0.002218738198   0.107472688       0.4220288992      
2340000000        0.5766960382      0.003404995427    32.08598709       2.883181572       -0.001081290422   -0.002641174011   0.1763826758      0.4068468213      
2380000000        0.5857902765      -0.06628517807    33.06542587       0.8698402643      -0.0008827670245  -0.002576779341   0.2090216726      0.3853034675      
2420000000        0.5704236627      -0.1434927583     34.88299179       -3.692662001      -0.001624073368   -0.002896891907   0.2637435794      0.3489132524      
2460000000        0.560460031       -0.2160629332     34.78147125       -7.445876122      -0.001411613543   -0.002825674135   0.3034934103      0.3006477952      
2500000000        0.5197459459      -0.2865038514     34.19734955       -12.43685436      -0.002293891041   -0.002989742672   0.3226321638      0.2854997516      
2540000000        0.4892468452      -0.3482068777     33.92830658       -16.98851776      -0.002270012861   -0.003019703086   0.3495622873      0.2058911026      
2580000000        0.43171826        -0.4054847956     30.37373924       -21.19675636      -0.003038994735   -0.00295369653    0.3538501263      0.2020246536      
2620000000        0.3849743009      -0.4507277608     29.14289474       -26.28448677      -0.003314146074   -0.002867954317   0.3804787099      0.09249060601     
2660000000        0.3113534153      -0.4975560606     25.56378174       -28.62002373      -0.003555733245   -0.002444173209   0.3504031897      0.1144113541      
2700000000        0.2643149793      -0.5057094693     18.80517197       -32.29220963      -0.004418704659   -0.002584746806   0.3679203391      0.01921547949     
2740000000        0.1818275899      -0.5539003015     18.32605743       -35.78514862      -0.004205642734   -0.001696560183   0.332095921       0.02026689798     
2820000000        0.0526047796      -0.5609949827     7.31588459        -39.35331345      -0.00495592365    -0.0009267558926  0.3183366358      -0.05506733805    
2860000000        -0.009246720001   -0.5436307788     1.045562744       -38.69726562      -0.005650128238   -0.0009658535128  0.2762134671      -0.0805767253     
2900000000        -0.06337083876    -0.5355967283     -3.604875088      -38.61419296      -0.005572858732   -0.0001519121724  0.2829011679      -0.1172474325     
2940000000        -0.1297049075     -0.5140525103     -7.909815311      -38.22973251      -0.005891955458   0.0003713721526   0.2274825722      -0.1101232767     
2980000000        -0.1681157947     -0.49083969       -12.41394043      -35.76491547      -0.00585323805    0.0007180767716   0.2249657959      -0.1415387392     
3020000000        -0.2323904485     -0.4598617256     -16.52850342      -35.40756989      -0.005917511415   0.001650660299    0.1875505596      -0.1282447278     
3060000000        -0.2605061233     -0.4266343713     -20.46385384      -30.81426048      -0.005970016588   0.00185829727     0.1687239259      -0.1706477702     
3100000000        -0.3143479824     -0.3848026693     -23.5133419       -29.7765255       -0.005605007522   0.002774024149    0.1654072404      -0.1329243034     
3140000000        -0.330519557      -0.348782897      -26.96723557      -24.81830978      -0.005980798043   0.003025463084    0.1152968109      -0.1601937562     
3180000000        -0.3678026795     -0.3035034835     -29.28489494      -22.40866661      -0.005045225844   0.003889254527    0.1232961267      -0.1453205943     
3220000000        -0.3823113441     -0.2591141462     -31.62209511      -17.3147583       -0.005563819315   0.004091167357    0.07516334206     -0.1547758877     
3260000000        -0.4056789279     -0.2163351923     -32.99653244      -13.84669113      -0.004539814778   0.004798126407    0.1176993176      -0.1534289122     
3300000000        -0.4129005373     -0.1665847003     -34.10070801      -9.980218887      -0.004883179441   0.005291989539    0.0441349782      -0.111641705      
3340000000        -0.4192477167     -0.1342487484     -33.39178467      -5.880609512      -0.003798922058   0.005665067583    0.07304167002     -0.1528570801     
3380000000        -0.4256999791     -0.08005577326    -34.35454559      -2.858301163      -0.003881743178   0.006433106028    0.0204437729      -0.1056076884     
3420000000        -0.4254626632     -0.04109782726    -33.9031601       1.313129187       -0.003029559506   0.006169106346    0.06787437201     -0.1518772691     
3460000000        -0.4178147316     0.0004919674248   -32.6460495       5.585793495       -0.002792813117   0.00734258024     0.02826016955     -0.06381975859    
3500000000        -0.4157373905     0.03233493865     -31.29515076      9.137574196       -0.002002712339   0.006747451145    0.01856883802     -0.1263103187     
3540000000        -0.3976232111     0.08127188683     -30.02086449      11.5740099        -0.00156532519    0.007937673479    0.01231145486     -0.07484059781    
3580000000        -0.3860020936     0.09792046994     -27.73851776      14.88023663       -0.0008715757867  0.007289090194    0.01973489113     -0.1316879243     
3620000000        -0.3732426465     0.1446302384      -25.89553833      17.07224655       -0.0001932125306  0.008253486827    0.04010116681     -0.04811070487    
3660000000        -0.347819984      0.1649992913      -23.11149979      20.14886665       0.0003091971739   0.007535520941    -0.004763907753   -0.08790667355    
3700000000        -0.3357071579     0.2020981014      -20.52903366      22.13544083       0.001109654899    0.008302289993    0.02167624049     -0.06072087958    
3740000000        -0.2994272411     0.2251578718      -17.60148621      23.71857452       0.001591090928    0.007872807793    0.001382268267    -0.09191992879    
3780000000        -0.2873918414     0.2486032248      -14.69555283      24.87633705       0.00259717647     0.008025433868    0.04822796956     -0.05751889572    
3820000000        -0.2515117824     0.2732661068      -12.08863258      25.8957386        0.002908154391    0.007794078905    0.004148543812    -0.04079410434    
3860000000        -0.2362209409     0.2899799943      -8.7194767        26.61643982       0.003884952981    0.007581737824    0.0165401008      -0.06494025886    
3900000000        -0.197876811      0.3086341321      -6.009451866      26.88523865       0.00435773097     0.007649431471    0.01794041507     -0.05359119177    
3940000000        -0.1816972494     0.316825211       -2.610612869      26.91047668       0.005154140294    0.006840388756    0.03379492089     -0.07286638021    
3980000000        -0.1375144124     0.337979883       0.1051959172      26.77787781       0.00570794614     0.007089152467    0.03934917971     -0.0224631317     
4020000000        -0.1185638458     0.3359523416      3.125709057       25.94854927       0.006367498543    0.006019558758    -5.217618309e-05  -0.07020589709    
4060000000        -0.08120341599    0.3517768979      5.341560841       25.17467499       0.006966166198    0.006167910062    0.05140727758     -0.0486949645     
4100000000        -0.05644380301    0.3465121388      7.745147705       24.13762283       0.007190381642    0.005226616748    0.02761320956     -0.07188228518    
4140000000        -0.01883271895    0.3578885198      9.837464333       22.62909126       0.008262490854    0.005212164018    0.0752550438      -0.03175415471    
4180000000        0.00559974229     0.3396834135      11.90194321       21.48199272       0.008248546161    0.004135231953    -0.0003761253902  -0.0574128069     
4220000000        0.02520758659     0.3617617488      13.88245678       19.50943947       0.00938754715     0.003711651545    0.06307692081     -0.07478231937    
4260000000        0.07524838299     0.3360634446      15.60052109       17.84311676       0.008815721609    0.002988285385    0.02908541821     -0.07178719342    
4300000000        0.08300642669     0.332860589       17.15071487       15.6789608        0.01005118154     0.002383918269    0.08161479235     -0.07108229399    
4340000000        0.121484898       0.3300634325      18.46923637       13.62226105       0.009489675052    0.001515581622    0.02244142257     -0.05249781907    
4380000000        0.1438953131      0.3199666739      19.66485405       11.49473381       0.01061662938     0.0006285138661   0.05385155231     -0.1042014435     
4420000000        0.1755157262      0.2947022617      20.31721306       8.959218979       0.009988640435    -2.253010462e-05  0.04310331866     -0.0785664767     
4460000000        0.18032974        0.2919286788      20.75858116       6.846601486       0.01068114117     -0.00104430248    0.05852894485     -0.09846916795    
4500000000        0.2274912745      0.2748789787      20.95530891       4.481702328       0.01030343212     -0.001664105919   0.04296050966     -0.06466208398    
4540000000        0.2311641872      0.2470130622      21.01122856       2.641289234       0.01042229496     -0.002746070037   0.02161765099     -0.1124282405     
4580000000        0.2625793219      0.2378644943      21.05844116       0.6444414854      0.01059518568     -0.003338187933   0.05758246779     -0.1048199981     
4620000000        0.2698020935      0.206807673       20.54172134       -1.456358194      0.009822453372    -0.004652590957   0.02518600225     -0.1149251983     
4660000000        0.2985705435      0.1983344704      20.20931053       -3.566856861      0.01034792233     -0.005023244768   0.05501080304     -0.1106798053     
4700000000        0.3045395017      0.1563390195      19.14865112       -5.626702785      0.009105121717    -0.006497547496   -0.0002096556127  -0.120710291      
4740000000        0.3189975023      0.1481601596      18.36655807       -7.330589771      0.009587858804    -0.00670621777    0.0512008816      -0.1394685358     
4780000000        0.331159085       0.1068032458      17.22301292       -9.061078072      0.008270297199    -0.008054919541   0.008886725642    -0.1167427674     
4820000000        0.3400315046      0.09565539658     15.91401386       -10.5396347       0.008608776145    -0.008486828767   0.02919202857     -0.1397209167     
4860000000        0.3515570164      0.05146336183     14.55229473       -12.15050602      0.007150214631    -0.009511900134   -0.01299877651    -0.1229135171     
4900000000        0.3472390473      0.04107674584     13.00612259       -13.32826996      0.007064523641    -0.0101223886     0.00315081235     -0.1630772501     
4940000000        0.3627273738      0.0006971843541   11.54221439       -14.44024277      0.005908802617    -0.01070522238    -0.006107220426   -0.127035141      
4980000000        0.3516345322      -0.02306506969    9.834158897       -15.20287609      0.005272516981    -0.01160089951    -0.0260768868     -0.1539484113     
5020000000        0.3608754277      -0.05632701516    8.217121124       -15.9414196       0.004383396357    -0.01167061087    -0.02315910161    -0.1412621886     
5060000000        0.3444020152      -0.07695905119    6.463372231       -16.43756294      0.003214675933    -0.01274440065    -0.04825023934    -0.1625147909     
5100000000        0.3526598215      -0.1147429645     4.6664958         -16.86079025      0.002653433941    -0.01245834306    -0.02756330557    -0.1471820027     
5140000000        0.3224383891      -0.1401424259     2.738123894       -16.8987751       0.0009279724327   -0.01361238956    -0.08208530396    -0.144131884      
5180000000        0.3352635205      -0.164783895      1.266475201       -16.9786644       0.0004434647853   -0.01301503181    -0.06308925152    -0.1613389403     
5220000000        0.306507796       -0.1990530044     -0.588237226      -16.91489029      -0.001130796969   -0.01386800781    -0.08427372575    -0.1451945603     
5260000000        0.2984461188      -0.2170421779     -2.224555969      -16.44179535      -0.001727295574   -0.01348062605    -0.07549735159    -0.1520865113     
5300000000        0.2704570889      -0.2477016747     -3.953051805      -15.99842072      -0.003273697803   -0.01357716136    -0.1137059852     -0.1166937947     
5340000000        0.2641304135      -0.2614415884     -5.444322586      -15.19988918      -0.004150873516   -0.01378143672    -0.1334804296     -0.1600861698     
5380000000        0.2313972116      -0.2979220152     -6.970330238      -14.520051        -0.005619474687   -0.01299772318    -0.1112678945     -0.1213006377     
5420000000        0.2118567675      -0.2995378971     -8.325216293      -13.45726871      -0.006707714405   -0.01351659559    -0.1352787614     -0.1179492846     
5460000000        0.1890624464      -0.3306958377     -9.604697227      -12.48200512      -0.00785024371    -0.01202773955    -0.1357257664     -0.0657960102     
5500000000        0.1627742946      -0.3373315334     -10.65754223      -11.12823582      -0.009094846435   -0.01290498208    -0.2006413341     -0.09678056836    
