! RsaToolbox (C) 2015 Rohde & Schwarz America
! 
! Number of points: 72
! Number of ports: 2
! Balanced ports?: No
! 
! 
# Hz S RI R 50
1940000000        0.2026671767      0.4548366666      24.47138405       22.44334412       -0.0001998757652  -0.002079785103   -0.2217871696     0.2330622673      
1980000000        0.2474638224      0.4380100369      25.30251122       18.70172691       -0.0005948438775  -0.001882735873   -0.1980487704     0.3013027608      
2020000000        0.3000334203      0.4170981646      24.69312859       16.85190773       -0.0003303296689  -0.001927480916   -0.1848056316     0.2994466126      
2060000000        0.3425768912      0.3904162049      25.13208008       14.13158035       -0.0005561125581  -0.001833784976   -0.1670141965     0.3550598025      
2100000000        0.3926380873      0.3554733098      24.83041573       13.05195045       -0.0004037024628  -0.001936880639   -0.1211755872     0.3469136059      
2140000000        0.4360255003      0.3100745678      25.2797718        11.72919178       -0.0005478368839  -0.001874494599   -0.08384089172    0.4180093706      
2180000000        0.4882854819      0.2796961665      25.36618805       10.00269222       -0.0005239135353  -0.002029279014   -0.02192445472    0.401645869       
2220000000        0.5214157104      0.2132363617      26.53908348       9.353023529       -0.0004760814481  -0.002030410338   -0.003593444824   0.4368191659      
2260000000        0.5498433709      0.1554268599      28.27294159       6.581394672       -0.000740208081   -0.002315979218   0.07916095853     0.4063661695      
2300000000        0.5842919946      0.08585972339     28.60682106       6.547216415       -0.0005894466303  -0.002222477458   0.1077264175      0.4220629632      
2340000000        0.5848165154      0.0156599395      30.29595757       1.621244431       -0.001072626328   -0.002641493455   0.1767477095      0.4071397781      
2380000000        0.5991640687      -0.06267559528    31.72211266       0.5337170362      -0.0009011949878  -0.002568220254   0.2097979188      0.3846600056      
2420000000        0.5768187642      -0.1340059191     32.58783722       -4.868766785      -0.001636839937   -0.002912718803   0.2647067308      0.3487564027      
2460000000        0.5670980811      -0.2083890736     32.40118027       -7.642289639      -0.001432966325   -0.002827742137   0.304179132       0.2998610139      
2540000000        0.4951345623      -0.3401607573     31.0162468        -16.99486542      -0.002272816142   -0.003026331076   0.3487174511      0.2079268992      
2740000000        0.1894343495      -0.5407751203     16.13947105       -33.41573715      -0.004185827449   -0.001707913121   0.3339132667      0.01819089055     
3180000000        -0.3563511074     -0.3053956628     -27.64743614      -19.98003006      -0.005040019285   0.003911402076    0.1221118048      -0.1468743086     
3300000000        -0.4109774232     -0.1773986965     -32.41919327      -8.43256855       -0.004867219832   0.005320139695    0.04688230157     -0.1116235852     
3380000000        -0.4188683331     -0.08547730744    -32.50006866      -2.023222208      -0.003879751544   0.006424171384    0.02147787996     -0.105874382      
3420000000        -0.4202575386     -0.04834412783    -32.11669159      1.798449755       -0.003019029973   0.006166020874    0.067472592       -0.150585711      
3460000000        -0.4091791809     -0.01233051345    -30.2479229       5.712736607       -0.002808024641   0.007329701446    0.0284364745      -0.06638748199    
3500000000        -0.4141008854     0.02151858993     -29.57723808      9.006236076       -0.001976477448   0.006750543602    0.01789764501     -0.1233962625     
3540000000        -0.3930208087     0.07316204906     -28.77481461      11.31522942       -0.001580596436   0.00793142058     0.0122162886      -0.07594739646    
3580000000        -0.3908803165     0.0868274644      -25.87277985      14.50872898       -0.0008494416834  0.007290275767    0.01862995327     -0.1290886402     
3620000000        -0.371286869      0.1348953098      -24.84226227      16.52667618       -0.0001977935317  0.008270435967    0.04076032713     -0.04849601537    
3660000000        -0.3529570103     0.155021593       -21.61375237      19.57951164       0.0003166146635   0.007541348226    -0.004656819627   -0.08694975823    
3700000000        -0.3366935849     0.1955895871      -19.75644684      21.57797623       0.001101853326    0.008294017985    0.02172878198     -0.06050635129    
3740000000        -0.3053674102     0.21743384        -16.71742439      23.1171608        0.001607104437    0.00787017867     0.00223951065     -0.09080847353    
3780000000        -0.2919852734     0.2436980009      -14.00196266      24.26404762       0.002603556029    0.00802542828     0.04784198105     -0.05849674717    
3820000000        -0.255011797      0.2693959773      -11.62971497      25.37169266       0.002915339777    0.007809242234    0.005114192143    -0.04140211269    
3860000000        -0.2422170937     0.2868076861      -8.197499275      25.88167191       0.003898277646    0.007575684227    0.01647485234     -0.06416220963    
3900000000        -0.2007400841     0.3064574301      -5.660141945      26.39359283       0.004368155263    0.00764915254     0.01850513741     -0.05437142029    
3940000000        -0.1873752773     0.3164556026      -2.068843842      26.01060295       0.005168661941    0.006854361389    0.03386357427     -0.07264117897    
3980000000        -0.1422932595     0.3352132142      0.1338109374      26.31385231       0.005734215956    0.007080473937    0.03947148472     -0.02340300195    
4020000000        -0.1255336404     0.3361950815      3.306445122       25.18898201       0.006394083612    0.005990197416    -5.11421822e-05   -0.06982894242    
4060000000        -0.08573582768    0.3513278067      5.377165318       24.63768768       0.006960375234    0.006158752833    0.05072818324     -0.04970514029    
4100000000        -0.06116950139    0.3482221067      7.728451729       23.67616653       0.007206877694    0.005175390281    0.02790604346     -0.07133320719    
4140000000        -0.02325845696    0.3596524         9.723070145       22.24419785       0.00823819451     0.005172116216    0.07461638004     -0.0317999348     
4180000000        0.003519385122    0.340466857       11.83640289       21.07808304       0.008221148513    0.004121983424    -0.0004123901017  -0.0570518896     
4220000000        0.02055666409     0.3633821905      13.66719341       18.78949547       0.009371129796    0.003702858696    0.06216175109     -0.07413914055    
4260000000        0.07243099064     0.3355442286      15.36758041       17.53100014       0.008794649504    0.002963559236    0.02914174274     -0.07213333249    
4300000000        0.08030855656     0.3359014988      16.96419334       15.26446819       0.01002527773     0.002378057921    0.08037225157     -0.07101690769    
4340000000        0.1197085381      0.3310337365      18.23297882       13.30701447       0.009473485872    0.001512923976    0.02357556485     -0.05259468034    
4380000000        0.1436758935      0.3225421011      19.48270607       11.24583912       0.0106001161      0.0006437286502   0.05381270126     -0.104017593      
4420000000        0.1731286496      0.2957412601      20.04541779       8.81347847        0.009955151007    -2.168322681e-05  0.04397108406     -0.07893252373    
4460000000        0.1799621135      0.2943859398      20.62099648       6.677667618       0.01066680439     -0.001035742578   0.05888593197     -0.09886004776    
4500000000        0.2276584506      0.2775423527      20.73469925       4.318494797       0.01028305944     -0.001680839458   0.04316718131     -0.0654848367     
4540000000        0.2302455157      0.2475423366      20.81378555       2.512066841       0.0103891762      -0.002745950362   0.02151477709     -0.11316818       
4580000000        0.2611079812      0.2399866581      20.8454895        0.5721946955      0.01057484373     -0.003323972924   0.05751444399     -0.1053130031     
4620000000        0.2695275843      0.2099995315      20.33684921       -1.474225521      0.009798218496    -0.004659372848   0.02533033863     -0.1151659787     
4660000000        0.2984506786      0.2000883967      19.98677254       -3.609714985      0.01032821834     -0.005009973422   0.05445116013     -0.1110011488     
4700000000        0.3048158288      0.1592067629      19.02886581       -5.606226921      0.009094386362    -0.006494281348   -0.0005840947852  -0.121139884      
4740000000        0.3200360239      0.1509665549      18.2604847        -7.324928284      0.009590845555    -0.006674246397   0.05010335892     -0.1400448233     
4780000000        0.3307783902      0.1081707776      17.07956696       -9.043456078      0.008284328505    -0.008026244119   0.008827889338    -0.1173846349     
4820000000        0.3416766822      0.09805136919     15.68897152       -10.53005028      0.008634811267    -0.008450368419   0.02806056105     -0.140366748      
4860000000        0.3517081738      0.05467233434     14.47884369       -12.04844284      0.007173195481    -0.009495226666   -0.01467853412    -0.1225252822     
4900000000        0.3496261835      0.04329106957     12.84375191       -13.28089619      0.00708678551     -0.01008868869    0.002995801624    -0.1629002243     
4940000000        0.364107132       0.001604172401    11.41755199       -14.36821842      0.005923271179    -0.01070346311    -0.00660720747    -0.128046602      
4980000000        0.3528267443      -0.02068998851    9.73840332        -15.10302925      0.005300160497    -0.01159735862    -0.02732928656    -0.1534168124     
5020000000        0.3624537587      -0.05486560613    8.061911583       -15.83591652      0.004388210829    -0.01168249734    -0.02405387163    -0.1403423399     
5060000000        0.3454340696      -0.07578920573    6.422810555       -16.26592827      0.003219504841    -0.01276969817    -0.0487812385     -0.1609118432     
5100000000        0.3559990525      -0.113316603      4.59577322        -16.76096916      0.002662811428    -0.01246606186    -0.02860235982    -0.1454846114     
5140000000        0.3247945011      -0.1387298852     2.708097696       -16.82052803      0.0008997255936   -0.01362041757    -0.08199855685    -0.1427653879     
5180000000        0.3370890617      -0.1638964415     1.18097198        -16.8147316       0.0004279463901   -0.01301768888    -0.06296140701    -0.1612754166     
5220000000        0.3079117239      -0.1981755197     -0.5606511235     -16.78322983      -0.001140654087   -0.01385538187    -0.0835492909     -0.1455978453     
5260000000        0.3027581275      -0.2175159454     -2.205126524      -16.40109444      -0.001726805465   -0.01347720716    -0.07576267421    -0.1516893357     
5300000000        0.2731027007      -0.2479351163     -3.951904774      -15.90465164      -0.003273397684   -0.01356535219    -0.1135046333     -0.1166137084     
5340000000        0.2680087984      -0.2610737085     -5.415131092      -15.16482735      -0.004128247965   -0.0137715321     -0.1336165667     -0.1597240865     
5380000000        0.2330344617      -0.3000915647     -6.98388958       -14.38568783      -0.005595907569   -0.01299722586    -0.1117381603     -0.1217378676     
5420000000        0.2132638842      -0.3009048402     -8.292808533      -13.41222         -0.006705958396   -0.01352539379    -0.1338074803     -0.1172050536     
5460000000        0.1897238195      -0.3334348202     -9.648820877      -12.37986755      -0.007831623778   -0.01204351522    -0.1363805383     -0.06572377682    
5500000000        0.1633118838      -0.3403696716     -10.69044685      -11.0490551       -0.009105185978   -0.01291028969    -0.2012889087     -0.09578549862    
