! RsaToolbox (C) 2015 Rohde & Schwarz America
! 
! Number of points: 20
! Number of ports: 2
! Balanced ports?: No
! 
! 
# Hz S RI R 50
4700000000        0.307013005       0.1857816875      16.98616791       -5.435064793      0.00897868257     -0.006448545028   0.000850297045    -0.1215945557     
4740000000        0.3277965784      0.1728018522      16.13902664       -7.241200924      0.009532559663    -0.006553807762   0.04466266185     -0.1391402483     
4780000000        0.3378023803      0.129754588       15.57415199       -8.616475105      0.008221371099    -0.007998545654   0.00962871965     -0.1175810099     
4860000000        0.3599466681      0.0686775893      13.37543011       -11.50844002      0.007099803537    -0.009418712929   -0.01544172131    -0.1229030341     
4900000000        0.3699542582      0.06115007773     10.85388088       -12.44707966      0.007098928094    -0.01000836957    0.0002023419365   -0.160105601      
4940000000        0.3788704276      0.01492595021     10.20291138       -13.56953526      0.005876322277    -0.01058394928    -0.008836211637   -0.1294383407     
4980000000        0.3691576123      -0.009521757253   8.57971096        -14.32238865      0.005335105117    -0.01149461139    -0.03017613664    -0.15116629       
5020000000        0.3823870122      -0.04357282072    6.998407364       -14.76593113      0.004408008419    -0.01158614364    -0.02681848221    -0.1405079663     
5060000000        0.359829545       -0.0703766346     5.618222237       -15.6218853       0.003316777293    -0.01266572531    -0.05032486469    -0.1586599946     
5100000000        0.3810374737      -0.1090302318     3.523844957       -15.167799        0.002772766398    -0.01243093889    -0.0316971615     -0.1456129551     
5140000000        0.3411514461      -0.1365774721     2.299402475       -16.11594391      0.0009840823477   -0.0135800289     -0.08453141898    -0.1400958449     
5180000000        0.3588188887      -0.1678546071     0.3695977926      -15.50267124      0.0005323978257   -0.01298693381    -0.06471901387    -0.1566233635     
5220000000        0.3249664605      -0.1994677782     -0.9103106856     -15.82924557      -0.00111487403    -0.01381763723    -0.08502667397    -0.1439038217     
5260000000        0.3217323124      -0.2242427021     -2.671877623      -15.17974758      -0.001586301019   -0.01342010312    -0.07870715111    -0.1466758549     
5300000000        0.2912197411      -0.2534993887     -4.004116535      -14.93275833      -0.003159773303   -0.0135510182     -0.1139601022     -0.1147935316     
5340000000        0.2828733921      -0.2706370652     -5.680058002      -14.12704372      -0.003984834999   -0.01378141902    -0.1348419487     -0.1547174901     
5380000000        0.2484838665      -0.309501797      -6.847558022      -13.32753468      -0.005525766872   -0.01294064987    -0.1129603088     -0.1211092249     
5420000000        0.2265666872      -0.3125671446     -8.268527985      -12.4794178       -0.006529169623   -0.01351257041    -0.1355177462     -0.1124803126     
5460000000        0.2005107701      -0.3457856178     -9.440237045      -11.4256897       -0.007746012881   -0.0120540252     -0.137102291      -0.06275457144    
5500000000        0.1732423753      -0.3559123278     -10.43270874      -10.0812788       -0.008970256895   -0.012946086      -0.2013938129     -0.09168863297    
