! RsaToolbox (C) 2015 Rohde & Schwarz America
! 
! Number of points: 100
! Number of ports: 2
! Balanced ports?: No
! 
! 
# Hz S RI R 50
1500000000        -0.4012494683     0.3588291407      -26.78888702      47.95502472       0.001609222731    -0.001834940747   -0.215554148      0.02874498069     
1580000000        -0.2728817761     0.4314874113      -11.22402859      52.12258148       0.001151335891    -0.002145025646   -0.2257671207     0.03453174233     
1620000000        -0.2204639763     0.4465176463      -1.052495718      51.06110764       0.0009151934064   -0.002046413487   -0.221072793      0.07466617972     
1660000000        -0.1488732696     0.4641418159      3.342115879       49.81402588       0.0006860157591   -0.002291032812   -0.2343537807     0.07154908031     
1700000000        -0.09412588924    0.4667927027      10.8272419        46.80394363       0.0005453168997   -0.002176604001   -0.2353544682     0.1012513936      
1740000000        -0.03706591949    0.4676402211      15.70280552       43.92728806       0.000248494558    -0.002287815092   -0.2505290508     0.104849942       
1780000000        0.01617003605     0.4648624957      19.60537148       39.84134293       0.0002293153229   -0.002232432598   -0.2346000671     0.133836031       
1820000000        0.06276341528     0.4575258791      23.48016548       35.22103882       -0.0001254262752  -0.002179605188   -0.2452227324     0.1646014005      
1860000000        0.1127875522      0.4418363273      25.38413239       30.97480774       7.058972187e-06   -0.002175652655   -0.2451499552     0.1823707819      
1900000000        0.1547480673      0.4365896881      27.18360329       26.15781593       -0.0003989649704  -0.002036727266   -0.2388080359     0.2225199044      
1940000000        0.2033519745      0.4188125134      27.74975777       22.79307365       -0.0001711890945  -0.002108504996   -0.2223638296     0.2329330593      
1980000000        0.2439622581      0.3993990719      27.7989254        19.24987793       -0.000577967905   -0.001877266332   -0.1985137314     0.3033440709      
2020000000        0.2916460335      0.3803291619      27.21640778       16.59692383       -0.0003363044234  -0.001940414542   -0.1854871958     0.2990823686      
2060000000        0.3305549622      0.3564533889      27.04551506       14.66043377       -0.0005363216042  -0.001830182038   -0.1675382555     0.355976969       
2100000000        0.3769601285      0.3256673813      26.65034485       12.55989647       -0.000404061866   -0.001944378135   -0.1213891208     0.3472218812      
2140000000        0.4207547605      0.2861754596      26.80291367       11.31513214       -0.0005331924185  -0.001885937992   -0.08421742171    0.4185013175      
2180000000        0.4632081091      0.2529784441      27.05062675       9.823581696       -0.0005383280804  -0.002028713003   -0.02276700363    0.4018515348      
2220000000        0.5007897019      0.1961025745      27.80236816       8.897835732       -0.000470765488   -0.00202693441    -0.003820426762   0.4370850325      
2260000000        0.5319997072      0.1393932253      29.69415665       6.957220554       -0.0007217936218  -0.002306719078   0.07881326973     0.4069325328      
2300000000        0.5630297065      0.07561161369     30.21689034       5.986578941       -0.000557328749   -0.002233969513   0.1073818058      0.4225146472      
2340000000        0.5690708756      0.003651833162    32.48205185       3.482611895       -0.001057166723   -0.002636076417   0.176154241       0.4068227112      
2380000000        0.5828014612      -0.07190263271    33.80642319       0.5827575922      -0.000892285083   -0.00257660239    0.208705321       0.3855291605      
2420000000        0.5647882819      -0.1472328752     35.45675659       -3.345137835      -0.001633418258   -0.002897075843   0.2641218305      0.3486559391      
2460000000        0.556837678       -0.2190632522     35.63756561       -7.500845909      -0.001433214522   -0.002841305686   0.3034266233      0.3002328873      
2500000000        0.5204856992      -0.2940051258     35.90297318       -12.01319218      -0.002283417387   -0.002997510834   0.3221829534      0.2861055732      
2540000000        0.482008636       -0.3516169488     34.69030762       -16.9089489       -0.002255355939   -0.003011728637   0.3487968445      0.2071765661      
2580000000        0.4316272438      -0.4104289412     32.83003616       -20.95041084      -0.003019573633   -0.002969456371   0.3512915373      0.2013925463      
2620000000        0.3764077425      -0.4567312896     30.38557816       -26.72653389      -0.003324643709   -0.002874543192   0.3812076747      0.09273143113     
2660000000        0.3101125658      -0.5041053295     27.28074074       -29.29430199      -0.003535644151   -0.002447624458   0.3496724069      0.1159088686      
2700000000        0.2536536753      -0.5166661143     21.71460915       -33.88715744      -0.00444594631    -0.002579248277   0.3691215515      0.01744282246     
2740000000        0.181114018       -0.5538201332     19.08180618       -36.21031189      -0.004168110434   -0.00168916781    0.3320797384      0.02060545981     
2780000000        0.1211902872      -0.553121388      12.05229378       -38.26966858      -0.005147294141   -0.001981038833   0.3307913542      -0.03959838301    
2820000000        0.05468903854     -0.5643209219     8.635223389       -40.36296463      -0.004922214895   -0.0009003538289  0.3190686405      -0.05526234582    
2860000000        -0.01689580455    -0.5519604683     2.710498571       -41.05364227      -0.005604632664   -0.0009624428349  0.2765887976      -0.0808615163     
2900000000        -0.06878256798    -0.5369266868     -2.594682932      -40.63203049      -0.005567665212   -0.0001990873861  0.2839865088      -0.1143629402     
2940000000        -0.1423349082     -0.5178208351     -7.583849907      -40.19729614      -0.005832565483   0.0003715872008   0.2276181281      -0.1099650934     
2980000000        -0.1816291958     -0.4901868999     -12.42713165      -37.97641373      -0.005882962607   0.0007088968414   0.2264564186      -0.1423260719     
3020000000        -0.2356745601     -0.4563920796     -16.08304787      -36.59173965      -0.005966480821   0.001668269979    0.1871602684      -0.1289498806     
3060000000        -0.2686420679     -0.4232954979     -20.68674278      -33.14426804      -0.006006048527   0.001855174312    0.1711089909      -0.1718815863     
3100000000        -0.317291826      -0.3870555758     -23.65968513      -31.09723663      -0.005627383012   0.002745642094    0.165991798       -0.1328381896     
3140000000        -0.3424867094     -0.3414485753     -27.86173058      -26.61075783      -0.005971312057   0.003017594572    0.1153860018      -0.1605321616     
3180000000        -0.3747092485     -0.3022665977     -29.9738903       -23.24919891      -0.005049569998   0.003900245298    0.1235401183      -0.1455807388     
3220000000        -0.3870192766     -0.2518887818     -32.48522949      -18.64528847      -0.005570028443   0.004092569463    0.07430120558     -0.1553215832     
3260000000        -0.4125110507     -0.2161031365     -33.9442749       -14.65500736      -0.004542300943   0.004805208184    0.1183058098      -0.1536388993     
3300000000        -0.4170867503     -0.1634073555     -34.79210281      -10.66046238      -0.004883852787   0.005338207353    0.04306432605     -0.110998489      
3340000000        -0.4233184457     -0.1294047534     -34.50095749      -6.40586853       -0.003801341867   0.005680385977    0.07445237041     -0.153010115      
3380000000        -0.4300700426     -0.07812941074    -35.02437973      -3.147161961      -0.003897256218   0.006465132348    0.02013199218     -0.1050230414     
3420000000        -0.4260601401     -0.03841289878    -34.61333847      1.153183103       -0.003039764008   0.006170713343    0.06861557811     -0.1526249051     
3460000000        -0.4181984663     0.003470204771    -33.39188385      5.344174385       -0.002781935502   0.007349753287    0.02779453993     -0.06330634654    
3500000000        -0.4180203974     0.03587690741     -32.10219574      9.091645241       -0.002004275331   0.006738504395    0.0189081151      -0.1279223859     
3540000000        -0.4008300006     0.08461003006     -30.67222404      11.77387524       -0.00158304174    0.007951393723    0.01198907383     -0.07431229204    
3580000000        -0.3851232529     0.102549769       -28.5646286       14.93564129       -0.0008886284777  0.007290194277    0.02016864344     -0.1326513588     
3620000000        -0.3740362227     0.14749071        -26.31388474      17.23445892       -0.0001874802692  0.008245117962    0.0406496264      -0.04733432084    
3660000000        -0.3452702463     0.1693698913      -23.62545967      20.32571793       0.0002890641044   0.007516949438    -0.00465376582    -0.08822914958    
3700000000        -0.3344068527     0.2010308653      -20.83929825      22.11271858       0.001109636389    0.008301814087    0.02237007394     -0.05934632942    
3740000000        -0.2980869114     0.2266010493      -18.01628876      23.84359741       0.001587914187    0.007879736833    0.001364280703    -0.09187718481    
3780000000        -0.2862708569     0.2512250543      -15.05875874      25.19756317       0.002574902028    0.008024419658    0.04843790829     -0.05799562484    
3820000000        -0.2499681711     0.2760640383      -12.25587654      26.15751457       0.00290143094     0.007813259959    0.00435132347     -0.04112516716    
3860000000        -0.2338541448     0.2920560241      -8.984042168      26.96694183       0.003877014155    0.007562022191    0.01716679148     -0.06504374743    
3900000000        -0.1948721409     0.3106196523      -6.002612114      27.1233387        0.004364634864    0.007653302979    0.01788330823     -0.05365319178    
3940000000        -0.1778546274     0.3184672296      -2.795762062      27.29928589       0.005151022691    0.006854102015    0.03387888148     -0.07359691709    
3980000000        -0.1373189539     0.3384833038      1.832842827e-05   27.0131588        0.005722911563    0.007094020955    0.03959804028     -0.02265611477    
4020000000        -0.1170363352     0.3351361156      2.930896521       26.28411293       0.006385636982    0.006035009865    0.0003871861845   -0.07032684982    
4060000000        -0.0802398622     0.3514390588      5.280719757       25.38193512       0.006962641608    0.006184378639    0.0514844209      -0.04904972389    
4100000000        -0.05463158339    0.346385479       7.715476513       24.28484154       0.007197550032    0.005215495825    0.0275990963      -0.07283069193    
4140000000        -0.01720406115    0.3601682484      9.907195091       22.98222351       0.008259683847    0.005210937466    0.07534693927     -0.03151593357    
4180000000        0.006087914109    0.3392279446      11.83172607       21.60408211       0.008240784518    0.004148493521    -0.0006477877614  -0.05714082718    
4220000000        0.0272472091      0.3604296446      13.94999981       19.72585678       0.009388785809    0.00372360996     0.0631473884      -0.07449945062    
4260000000        0.07585318387     0.3336059749      15.64792824       17.90984535       0.008814925328    0.002980959835    0.02913290448     -0.07145783305    
4300000000        0.08329299837     0.332023263       17.15977097       15.87582874       0.01006136462     0.002378728474    0.08194231242     -0.07117993385    
4340000000        0.1225395203      0.3284007311      18.50626183       13.72947025       0.009501188062    0.00152666762     0.02207096294     -0.05245854333    
4380000000        0.1457291692      0.3206612468      19.80133629       11.61479855       0.01062841248     0.0006189270644   0.0539017655      -0.1039098874     
4420000000        0.1778607666      0.2937469482      20.45245552       9.023006439       0.009985239245    -9.268223948e-06  0.04361182824     -0.07812793553    
4460000000        0.1808538288      0.2908286154      20.88629341       6.993339539       0.01069998741     -0.00105103536    0.05897976458     -0.09900557995    
4500000000        0.2297704071      0.2728010714      21.11385918       4.42806673        0.01033104304     -0.001666685683   0.04228387028     -0.06435386837    
4540000000        0.2299036831      0.2447310388      21.02185822       2.680462837       0.01041703671     -0.002751525957   0.02154522948     -0.1121410504     
4580000000        0.2609685957      0.2376226932      21.12538338       0.7733604908      0.01058898587     -0.003348797327   0.05698891729     -0.1046131775     
4620000000        0.2703147531      0.2045470774      20.65243721       -1.491266131      0.009821311571    -0.004643161315   0.02514097467     -0.1143114641     
4660000000        0.2979252636      0.1979454905      20.28596115       -3.484857321      0.0103393374      -0.005042414181   0.05520719662     -0.1104823425     
4700000000        0.3039881587      0.1541927308      19.2248745        -5.681437016      0.009101477452    -0.006510180421   0.0001781012397   -0.1201268137     
4740000000        0.3182489574      0.1493166089      18.51869011       -7.237002373      0.009617275558    -0.006725624204   0.05150970444     -0.1393489093     
4780000000        0.3321368098      0.1058734804      17.41081238       -9.066460609      0.008273810148    -0.008053508587   0.009282509796    -0.116929464      
4820000000        0.3409008384      0.09404624254     16.02090645       -10.57592583      0.008629273623    -0.008492042311   0.02964872494     -0.1401201636     
4860000000        0.3522531986      0.04984467477     14.63475609       -12.21980858      0.007165705785    -0.00952234678    -0.01345666219    -0.1228898168     
4900000000        0.3458724618      0.03926766291     13.04964828       -13.35306072      0.007058616262    -0.01011599042    0.003687124234    -0.163167119      
4940000000        0.3619390726      -0.002103418112   11.54362011       -14.49864578      0.005906908773    -0.01068402547    -0.005133711267   -0.1279072613     
4980000000        0.3514165282      -0.02440209314    9.887979507       -15.29709339      0.005291478708    -0.01161102578    -0.02605954371    -0.1546635479     
5020000000        0.3581990004      -0.05591128021    8.25419426        -15.93246269      0.00438163802     -0.01166565996    -0.02305725403    -0.1413626969     
5060000000        0.3441509008      -0.07768581808    6.516113281       -16.44412041      0.003223751206    -0.01274877135    -0.04839232937    -0.1626332253     
5100000000        0.3511289358      -0.1144152805     4.734138966       -16.94058609      0.002671726514    -0.01248881686    -0.02814108878    -0.1465239972     
5140000000        0.3247234523      -0.1394332051     2.818982124       -17.01288605      0.0009193918668   -0.01361310389    -0.08261615038    -0.1440810263     
5180000000        0.3335640132      -0.1652730256     1.26084733        -17.05885887      0.0004522381932   -0.01302552782    -0.0630588904     -0.1612790227     
5220000000        0.3069652319      -0.1979042292     -0.5195887089     -16.95883179      -0.00113756815    -0.01388340443    -0.08365202695    -0.1445789039     
5260000000        0.2991850972      -0.2158822119     -2.132084846      -16.49806023      -0.001788047142   -0.01348307356    -0.07543477416    -0.1520208269     
5300000000        0.2703173757      -0.2467217892     -3.870009422      -16.07354546      -0.003300045617   -0.01357045583    -0.1131267771     -0.1161904782     
5340000000        0.2642407715      -0.2599872947     -5.342862606      -15.29465199      -0.004159173928   -0.01379411574    -0.133080855      -0.1607797444     
5380000000        0.2318747193      -0.2988642156     -6.97894001       -14.63500118      -0.005631505977   -0.01297437213    -0.111450389      -0.1218164414     
5420000000        0.2111604065      -0.2987438738     -8.288589478      -13.49159622      -0.006730231922   -0.01354466565    -0.134485811      -0.1179642305     
5460000000        0.1901261955      -0.3299568594     -9.62762928       -12.58297729      -0.007833951153   -0.01201850642    -0.1362821311     -0.06606525183    
5500000000        0.1613904238      -0.3388392925     -10.74584866      -11.17656708      -0.00911067985    -0.01291110087    -0.2012674809     -0.09686917812    
