! RsaToolbox (C) 2015 Rohde & Schwarz America
! 
! Number of points: 101
! Number of ports: 2
! Balanced ports?: No
! 
! 
# Hz S RI R 50
1500000000        -0.3821047843     0.3646142483      -28.05540085      54.24801254       0.001615157118    -0.001845492399   -0.2155501544     0.02652541921     
1540000000        -0.3234748542     0.3939089477      -17.83798027      55.22979355       0.001219710219    -0.001854851609   -0.2297367603     0.05683590844     
1580000000        -0.2541693747     0.429014504       -10.68389225      56.52897263       0.00112481229     -0.002148408676   -0.2261080891     0.03383610025     
1620000000        -0.202026546      0.4429357052      -1.718224525      55.70819473       0.0009139558533   -0.002037373837   -0.2213346809     0.07434357703     
1660000000        -0.136040017      0.4557214081      4.971151829       52.8459053        0.0007171284524   -0.002290538047   -0.2357186079     0.07111780345     
1700000000        -0.07793360949    0.4563210011      11.84043884       49.42486572       0.0005693383282   -0.002170052612   -0.2351930588     0.1011870652      
1740000000        -0.02657917887    0.4564038217      17.0052948        45.29524994       0.000249262841    -0.002250749152   -0.2514526248     0.1055761129      
1780000000        0.02493936941     0.452744633       21.20353699       40.85315323       0.0002287247626   -0.002201897325   -0.2354969978     0.1338591129      
1820000000        0.0672031045      0.4429835975      24.45077515       36.00246429       -0.000128005413   -0.002137910575   -0.245952189      0.1655721068      
1860000000        0.1160179302      0.4336573482      26.68990898       31.49173164       1.712304766e-05   -0.00216534012    -0.245511204      0.1832146198      
1900000000        0.1585224867      0.4197984934      28.21253777       26.49263954       -0.0004379916063  -0.002012394834   -0.2390456349     0.2227893025      
1940000000        0.2030132413      0.4053154886      28.6147728        22.67128181       -0.0001828174572  -0.002095902339   -0.2228771746     0.2338788509      
1980000000        0.2425815016      0.3897202313      28.5388031        19.25236702       -0.0005746522802  -0.001897095586   -0.1991300881     0.3033536375      
2020000000        0.2861559987      0.3679032326      27.76613617       16.35100937       -0.0003527685767  -0.001939790673   -0.1857831776     0.2991937101      
2060000000        0.3273781538      0.345726341       27.60541534       14.43254948       -0.0005280455807  -0.001837783493   -0.1672573239     0.3564825356      
2100000000        0.3730629385      0.3195352256      27.14409447       12.35312271       -0.0003839618294  -0.001945739379   -0.1219959855     0.3465971053      
2140000000        0.4121444821      0.2808756232      27.08702469       11.2560482        -0.0005414211773  -0.00187263242    -0.08401118219    0.4185027778      
2180000000        0.4583597779      0.2458598316      27.70106125       9.592864037       -0.000540285022   -0.002015485661   -0.02313534543    0.4025444686      
2220000000        0.4988843501      0.1902977228      28.47900391       8.687962532       -0.000477505906   -0.002040578751   -0.004029788077   0.436413765       
2260000000        0.5259261727      0.1383256316      30.18726921       6.975273132       -0.000708974374   -0.002302938141   0.07843902707     0.4064859748      
2300000000        0.5579184294      0.07449727505     30.79785347       5.818410397       -0.0005956737441  -0.002227206714   0.1076495722      0.4229462743      
2340000000        0.5664335489      -0.001414444298   32.94711304       3.285103083       -0.001051431405   -0.002646489069   0.1761306673      0.4062381983      
2380000000        0.5765946507      -0.07346123457    34.17255783       0.3224211931      -0.0008792582667  -0.002591896569   0.2088904977      0.3858375549      
2420000000        0.5648667216      -0.1482189894     36.00548553       -3.234702349      -0.001626244164   -0.002906951355   0.2629766464      0.3483524919      
2460000000        0.5495383739      -0.2188144475     35.79928589       -7.720797539      -0.001405852614   -0.002838265849   0.3032518029      0.3008388579      
2500000000        0.5193502307      -0.2897616625     36.55453873       -11.60033512      -0.002271436853   -0.003006379353   0.3223356009      0.2867277265      
2540000000        0.4812668264      -0.3524994254     35.29965973       -17.01317596      -0.002243076451   -0.003038411029   0.3491337299      0.2068695128      
2580000000        0.430359304       -0.4149772823     33.92243195       -21.11317635      -0.003044602927   -0.00292934035    0.3513680398      0.2019192874      
2620000000        0.3788351715      -0.4520532787     31.15967751       -26.46636772      -0.003310574917   -0.002853773069   0.3819103837      0.09046833962     
2660000000        0.3130173683      -0.5086615682     28.2568264        -29.75514793      -0.003575113136   -0.002412960865   0.349068284       0.1161636412      
2700000000        0.2456219643      -0.5249190927     23.72890472       -34.75646591      -0.004405624233   -0.002556270454   0.3691843152      0.01758207753     
2740000000        0.1851098984      -0.5600652099     19.73478508       -36.91188049      -0.004232184961   -0.001697003841   0.3326493502      0.02268590033     
2780000000        0.1128145903      -0.5598945618     14.45830727       -39.61789322      -0.005173279904   -0.002028048737   0.3338649869      -0.04022799432    
2820000000        0.05587563664     -0.570002079      9.306308746       -41.23033524      -0.004893810954   -0.0009181246278  0.3191353083      -0.05424343795    
2860000000        -0.02337562293    -0.5565551519     3.714033604       -42.28183365      -0.005595620722   -0.0009775215294  0.2756129205      -0.08143571764    
2900000000        -0.07260426879    -0.5385378003     -2.21494627       -41.61090851      -0.00559259532    -0.0001849201799  0.2845725119      -0.116535075      
2940000000        -0.142580837      -0.5186802149     -6.969317436      -41.00954437      -0.005865635816   0.000393103488    0.2263688892      -0.1098450571     
2980000000        -0.1847928464     -0.493521899      -11.9056673       -39.37327576      -0.005836657248   0.0007333172252   0.2264680266      -0.1429459453     
3020000000        -0.2381059229     -0.4601281881     -16.00451851      -37.58961487      -0.005932138301   0.001572419656    0.1868025959      -0.1283677816     
3060000000        -0.2727343738     -0.4224589169     -20.64539909      -34.30837631      -0.006005762611   0.001866517938    0.172198385       -0.169772625      
3100000000        -0.3207425177     -0.3856209815     -23.80319977      -31.65855217      -0.00561103411    0.002773759421    0.1659985483      -0.1315661818     
3140000000        -0.3428542316     -0.3404247165     -27.82632065      -27.80639839      -0.005954392254   0.003015243914    0.114904955       -0.1621899605     
3180000000        -0.375020802      -0.3043858409     -30.26238251      -23.90366554      -0.005023800768   0.00391590083     0.1241259053      -0.1453048736     
3220000000        -0.3899536729     -0.247812897      -32.76944351      -19.27010918      -0.005585827865   0.004099518526    0.07355754822     -0.15546529       
3260000000        -0.4154218137     -0.213180989      -34.3889389       -14.95657921      -0.00454088347    0.004808202386    0.1188774928      -0.1541487426     
3300000000        -0.4165438116     -0.1591690779     -35.03797531      -10.88627243      -0.00486866571    0.005305622239    0.04377609119     -0.110564895      
3340000000        -0.4235092998     -0.1305195689     -35.13434219      -7.122282982      -0.003827885026   0.005637293682    0.07502298802     -0.1518492848     
3380000000        -0.4293467999     -0.07339169085    -35.35558319      -3.182080269      -0.003875758732   0.006441202946    0.02009940147     -0.105483532      
3420000000        -0.4290805757     -0.03454812616    -35.15777588      1.141286492       -0.003026164137   0.006155878771    0.06830528378     -0.1527715325     
3460000000        -0.4173106253     0.008074958809    -33.81641388      5.36014986        -0.002784901531   0.007368435618    0.02779237926     -0.06292129308    
3500000000        -0.4182859659     0.03656641021     -32.48111725      9.025978088       -0.002010158496   0.006750395987    0.01997737586     -0.1280494332     
3540000000        -0.4020516872     0.08741298318     -31.00331497      11.74599743       -0.00158243312    0.007974217646    0.0119668413      -0.07383957505    
3580000000        -0.3859924674     0.1046769544      -29.15425301      14.86439419       -0.0008894296479  0.007283990737    0.02128744684     -0.1330092996     
3620000000        -0.371530354      0.1524754316      -26.44729614      17.59690857       -0.0002128391934  0.008293659426    0.04093978927     -0.0476789698     
3660000000        -0.3459011912     0.169280678       -24.21840477      20.23737526       0.0002878223604   0.007526381873    -0.005156663712   -0.08898434788    
3700000000        -0.334721148      0.2053727806      -21.15161705      22.49820328       0.00109073706     0.008329536766    0.02220829017     -0.0599507913     
3740000000        -0.2969118953     0.2301879674      -18.22626305      24.08220863       0.001587216859    0.007890474983    0.001663085772    -0.09277466685    
3780000000        -0.2839969695     0.2538994253      -15.18562794      25.43442917       0.002590561751    0.008031382225    0.04859314859     -0.0583338812     
3820000000        -0.2479483783     0.2761873603      -12.32396126      26.32997131       0.002919660648    0.007820474915    0.004423493519    -0.04101243615    
3860000000        -0.2314289808     0.2928751707      -9.060112953      27.16096115       0.003887940897    0.007578680292    0.01683364995     -0.06501884758    
3900000000        -0.1926321238     0.312758714       -6.033347607      27.38259506       0.004339818377    0.007667826023    0.01741222851     -0.0532220602     
3940000000        -0.1754452884     0.3190033436      -2.8602314        27.5588131        0.005118627567    0.006877378095    0.03378286958     -0.07384309173    
3980000000        -0.1352253258     0.3396596313      0.06471844018     27.17448044       0.005706476048    0.007106387522    0.03948101401     -0.0221794825     
4020000000        -0.1144929826     0.3346856236      2.83853054        26.42441177       0.006364743691    0.006035126746    0.0005374141037   -0.07142584026    
4060000000        -0.07902878523    0.3512467742      5.230582237       25.4823761        0.006990497932    0.006184483413    0.05207604542     -0.04871165007    
4100000000        -0.05196972191    0.3461685777      7.831912041       24.43102074       0.007187444251    0.005254026502    0.02700226754     -0.07228788733    
4140000000        -0.0146011021     0.3607262373      10.00991821       23.15218353       0.008283337578    0.005223612301    0.07566740364     -0.03112013824    
4180000000        0.007312234025    0.3389458656      11.929245         21.7539444        0.00823577214     0.004145527259    -2.011668403e-05  -0.05716764182    
4220000000        0.02832521312     0.3594488502      14.04000187       19.92432594       0.009399054572    0.003729837481    0.06292704493     -0.07504120469    
4260000000        0.07706300914     0.3334537745      15.665061         17.93222046       0.008845067583    0.002998989774    0.02862546593     -0.07115120441    
4300000000        0.08527602255     0.3307975531      17.34048271       15.88005829       0.01008156128     0.002370507456    0.08120263368     -0.07177780569    
4340000000        0.1264279634      0.3283957541      18.71444511       13.81208801       0.009506917559    0.001515339944    0.02227109484     -0.05185030773    
4380000000        0.1465668678      0.3193790615      19.83797646       11.64778328       0.01061646082     0.0006429835921   0.05385503545     -0.1037195921     
4420000000        0.1784298569      0.2937440574      20.58906174       9.153874397       0.00998379197     -6.430767826e-06  0.0426222682      -0.0777861774     
4460000000        0.1827830225      0.2891234756      20.96400833       6.972132206       0.01069330983     -0.001054020133   0.05890586227     -0.09918313473    
4500000000        0.2309064418      0.2725304067      21.31222153       4.538507462       0.01029685885     -0.001672660583   0.04299696907     -0.06343165785    
4540000000        0.2315657884      0.2432718575      21.14552307       2.633239746       0.01043182146     -0.00276911119    0.02158021182     -0.112761572      
4580000000        0.2633773386      0.2371561378      21.31253624       0.7556482553      0.01058653276     -0.003359518014   0.05761333555     -0.1052222177     
4620000000        0.2691994905      0.206032902       20.75464058       -1.330355287      0.009847202338    -0.004642562475   0.02532237023     -0.1148651391     
4660000000        0.300098151       0.1994563192      20.4753952        -3.498076916      0.01036156714     -0.005039265379   0.05598906055     -0.1109240428     
4700000000        0.3054395914      0.1558439434      19.41719246       -5.609219074      0.009082528763    -0.006513237488   -0.0009540712927  -0.1202545166     
4740000000        0.317595154       0.1474479735      18.5181427        -7.237383842      0.009605689906    -0.006709186826   0.05126600713     -0.1392823309     
4780000000        0.3312820792      0.1069245338      17.49356651       -9.114693642      0.008296006359    -0.008061427623   0.009616147727    -0.1167840436     
4820000000        0.3404284418      0.09245933592     16.07013702       -10.63930893      0.008617222309    -0.008481115103   0.0296581015      -0.14059937       
4860000000        0.352664113       0.04727372155     14.67389774       -12.27418804      0.007148440927    -0.009522609413   -0.01390498318    -0.1230705455     
4900000000        0.3462804258      0.03885601088     13.14955616       -13.40422916      0.00709142955     -0.01012367476    0.004330078606    -0.163957566      
4940000000        0.3615687788      -0.002773897722   11.60538292       -14.53871059      0.005907786079    -0.01069532055    -0.005257996731   -0.1273693442     
4980000000        0.3529285491      -0.02527337521    9.954086304       -15.39580822      0.005285834428    -0.01162929181    -0.02612874284    -0.1541665792     
5020000000        0.3578340709      -0.05575345457    8.368605614       -15.98777008      0.004391219467    -0.01168375183    -0.02266444825    -0.142152369      
5060000000        0.3458999097      -0.07834166288    6.702347755       -16.51470566      0.003199248575    -0.01276827697    -0.04891201481    -0.163028568      
5100000000        0.350350678       -0.1123544574     4.938896656       -16.92136574      0.002653750358    -0.01248879265    -0.02766652592    -0.1464332491     
5140000000        0.3227216005      -0.1388812363     2.85182023        -16.98377037      0.0008949378971   -0.01362688746    -0.08202756941    -0.1442908794     
5180000000        0.3326356709      -0.1639666855     1.384717584       -17.1066761       0.0004158855299   -0.01301128324    -0.06254738569    -0.1619562805     
5220000000        0.30287534        -0.1961970478     -0.4429356754     -16.89288139      -0.00113502203    -0.01385967527    -0.08348416537    -0.1465599239     
5260000000        0.2976159453      -0.2170339227     -2.123444557      -16.54975891      -0.001742068445   -0.01349309832    -0.07627200335    -0.1522276551     
5300000000        0.2691180706      -0.2473733276     -3.970623016      -16.11143303      -0.00329997763    -0.01357676834    -0.1133993641     -0.1166806072     
5340000000        0.2646793425      -0.2582833767     -5.287042141      -15.33040619      -0.004135818686   -0.01373263169    -0.1329132468     -0.1607458889     
5380000000        0.2298360169      -0.2966992855     -6.942653179      -14.63629913      -0.00565899862    -0.01297284663    -0.1111715585     -0.1220655143     
5420000000        0.2104155868      -0.2962007225     -8.207355499      -13.5354929       -0.006717189215   -0.01350787375    -0.1353408843     -0.1175925285     
5460000000        0.1886845082      -0.329430759      -9.636109352      -12.65322685      -0.00782440789    -0.01203880273    -0.1365659386     -0.06609981507    
5500000000        0.1617341787      -0.3359693587     -10.70689583      -11.26251316      -0.009106611833   -0.01288708951    -0.2012795955     -0.09736347944    
