! RsaToolbox (C) 2015 Rohde & Schwarz America
! 
! Number of points: 51
! Number of ports: 2
! Balanced ports?: No
! 
! 
# Hz S RI R 50
500000000         -0.1531542838     0.06729801744     -4.935590761      3.432831          0.06274248308     -0.03665586102    0.07837233428     0.09541882784     
610000000         0.1532769799      -0.01760307699    -4.512705251      4.084652605       0.05815408154     -0.04456206852    0.03766561667     0.1725644712      
720000000         -0.1647600979     -0.01160421316    -3.945418827      4.615913107       0.04802212764     -0.05324053394    0.1349556531      0.008810208994    
830000000         0.1330885142      0.06271012872     -3.337079238      5.100580357       0.04440154318     -0.05455293056    0.1644515099      -0.08675217212    
940000000         -0.1248179004     -0.1036095396     -2.700830952      5.46376483        0.03737720193     -0.06027393014    0.03660743285     -0.06680937733    
1050000000        0.07480670512     0.1245836169      -1.980975515      5.835126526       0.02881138976     -0.06397173135    -0.07892286987    -0.2339971847     
1160000000        -0.04589600489    -0.1526759863     -1.239939598      5.988416429       0.02052197574     -0.06641070883    -0.00220309348    0.05601017381     
1270000000        -0.0143402433     0.1370529085      -0.4588082404     6.094037012       0.01434208252     -0.06732681666    -0.2594751353     -0.08637529755    
1380000000        0.03915223107     -0.1425617933     0.3180151257      6.07039817        0.006235406951    -0.06766289659    0.1228989991      0.06689745541     
1490000000        -0.09068141878    0.09753340483     1.030389996       5.97664013        -0.003757573441   -0.06745591202    -0.2384915991     0.1649671665      
1600000000        0.08516119421     -0.09112609923    1.820491954       5.825932175       -0.01185824334    -0.06384301291    0.1588129466      -0.1302293791     
1710000000        -0.1215549558     0.0326609984      2.474336074       5.534292216       -0.01694631966    -0.06329027789    -0.09096683382    0.2837349891      
1820000000        0.09306566417     -0.02767426893    3.155402176       5.163735445       -0.02888654449    -0.05794005018    0.001035430143    -0.1125703569     
1930000000        -0.1132001057     -0.02383173443    3.70039575        4.720059425       -0.03075990025    -0.05634041248    0.2411048223      0.2776824967      
2040000000        0.06248028576     0.022163596       4.282072762       4.175423618       -0.03918882977    -0.04945527305    0.008751375076    -0.1499936875     
2150000000        -0.09048224986    -0.04194157571    4.790183109       3.484821428       -0.04947369805    -0.03891910453    0.3816565247      -0.08789921261    
2260000000        0.03354760632     0.04227558151     5.174598244       2.958227634       -0.04791518923    -0.03892147206    -0.06115383389    -0.2167312054     
2370000000        -0.06401117891    -0.04778420925    5.50358218        2.076042118       -0.05796196304    -0.02350547622    0.03443552551     -0.4258111398     
2480000000        0.007149945945    0.03529266268     5.744115923       1.475151426       -0.05079005089    -0.03187136505    -0.304046302      -0.140942544      
2590000000        -0.06139167026    -0.04163494706    5.741269501       0.6907709415      -0.06100826676    -0.0007894571015  -0.4219203852     -0.03339035999    
2700000000        0.00486083189     0.03542202711     5.948103102       -0.1012920384     -0.05390449358    -0.02352042312    -0.2991847135     0.228094396       
2810000000        -0.05588293821    -0.05422299355    5.706799265       -1.008803261      -0.05800656983    0.00877432742     -0.04678507312    0.5187965664      
2920000000        0.009931600653    0.05411854759     5.730786543       -1.601743629      -0.05647634833    0.0003145100545   0.03982282935     0.3414228213      
3030000000        -0.01762104034    -0.1006692499     5.470206539       -2.263640566      -0.05780368175    0.01256585966     0.7614269134      0.3158976711      
3140000000        -0.03790278733    0.06761520356     5.153630157       -2.905461896      -0.05668236417    0.01295086424     0.2250776028      -0.1074492335     
3250000000        0.01757384092     -0.1063582301     4.813782308       -3.59392653       -0.04660197884    0.02944764648     0.7612859659      -0.7090139637     
3360000000        -0.09410054982    0.05051121861     4.513811016       -4.006939588      -0.05181066879    0.0196317942      -0.3858654601     -0.3112521916     
3470000000        0.09033899009     -0.07698427886    3.585160507       -4.722414957      -0.04348699476    0.0343635566      -0.3770853549     -0.9450588592     
3580000000        -0.1449430436     0.002245591022    3.174747324       -5.038387317      -0.04338480767    0.03157397313     -0.7112014329     0.525812678       
3690000000        0.1075632796      -0.001570409862   2.416173627       -5.498184216      -0.03661035318    0.04201764994     -0.7622876169     -0.07298818987    
3800000000        -0.1572761387     -0.04693358392    1.795564049       -5.61959927       -0.03026357373    0.04177521902     0.2004888038      1.117179522       
3910000000        0.0662805289      0.07974490523     1.122937633       -5.896847875      -0.02803854638    0.04621366381     -0.1514685228     0.3587721484      
4020000000        -0.1253883988     -0.109206453      0.1155535215      -5.958079737      -0.02063251873    0.04769105444     1.084681444       0.3758987048      
4130000000        -0.01242010668    0.1168694198      -0.5667169116     -6.115937157      -0.02367545304    0.04772167226     0.2191950436      -0.07572637622    
4240000000        -0.0785927102     -0.1364278495     -1.830738286      -5.783641471      0.004090611915    0.05289438274     0.428712204       -0.9918394385     
4350000000        -0.1154354662     0.0921818316      -2.086557032      -5.887248211      -0.008278517169   0.05288219422     -0.381099151      -0.03537994529    
4460000000        0.01682976447     -0.1119912937     -2.995259715      -5.433665425      0.0168589989      0.05004231835     -0.4650671383     -0.3055281766     
4570000000        -0.160778001      0.0079381736      -3.573017692      -5.077366576      0.001907583149    0.05366044832     -0.247813827      0.498779905       
4680000000        0.04515476897     -0.02451819554    -4.315789445      -4.527438755      0.03693884961     0.04066773203     0.2061140414      0.397593261       
4790000000        -0.1282079667     -0.06238995865    -4.777992558      -3.897728511      0.01697050804     0.05256577827     0.5512606128      0.2774235568      
4900000000        0.01112083625     0.06361107528     -5.405765666      -3.076011705      0.04487664029     0.0316020638      0.7853293472      -0.5926646907     
5010000000        -0.07271134853    -0.07136464864    -5.577971219      -2.208774514      0.0344891252      0.04046957351     0.1983942739      -0.6499346073     
5120000000        -0.07427564263    0.07753352076     -6.052478595      -1.242936881      0.05052752951     0.01936152727     -0.8615025041     -1.217305208      
5230000000        0.001720478525    -0.04856162891    -6.055493781      -0.3954094544     0.04717847856     0.02714803123     -1.046882739      -0.0770673213     
5340000000        -0.1315916032     0.02407329157     -5.65833325       0.7389867724      0.05489387677     0.003627348106    -1.679039474      0.7413088856      
5450000000        0.03750092164     0.01418761723     -5.758879473      1.564108587       0.05416783007     0.007562929422    -0.1268075589     1.71163256        
5560000000        -0.13473171       -0.08016984165    -5.069839326      2.354031029       0.05326567373     -0.009637772403   0.6921866459      1.898011072       
5670000000        0.02836675011     0.08784181625     -4.521079561      3.042624371       0.05278247759     -0.01117973768    2.295553873       0.7238785611      
5780000000        -0.04872659966    -0.1564589292     -3.992744856      3.668779079       0.04733650774     -0.0205978645     2.267375272       -0.5786340199     
5890000000        -0.037643563      0.131857127       -2.814564667      3.827521972       0.04222280671     -0.03107591148    1.338447167       -3.111038383      
6000000000        0.07884125412     -0.1517169923     -1.875786455      4.446157976       0.03612526858     -0.03226259851    -1.037245229      -2.683317739      
