! RsaToolbox (C) 2015 Rohde & Schwarz America
! 
! Number of points: 51
! Number of ports: 2
! Balanced ports?: No
! 
! 
# Hz S RI R 50
500000000         -0.1523512602     0.06545587629     -4.929115915      3.424374905       0.06477125254     -0.03675001908    0.08089638981     0.1050226212      
610000000         0.1503078341      -0.01627534442    -4.483449497      4.037063556       0.05904605576     -0.04275058777    0.03836800775     0.1761875803      
720000000         -0.1618227512     -0.01347588468    -3.928055673      4.57643677        0.04700767692     -0.05319564995    0.1317714122      0.02265540842     
830000000         0.1302110851      0.06145264581     -3.310511172      5.102950865       0.04398717599     -0.05527347252    0.1611266294      -0.09178622319    
940000000         -0.1259134412     -0.1024721488     -2.625102297      5.523665132       0.03636715398     -0.06084476791    0.03978995032     -0.07260892841    
1050000000        0.0726891309      0.1230548248      -1.938027139      5.740889928       0.02910013716     -0.06373557005    -0.08297343995    -0.2433600081     
1160000000        -0.0457649827     -0.1497889459     -1.166942512      5.833024416       0.02018025093     -0.06581656243    0.007313527546    0.05110418939     
1270000000        -0.01388167683    0.1334999055      -0.4303207677     5.887529134       0.01355292687     -0.0674751399     -0.2663739804     -0.08245242126    
1380000000        0.03679969907     -0.1394869387     0.3950510369      5.817637094       0.006726563649    -0.06780693218    0.1339140695      0.07076147392     
1490000000        -0.088058047      0.09389347583     0.9995507937      5.738749183       -0.003533391721   -0.06692209502    -0.2389085013     0.1685210162      
1600000000        0.08034935594     -0.08879762143    1.773372306       5.438114895       -0.01219931032    -0.0642857994     0.157860675       -0.1229633998     
1710000000        -0.1175035909     0.03156333417     2.437362754       5.347406199       -0.01643611731    -0.06308454361    -0.0977860941     0.2947247095      
1820000000        0.08823028207     -0.02820197493    3.121869869       4.938049926       -0.02915688876    -0.05748833453    -0.0007182750458  -0.1207098326     
1930000000        -0.1099154949     -0.02220464498    3.682980833       4.615861336       -0.03261611685    -0.05607588382    0.2452849474      0.2870639566      
2040000000        0.0595706515      0.01825915463     4.334010141       4.108514253       -0.03967703099    -0.04948954789    0.006730229838    -0.1518333155     
2150000000        -0.08707796037    -0.03728270903    4.812592272       3.389138156       -0.04871337686    -0.03912805649    0.3794747778      -0.08141325505    
2260000000        0.03156046569     0.03517209738     5.21072066        2.834103957       -0.04828682637    -0.03891594583    -0.05718814999    -0.2099179078     
2370000000        -0.06300915033    -0.0411336869     5.45790065        1.974969876       -0.05726255108    -0.02397324713    0.05510006611     -0.4212937455     
2480000000        0.01033600047     0.02791476995     5.676784539       1.389432989       -0.05099252098    -0.03292860227    -0.3160245265     -0.1494801186     
2590000000        -0.06221574172    -0.03187843412    5.620856567       0.5696870299      -0.05958760399    -0.0009708736171  -0.4040595917     -0.04982963327    
2700000000        0.01152470801     0.03220053762     5.809952981       -0.2112527883     -0.05484364433    -0.02253247531    -0.2974960692     0.2394724144      
2810000000        -0.06077836081    -0.04785040021    5.570497603       -1.018411237      -0.05856909533    0.006748760284    -0.0462699549     0.5203764458      
2920000000        0.01838713512     0.05301994085     5.593377058       -1.69678454       -0.05782400896    -0.0001453653189  0.05510467967     0.361556365       
3030000000        -0.02603234909    -0.1024450287     5.349648792       -2.277055287      -0.0560276981     0.0121541678      0.7569359564      0.3170687139      
3140000000        -0.02791793831    0.07263429463     5.034802721       -2.909133169      -0.05567535036    0.01189082899     0.2111851705      -0.1062477961     
3250000000        0.006261631381    -0.1101890504     4.572644297       -3.626160371      -0.04714148526    0.02994116959     0.756195181       -0.7275013514     
3360000000        -0.08670948446    0.06294506788     4.278098777       -4.06715856       -0.0512732243     0.01881112322     -0.3626632785     -0.3080784578     
3470000000        0.08702711761     -0.09072475135    3.414001137       -4.708284518      -0.04290709669    0.03402708122     -0.3702704878     -0.9437373739     
3580000000        -0.1432694346     0.01684847102     2.997787984       -5.021242986      -0.04344751356    0.03136113933     -0.6935645465     0.518097936       
3690000000        0.1100193784      -0.0173316747     2.192172519       -5.450581258      -0.03629404769    0.04119461539     -0.7686591343     -0.07574633871    
3800000000        -0.1631063968     -0.03449619934    1.595083461       -5.543955436      -0.02966816063    0.04133013811     0.2089118405      1.110553322       
3910000000        0.080722332       0.06829773635     0.8604911216      -5.695425211      -0.02812108       0.04609844678     -0.1503600654     0.3687336044      
4020000000        -0.1385711581     -0.09913106263    -0.0855793985     -5.76932723       -0.02091590569    0.04692543637     1.091273729       0.3507127388      
4130000000        0.009575651959    0.1161056012      -0.7885693499     -5.835862013      -0.02450401224    0.0479871974      0.2254800465      -0.05729248185    
4240000000        -0.1002794951     -0.1311586052     -2.025038419      -5.484861664      0.002884550854    0.05273891433     0.4122101837      -0.992232311      
4350000000        -0.09002116323    0.1074290499      -2.260742537      -5.300338803      -0.009008801228   0.05262810454     -0.3671422        -0.03522143865    
4460000000        -0.009531847201   -0.1212076843     -3.170149736      -5.033611727      0.01557314039     0.04990031099     -0.4688981853     -0.2985517899     
4570000000        -0.1467041522     0.03788172081     -3.74152526       -4.629682643      0.001251906135    0.053441081       -0.237474771      0.4808289789      
4680000000        0.02402992174     -0.05125119537    -4.401807218      -4.021054132      0.03683524677     0.04051466907     0.2009398698      0.4123727877      
4790000000        -0.1355983764     -0.02603263222    -4.788426356      -3.329992338      0.01644076893     0.05200493454     0.559192624       0.2747107231      
4900000000        0.01302613504     0.02705066651     -5.326512643      -2.553092986      0.04421774637     0.03208877045     0.7649282992      -0.5874903259     
5010000000        -0.0919085592     -0.03826579824    -5.329251208      -1.720830144      0.03558793286     0.04200599507     0.1873593437      -0.6807815572     
5120000000        -0.04835343361    0.04681261256     -5.649157487      -0.7658119111     0.05050051717     0.01943861497     -0.8363324997     -1.197924196      
5230000000        -0.03755722195    -0.02755434997    -5.586749772      0.06657945134     0.04773542757     0.02729838198     -1.070236501      -0.0945121013     
5340000000        -0.09219166636    0.01030935068     -5.187029737      1.044550955       0.05480654809     0.00295659311     -1.649299714      0.7495707039      
5450000000        -0.009810901247   0.01545922179     -5.089566594      1.792737646       0.05491866219     0.008614869647    -0.1523557712     1.712978682       
5560000000        -0.09008870274    -0.06395547092    -4.447662038      2.464179421       0.05223610571     -0.008960030053   0.713113904       1.866438694       
5670000000        -0.01064941473    0.06730314344     -3.882234824      3.066314706       0.05319771863     -0.01055425003    2.280977157       0.7349950522      
5780000000        -0.02043743804    -0.1193122417     -3.35242015       3.568672238       0.04764562263     -0.02072997742    2.276736365       -0.6131980921     
5890000000        -0.062234018      0.1011615023      -2.334449628      3.675541964       0.04296614764     -0.0312805146     1.342979835       -3.077586329      
6000000000        0.08315883577     -0.1064174101     -1.436183266      4.122199387       0.03625457668     -0.03210013349    -1.019200954      -2.683394111      
