! RsaToolbox (C) 2015 Rohde & Schwarz America
! 
! Number of points: 32
! Number of ports: 2
! Balanced ports?: No
! 
! 
# Hz S RI R 50
500000000         -0.1506206989     0.06605499983     -4.889762215      3.433565592       0.06432148481     -0.0373985959     0.08110463864     0.1056901495      
610000000         0.1493834555      -0.01645552181    -4.477164753      4.065030609       0.05923040099     -0.04352731815    0.03786687387     0.1732551826      
720000000         -0.1607813388     -0.01319037937    -3.918134997      4.572090763       0.04752704775     -0.05361426477    0.1336738209      0.02611571838     
830000000         0.1289373189      0.06095064804     -3.2204036        4.912766577       0.04439206188     -0.0547869267     0.1618333483      -0.0910563742     
940000000         -0.1242559403     -0.1013890207     -2.527955185      5.191287994       0.03667594446     -0.06049145571    0.03869248892     -0.07129906588    
1050000000        0.07212547958     0.1219362319      -1.903953163      5.266780319       0.0284823124      -0.06390862094    -0.08189630432    -0.2439710016     
1270000000        -0.01376385707    0.1321027726      -0.6775261488     4.802046232       0.01396414181     -0.06671567454    -0.2659613009     -0.08059925798    
1380000000        0.03599707037     -0.1381107867     0.1044761053      4.726614456       0.006015103614    -0.06776032215    0.1330579938      0.06768794568     
2040000000        0.05755881593     0.01602800377     4.106974966       3.923610376       -0.0392940817     -0.05028704461    0.006736470221    -0.1515268515     
2150000000        -0.08523861319    -0.03484335542    4.542128578       3.134423375       -0.04942660385    -0.03916330037    0.3787183881      -0.0788484508     
2260000000        0.03124875762     0.03168867528     4.896336856       2.605671645       -0.04777448889    -0.03904512153    -0.05742013103    -0.2079476149     
2370000000        -0.06254406273    -0.03733934835    5.436684981       1.921724066       -0.05734914293    -0.02429176452    0.05172309218     -0.4234563681     
2480000000        0.01244611014     0.02429540828     5.690351505       1.344656596       -0.05132965715    -0.03279066949    -0.3133628904     -0.1504501564     
2590000000        -0.06326039135    -0.02769070119    5.572170135       0.5422781875      -0.06071197218    -0.001222407286   -0.4066382835     -0.04757614505    
2700000000        0.01553167403     0.02970941365     5.748120427       -0.2429033861     -0.05485895903    -0.02199776656    -0.296642826      0.24131299        
2810000000        -0.06513343751    -0.04412420839    5.530976816       -1.053953578      -0.05876971914    0.00680440053     -0.04594625666    0.5181614895      
2920000000        0.025103705       0.0521007888      5.558541786       -1.755366857      -0.0574223826     8.058836847e-05   0.05215551803     0.3563161909      
3030000000        -0.03234800696    -0.1040123329     5.320991809       -2.308465359      -0.05642728611    0.0117604523      0.7558382885      0.3163206994      
3140000000        -0.02150091343    0.07640621811     4.977054861       -2.955808422      -0.05586315896    0.01288043016     0.2146354499      -0.1065191046     
3250000000        -0.001250221394   -0.1151358262     4.480844516       -3.668536784      -0.04801300375    0.02956831012     0.7554357634      -0.7279146309     
3360000000        -0.08148477226    0.07285508513     4.135005468       -4.06962397       -0.05073982694    0.01869023356     -0.3607857115     -0.3063453072     
3470000000        0.08336360753     -0.1017773524     3.259570686       -4.667968456      -0.04293967407    0.03429230478     -0.3688967719     -0.9479212744     
3580000000        -0.1423558891     0.02810829133     2.597236316       -4.540826596      -0.04339161393    0.03101016717     -0.6920209417     0.5184518053      
3690000000        0.1138287038      -0.0311024785     2.005869095       -5.213675631      -0.03670053687    0.04126485865     -0.7701848299     -0.07416748419    
3910000000        0.09548351914     0.05674066395     0.6486830982      -4.7176553        -0.028346357      0.04598823772     -0.1499939727     0.3675491668      
4240000000        -0.120544225      -0.1255352348     -1.775680776      -4.596758806      0.00355572146     0.05206892285     0.4152526933      -0.9925068516     
4460000000        -0.03427708149    -0.1300719827     -3.14319745       -4.612965394      0.01619443982     0.05029638607     -0.4689862298     -0.2997644833     
4570000000        -0.131165728      0.0684267208      -3.434100706      -3.917296666      0.000688142912    0.05356932603     -0.2370132114     0.4790788347      
4680000000        0.003592348425    -0.07679285109    -4.351226978      -3.587201768      0.03639568761     0.04108978229     0.2010884155      0.4114133689      
4790000000        -0.1412859112     0.009600252844    -4.715458435      -2.939057772      0.01621490469     0.05248410034     0.5599602275      0.27319681        
4900000000        0.01272880379     -0.008847533725   -5.204133241      -2.167301939      0.04403256935     0.03146217243     0.7646736907      -0.5876962453     
5010000000        -0.1104383916     -0.006797371432   -5.106473681      -1.411779379      0.03547541002     0.04099806726     0.1865986547      -0.6803499789     
