! RsaToolbox (C) 2015 Rohde & Schwarz America
! 
! Number of points: 51
! Number of ports: 2
! Balanced ports?: No
! 
! 
# Hz S RI R 50
500000000         -0.1545476019     0.06695184112     -4.970637464      3.432482395       0.06354978631     -0.03643089366    0.08482545057     0.0993533348      
610000000         0.1520568579      -0.01683891751    -4.507155023      4.056702339       0.05881808191     -0.04371742456    0.03800002405     0.171633014       
720000000         -0.1636697948     -0.0132474741     -3.9429838        4.576635741       0.04771707731     -0.05309827524    0.1274100806      0.02652222349     
830000000         0.1316184551      0.06244317815     -3.333218366      5.081892424       0.04481284827     -0.05502258665    0.1657724075      -0.08800313489    
940000000         -0.1266287863     -0.1031108499     -2.64333126       5.516164076       0.03682146019     -0.06021392191    0.0391046519      -0.07115341289    
1050000000        0.07377550006     0.1246830821      -1.966101772      5.799428169       0.02864124758     -0.06354360492    -0.0829658596     -0.2426072485     
1160000000        -0.04610590264    -0.1522775739     -1.216155912      6.006009605       0.02009158182     -0.06657993056    0.009321719619    0.05214179458     
1270000000        -0.01425656676    0.13632451        -0.456328264      6.075908782       0.01397885515     -0.06723514776    -0.2653984011     -0.08200237898    
1380000000        0.03752887994     -0.1417386085     0.3627882378      6.035422296       0.006579636632    -0.06784289246    0.1332131456      0.06593805163     
1490000000        -0.09032176435    0.09567342699     1.019775564       5.944334007       -0.003754417011   -0.0668511803     -0.2403011616     0.1646733666      
1600000000        0.08279907703     -0.0898802802     1.826662851       5.757893118       -0.01161430977    -0.06437946988    0.1573219456      -0.1273349173     
1710000000        -0.1203732044     0.03214525804     2.44929339        5.491234143       -0.01663701675    -0.06346510749    -0.09546015869    0.2943383875      
1820000000        0.09163826704     -0.02835346386    3.167160236       5.12219204        -0.02938435409    -0.05755861216    0.0003784821541   -0.1169115925     
1930000000        -0.1133036017     -0.02321756631    3.699618248       4.698463784       -0.03261730531    -0.0558615674     0.2484866957      0.2835234959      
2040000000        0.06243793294     0.02064405195     4.308347734       4.158217055       -0.03947025537    -0.04947725448    0.008610532873    -0.1512545895     
2150000000        -0.08992563188    -0.0404099226     4.786935891       3.445260823       -0.04952955474    -0.03902385238    0.3791184237      -0.07924768435    
2260000000        0.03296603262     0.03992996365     5.165163665       2.884163267       -0.04806875918    -0.03923239032    -0.0596875844     -0.2061335675     
2370000000        -0.0644806847     -0.04620803893    5.460521036       2.03544387        -0.05720025439    -0.02415818361    0.05674436118     -0.421921944      
2480000000        0.007861241698    0.03344365209     5.714677759       1.469549886       -0.0510995712     -0.03225299671    -0.3169773416     -0.1498454125     
2590000000        -0.06119037047    -0.03784654289    5.764413794       0.6422147035      -0.06072529211    -0.0005569674408  -0.4099651485     -0.04710787053    
2700000000        0.005939016119    0.03570390493     5.8880866         -0.1411699099     -0.05473708566    -0.02183812533    -0.3065488413     0.2345801808      
2810000000        -0.05640267581    -0.05322427303    5.666478881       -0.9987369412     -0.05953216318    0.007231837071    -0.04669006407    0.5341743939      
2920000000        0.01034905482     0.05453051999     5.715927897       -1.646243393      -0.0578110902     -0.0001616992995  0.05615343972     0.3530503685      
3030000000        -0.0190077424     -0.1017153114     5.44621025        -2.234673489      -0.05752688852    0.01239002029     0.75888007        0.3129604872      
3140000000        -0.03609178588    0.0683298111      5.124899663       -2.875113928      -0.05584756225    0.01234850835     0.2149026382      -0.109212237      
3250000000        0.01510730572     -0.1051642224     4.718774254       -3.578438911      -0.04832587416    0.02978761496     0.7563972418      -0.7207527423     
3360000000        -0.09245046973    0.05310551822     4.39888016        -4.032057966      -0.05165959037    0.01854215689     -0.36454417       -0.3078361411     
3470000000        0.09185744077     -0.07964929193    3.567913869       -4.687824201      -0.04294266013    0.03432815421     -0.3697408124     -0.9459203238     
3580000000        -0.1444123089     0.005198424682    3.139215527       -4.998680939      -0.04373548441    0.03108231889     -0.7005684386     0.5193662945      
3690000000        0.1075474471      -0.003868302796   2.36361845        -5.45894089       -0.03612366281    0.04169586738     -0.7639702481     -0.07516070311    
3800000000        -0.1589349806     -0.04637421668    1.763898376       -5.609853837      -0.03016682298    0.04194966182     0.2050593908      1.117185972       
3910000000        0.06839030981     0.07841707766     1.057672239       -5.85346942       -0.0284422412     0.04607467447     -0.1475840079     0.3645111722      
4020000000        -0.1269889772     -0.1090096831     0.09243301578     -5.906440878      -0.02089214159    0.04755125119     1.097353866       0.3694755905      
4130000000        -0.009504841641   0.1180013046      -0.6064718011     -6.071162768      -0.02376398431    0.04817648199     0.2293383833      -0.05960303032    
4240000000        -0.08155226707    -0.1368415356     -1.887648851      -5.726334754      0.003209297776    0.05252477108     0.4210375968      -0.9815921331     
4350000000        -0.1136080325     0.0935106352      -2.112993403      -5.805032743      -0.008045394811   0.05305698532     -0.3736909116     -0.04271208936    
4460000000        0.01279451791     -0.1137458384     -3.02055666       -5.346636062      0.01642888933     0.05025955825     -0.4582444739     -0.2935970426     
4570000000        -0.1605235636     0.01182701718     -3.621679496      -4.99133749       0.001480789773    0.05346947072     -0.2440399591     0.4767653202      
4680000000        0.04327403754     -0.02757063881    -4.330561244      -4.442136695      0.03690920776     0.04100517042     0.2090883629      0.4132331765      
4790000000        -0.1311407685     -0.05847357213    -4.763741211      -3.764236327      0.01633323113     0.05208002116     0.5487142331      0.2817950035      
4900000000        0.01328732539     0.0607008189      -5.38027016       -3.002704528      0.04484934338     0.03155072487     0.765892567       -0.5919002054     
5010000000        -0.07463376224    -0.06859561801    -5.519624915      -2.128006588      0.03561258842     0.04081222901     0.1807701735      -0.6773039354     
5120000000        -0.07195205986    0.07489793003     -5.934745465      -1.180095282      0.05046774279     0.01897831695     -0.836498677      -1.204043785      
5230000000        -0.002653785283   -0.04747497663    -5.974714108      -0.3223609677     0.04749878073     0.02729919193     -1.071063382      -0.08770150273    
5340000000        -0.1283889562     0.02360912226     -5.612528626      0.765453848       0.0543307206      0.002778549086    -1.657421804      0.7428851238      
5450000000        0.0324826166      0.01380887162     -5.642722823      1.58291264        0.05464995929     0.007875996799    -0.1421752135     1.720938994       
5560000000        -0.129614085      -0.07690517604    -4.970744253      2.35948287        0.05231381219     -0.009726304757   0.7071778936      1.870734608       
5670000000        0.02460394986     0.0833574608      -4.427671966      3.026964704       0.05346615624     -0.01037423678    2.291702351       0.7432433797      
5780000000        -0.04661559314    -0.1523520797     -3.895914398      3.651389708       0.04757376296     -0.02101583296    2.285869696       -0.6119775087     
5890000000        -0.039993532      0.1295884848      -2.77943488       3.811914767       0.0429780817      -0.03132585525    1.358133817       -3.092333779      
6000000000        0.07823799551     -0.1461818963     -1.824344335      4.384512838       0.0359206053      -0.03199818913    -1.020565694      -2.681190012      
