! RsaToolbox (C) 2015 Rohde & Schwarz America
! 
! Number of points: 51
! Number of ports: 2
! Balanced ports?: No
! 
! 
# Hz S RI R 50
500000000         -0.1556970179     0.06696457416     -4.979280137      3.476462207       0.06274064037     -0.03714671796    0.0952324859      0.1087753747      
610000000         0.1577046663      -0.01783462055    -4.600241176      4.164246008       0.058333194       -0.04405417701    0.0254970201      0.1798849799      
720000000         -0.1646189243     -0.01454551704    -3.985848804      4.54921992        0.04777348468     -0.05356633177    0.1305156228      0.02821868333     
830000000         0.1332305521      0.06092458218     -3.268338538      5.096989024       0.04533471167     -0.05497969994    0.1486261663      -0.09388123248    
940000000         -0.1272801459     -0.1037414297     -2.635300159      5.519164985       0.03688602834     -0.06087974356    0.02960399043     -0.08447573805    
1050000000        0.07360284775     0.126546964       -2.009060386      5.836677841       0.02960851496     -0.06385259317    -0.06519555751    -0.2314337041     
1160000000        -0.04773858935    -0.1544515789     -1.22989571       6.067326839       0.02000887693     -0.06690395397    -0.001070658839   0.05360378828     
1270000000        -0.01423916034    0.1359519809      -0.4804143759     6.040974962       0.01397422267     -0.06700319519    -0.2513194346     -0.08480535584    
1380000000        0.03769072518     -0.1410744041     0.3353706075      6.012277024       0.005922918835    -0.06784824793    0.1222771771      0.07251358774     
1490000000        -0.09105679393    0.09599342197     0.9938997595      5.971180876       -0.003321421244   -0.06691666657    -0.2315311099     0.1646497113      
1600000000        0.08450562507     -0.09061256796    1.826864509       5.808743608       -0.01114704703    -0.06431374112    0.158608317       -0.1167918891     
1710000000        -0.1220274493     0.03230141476     2.4706808         5.534553054       -0.01699068407    -0.064310602      -0.09528873964    0.2798836074      
1820000000        0.09392887354     -0.02703602612    3.131176855       5.181715004       -0.02860987117    -0.05682888872    0.005522321028    -0.1079321755     
1930000000        -0.1142023131     -0.02422005497    3.703189966       4.707253149       -0.03293066376    -0.05655581679    0.242973249       0.2700905162      
2040000000        0.06454792619     0.0223989021      4.296851407       4.218918518       -0.03871165987    -0.05018272063    -0.001362226195   -0.1427866065     
2150000000        -0.09185057878    -0.04153005406    4.822931715       3.499371196       -0.0497879963     -0.03939488484    0.3685146847      -0.09318090997    
2260000000        0.03294939175     0.04085554928     5.223413068       2.951330835       -0.04842837736    -0.0387775128     -0.05694372974    -0.2188656604     
2370000000        -0.06460051239    -0.04705384001    5.465097072       2.084584654       -0.05854520827    -0.02408730228    0.05878820431     -0.4162386929     
2480000000        0.008376398124    0.03561529517     5.689006903       1.484574788       -0.05007901441    -0.03200664491    -0.3017233768     -0.1453521863     
2590000000        -0.06115413457    -0.04063302651    5.743355241       0.6296521809      -0.06161110927    5.682606764e-05   -0.3934160477     -0.04592574361    
2700000000        0.002827310236    0.03602115065     5.980847047       -0.08496159531    -0.05594456934    -0.0196194783     -0.2891096929     0.2342965185      
2810000000        -0.05407606065    -0.05310878903    5.66840286        -1.040596893      -0.06074069733    0.007223513728    -0.05479405134    0.5479523814      
2920000000        0.008186167106    0.05406150594     5.638853254       -1.567012159      -0.05875953829    0.0002120625685   0.04769283445     0.3487919333      
3030000000        -0.01772098243    -0.1025445461     5.50242366        -2.13781416       -0.05699900083    0.01090211395     0.7668759332      0.3220893606      
3140000000        -0.03752422705    0.06851455569     5.176532278       -2.868157468      -0.053296582      0.01463947594     0.1937155474      -0.1197181686     
3250000000        0.01513140649     -0.1037180275     4.716226925       -3.609209153      -0.04835510431    0.03074265318     0.7778897862      -0.7296108302     
3360000000        -0.09428650886    0.05126726627     4.490682899       -4.041011757      -0.0513049761     0.01773892832     -0.3887353697     -0.2843765993     
3470000000        0.09387107939     -0.07754874974    3.651753416       -4.634477747      -0.04342954223    0.03367425753     -0.3438585349     -0.9575097269     
3580000000        -0.1428944916     0.003053747583    3.173197758       -4.992903364      -0.04437342366    0.03223882237     -0.700582345      0.5204865087      
3690000000        0.1069191918      -0.0009205790702  2.372814075       -5.486444249      -0.03626870772    0.04211781216     -0.753654833      -0.1045350185     
3800000000        -0.1590673178     -0.04740774259    1.81299099        -5.644276108      -0.02999844034    0.04255275363     0.2052030868      1.137661914       
3910000000        0.06537850946     0.07962137461     1.096297951       -5.871469016      -0.02798699082    0.04701385838     -0.1487365892     0.3633240769      
4020000000        -0.125366956      -0.1112677753     0.1525452282      -5.952808124      -0.0201723841     0.04828718575     1.102296133       0.3732272811      
4130000000        -0.01219030377    0.1179660633      -0.533238761      -6.110652739      -0.0237063382     0.04791298069     0.2106074891      -0.06004372012    
4240000000        -0.07862712443    -0.1378068179     -1.842133499      -5.819419581      0.003467038353    0.0522076687      0.4305049082      -0.9842701794     
4350000000        -0.1165777966     0.09179026634     -2.052195529      -5.904142219      -0.00805943869    0.05327257877     -0.3940724793     -0.04350091223    
4460000000        0.01493940502     -0.1125450656     -2.995161438      -5.414839676      0.01704127035     0.05070096877     -0.4447421534     -0.3162504902     
4570000000        -0.1602637768     0.008316972293    -3.603989948      -5.06116677       0.001857674574    0.05341104417     -0.25335053       0.4790421783      
4680000000        0.04388450459     -0.02370999381    -4.317578243      -4.534908702      0.03757177609     0.04084374891     0.2222321977      0.397248094       
4790000000        -0.1307324916     -0.06295615435    -4.803990628      -3.83656652       0.01580424463     0.05221664039     0.5667516706      0.2841430114      
4900000000        0.01018237695     0.06386329234     -5.451111724      -3.113438204      0.04472914064     0.0323339033      0.7768315929      -0.6038231006     
5010000000        -0.07103486359    -0.07178419828    -5.570766562      -2.234511284      0.03484444288     0.04174286571     0.1955265534      -0.6785791883     
5120000000        -0.07458201796    0.07889194041     -6.055617462      -1.236406663      0.04947564874     0.01948434714     -0.8487272485     -1.213965719      
5230000000        0.00135885214     -0.04926072061    -6.108754174      -0.3726207498     0.04732570878     0.02634096562     -1.070754128      -0.06430805159    
5340000000        -0.1322981268     0.02508427389     -5.681606337      0.7415498999      0.05484137646     0.002950073702    -1.672633526      0.7691602012      
5450000000        0.0368359834      0.01407272741     -5.743552709      1.577202659       0.05402195816     0.008066427502    -0.1199363429     1.686470481       
5560000000        -0.1327048689     -0.07875198871    -5.052444971      2.307913116       0.05234193674     -0.01037109718    0.7062850132      1.900606539       
5670000000        0.02768144011     0.08706596494     -4.540993636      3.043912983       0.05286196667     -0.01034019059    2.28987849        0.7130261559      
5780000000        -0.04808234423    -0.1579468995     -4.017119373      3.695408745       0.04759048816     -0.02151140383    2.281242877       -0.5964092278     
5890000000        -0.03928944468    0.1337427646      -2.875792203      3.852973272       0.04265200542     -0.0301149963     1.340879412       -3.117165863      
6000000000        0.07962656021     -0.1511811614     -1.911449563      4.436339674       0.03583039341     -0.03241417698    -1.01070279       -2.68164406       
