! RsaToolbox (C) 2015 Rohde & Schwarz America
! 
! Number of points: 51
! Number of ports: 2
! Balanced ports?: No
! 
! 
# Hz S RI R 50
500000000         -0.1538789421     0.06674300134     -4.947700004      3.427273563       0.06432094143     -0.03802839334    0.08092776714     0.1079231905      
610000000         0.1518710405      -0.01663875207    -4.490991134      4.047385969       0.05831081557     -0.04344016518    0.04042153392     0.1737492021      
720000000         -0.1634654701     -0.01351481024    -3.950079741      4.576827634       0.04731523994     -0.05375618605    0.1285812364      0.03140450673     
830000000         0.1317918152      0.06232538447     -3.322587622      5.078847948       0.04474349093     -0.05549352261    0.1614532062      -0.08826308926    
940000000         -0.1265034378     -0.104065381      -2.655049574      5.516827846       0.03605106574     -0.06107382543    0.03714190815     -0.07117672613    
1050000000        0.07362316549     0.1245253235      -1.988071466      5.819408593       0.02870445476     -0.06422858324    -0.08266176392    -0.2416362475     
1160000000        -0.04641332105    -0.1510342211     -1.183866663      5.980174142       0.0208141969      -0.06746733761    0.007050168746    0.05267359405     
1270000000        -0.01374519523    0.1359547079      -0.4468967466     6.052144449       0.01280774639     -0.06755209378    -0.2657063182     -0.08107321472    
1380000000        0.03752698377     -0.1411857009     0.3525755867      6.019958101       0.006605726016    -0.06780150469    0.1316760604      0.06710944838     
1490000000        -0.08973426372    0.09593877196     1.033129408       5.933032093       -0.003213510601   -0.06635376872    -0.2361485755     0.1692065569      
1600000000        0.08272831887     -0.08970747888    1.833125842       5.751038766       -0.01213224585    -0.06445864256    0.1554499146      -0.1184409813     
1710000000        -0.1201198474     0.03230614215     2.473719277       5.489272653       -0.01569624252    -0.06395093836    -0.09674637913    0.2921240937      
1820000000        0.0911803171      -0.02851151489    3.177552128       5.118770487       -0.0296741585     -0.0571768907     -0.0005876216651  -0.1214466388     
1930000000        -0.1126742139     -0.02321665734    3.704462235       4.684215365       -0.03220697756    -0.05562421072    0.2476146075      0.2862469974      
2040000000        0.06237271056     0.0201677233      4.314253939       4.162718992       -0.03945495744    -0.04916943897    0.002711144648    -0.1512194614     
2150000000        -0.0892245546     -0.03994495794    4.767033677       3.418834865       -0.04966769219    -0.03915378465    0.3788128966      -0.08529433223    
2260000000        0.03280185536     0.03921700269     5.170714862       2.876840857       -0.04838963369    -0.03914931359    -0.05659763652    -0.2079807981     
2370000000        -0.06368469447    -0.04582545161    5.448633539       2.023895043       -0.05791933747    -0.02460046233    0.05652503933     -0.4220156599     
2480000000        0.008867132477    0.03248178214     5.693354793       1.423495513       -0.0519599106     -0.03239807978    -0.312682059      -0.1462893529     
2590000000        -0.0616427362     -0.03691751882    5.73685686        0.6019253093      -0.06066208588    -0.0009938767466  -0.4041805758     -0.04689958008    
2700000000        0.006949689239    0.03549866378     5.876306966       -0.178759802      -0.0548229882     -0.02193943709    -0.302225286      0.2363861908      
2810000000        -0.05602677539    -0.05208423734    5.625801542       -0.9784947043     -0.05880905899    0.007389933432    -0.04644093371    0.5163661727      
2920000000        0.01174006797     0.05468757078     5.689504647       -1.646126888      -0.05820468364    0.0003143792926   0.05432549017     0.3528985968      
3030000000        -0.02008310519    -0.1019916832     5.420790224       -2.240084106      -0.05697895845    0.0127700059      0.7531456476      0.3173181349      
3140000000        -0.03433632478    0.06866206229     5.091136052       -2.855742458      -0.05538951723    0.01307345178     0.2118411411      -0.09901437918    
3250000000        0.01365341712     -0.1061704531     4.687018524       -3.595851606      -0.04831628125    0.02970360851     0.7566610125      -0.7261389816     
3360000000        -0.09099879116    0.05462165177     4.369307642       -4.021258379      -0.05133384905    0.01879977697     -0.3581417483     -0.3132371023     
3470000000        0.09070718288     -0.08134341985    3.547957749       -4.686045329      -0.04330587294    0.03398680702     -0.3678243126     -0.9480899205     
3580000000        -0.1446070522     0.006966969464    3.118466543       -5.009579121      -0.04381828331    0.03138964792     -0.6946231154     0.5216144513      
3690000000        0.1077592447      -0.005855119321   2.335460233       -5.449268443      -0.03613097105    0.04182968204     -0.772371052      -0.0714814193     
3800000000        -0.1596482247     -0.04417843372    1.718425771       -5.598988842      -0.02983693247    0.04214474135     0.2109187807      1.117326642       
3910000000        0.06991402805     0.07755830139     1.027224783       -5.850996354      -0.02825897809    0.04620115476     -0.1512202092     0.3682617678      
4020000000        -0.1285675615     -0.1072969213     0.0554054808      -5.877178044      -0.0207525305     0.04752582551     1.092483796       0.3580474619      
4130000000        -0.007484139875   0.1173132285      -0.6375450774     -6.044229436      -0.02389207888    0.04844622268     0.2236559798      -0.05929417208    
4240000000        -0.08406585455    -0.1364544481     -1.903197008      -5.700500255      0.003399294936    0.05250625364     0.4130313334      -0.9926657675     
4350000000        -0.1109763086     0.09505651146     -2.155409342      -5.751402855      -0.00841117387    0.05295669126     -0.3679188179     -0.03820855587    
4460000000        0.01037974749     -0.1146575361     -3.053055921      -5.293616236      0.01667181318     0.05020454117     -0.4664008907     -0.3017104767     
4570000000        -0.1587911248     0.01483300887     -3.61804218       -4.928836237      0.001553607399    0.05337995157     -0.23502085       0.4729950021      
4680000000        0.04120180756     -0.02972241677    -4.339876321      -4.399767705      0.0368663033      0.04097855399     0.2010368387      0.4167982024      
4790000000        -0.1311886907     -0.05487259105    -4.767862987      -3.700010375      0.0167704974      0.05213911374     0.5583378225      0.2757920965      
4900000000        0.01323998626     0.05646805838     -5.388999262      -2.944604797      0.04427493736     0.03190308693     0.7676967652      -0.5842394941     
5010000000        -0.07662268728    -0.06581059843    -5.480412736      -2.088417011      0.03549373367     0.04098368989     0.1859802392      -0.6837622672     
5120000000        -0.06994197518    0.07182434946     -5.918151935      -1.12647043       0.05068782154     0.01917143639     -0.8369117285     -1.201546302      
5230000000        -0.006292673759   -0.04582902789    -5.937020349      -0.2647621179     0.04750364639     0.02708458561     -1.072074492      -0.09091033591    
5340000000        -0.1245999485     0.02241480164     -5.552171851      0.802427715       0.05429496738     0.002982483608    -1.64586288       0.746239432       
5450000000        0.02795473114     0.01391038764     -5.572326647      1.623960536       0.05468977268     0.007882597694    -0.1478281265     1.713108337       
5560000000        -0.1254988909     -0.07514341176    -4.90360214       2.400229732       0.05240551542     -0.009959055      0.7168472         1.863771544       
5670000000        0.02066382207     0.08188992739     -4.362911354      3.063166209       0.05312997857     -0.01057680267    2.278251138       0.7385705899      
5780000000        -0.04385571182    -0.1485696137     -3.817757355      3.650955406       0.04745133403     -0.0208618461     2.277449528       -0.6093047569     
5890000000        -0.04214744642    0.1260198355      -2.720163212      3.793664508       0.04304920228     -0.03144698855    1.336423237       -3.081390191      
6000000000        0.07881923765     -0.1417307854     -1.758106219      4.366825481       0.0360406089      -0.03205332974    -1.022005894      -2.691618969      
