! RsaToolbox (C) 2015 Rohde & Schwarz America
! 
! Number of points: 51
! Number of ports: 2
! Balanced ports?: No
! 
! 
# Hz S RI R 50
500000000         -0.152731508      0.06679121405     -4.926245484      3.423370017       0.06374941073     -0.03762758512    0.08085810857     0.1074273465      
610000000         0.1514309198      -0.01737456769    -4.474589186      4.054518823       0.0585581946      -0.04344169165    0.03869600632     0.1799105147      
720000000         -0.1635884643     -0.01363114174    -3.952557815      4.573519449       0.04759269835     -0.05345779044    0.1258158317      0.02813406307     
830000000         0.1319263428      0.06194877997     -3.32327415       5.072482039       0.04484551079     -0.05518545554    0.1590713994      -0.09073004483    
940000000         -0.1273751855     -0.1034593508     -2.654405137      5.520650907       0.03660324147     -0.06038367592    0.0364179892      -0.07082092016    
1050000000        0.07384160906     0.1245005429      -1.972420414      5.815208668       0.02864732103     -0.06351282938    -0.08443568058    -0.2439716244     
1160000000        -0.04686050862    -0.1520942897     -1.185088788      6.008312582       0.02038604441     -0.06635326914    0.006536508429    0.05496877084     
1270000000        -0.01397037692    0.1358725131      -0.4518255931     6.060386333       0.01383224947     -0.06749278117    -0.2653054824     -0.08296412096    
1380000000        0.03787124902     -0.1419080943     0.3593959278      6.034453882       0.006268346523    -0.06799796413    0.1300866867      0.06935545299     
1490000000        -0.0897763297     0.09559434652     1.020763303       5.927253763       -0.003496802879   -0.06695215932    -0.2375501395     0.1691788108      
1600000000        0.08314681798     -0.09050295502    1.852311393       5.766506212       -0.01190749011    -0.06476912578    0.1577504697      -0.1229502992     
1710000000        -0.1202067137     0.03271330893     2.468913755       5.49609853        -0.01654597614    -0.06347329152    -0.09953521828    0.2934809992      
1820000000        0.09177479893     -0.02775109746    3.163029861       5.134605922       -0.02907742061    -0.05795148895    -0.003572352235   -0.125124507      
1930000000        -0.1129008234     -0.02339859679    3.693162601       4.683652047       -0.0324506502     -0.05586040678    0.247343385       0.2812013652      
2040000000        0.0625955835      0.02059063502     4.310271685       4.162702292       -0.03932603435    -0.04969443414    0.006162419508    -0.152987126      
2150000000        -0.08976706862    -0.04056099057    4.759832008       3.439642978       -0.04939727745    -0.03937181355    0.3825652398      -0.08248112272    
2260000000        0.03289008141     0.03962389752     5.178026968       2.885814117       -0.04808384328    -0.03909714331    -0.05588983137    -0.2075299274     
2370000000        -0.06424878538    -0.04593061283    5.460513464       2.021499147       -0.05723605336    -0.02395564013    0.05034062431     -0.4271002205     
2480000000        0.00779635692     0.03317075223     5.698708352       1.445451707       -0.05153487712    -0.03275690367    -0.3087840521     -0.1462717268     
2590000000        -0.06130548194    -0.03750555962    5.731853071       0.6316475522      -0.06031028636    -0.0006144956431  -0.4042562347     -0.048996471      
2700000000        0.006912350655    0.03581662476     5.888997093       -0.1628472527     -0.05487110266    -0.02160965702    -0.2897944742     0.2382275951      
2810000000        -0.05601311103    -0.0521773994     5.638937575       -1.02409583       -0.05868753516    0.007026345869    -0.0460310427     0.525574587       
2920000000        0.01057410333     0.05404653773     5.686876399       -1.626415035      -0.05821386722    -0.0004523377463  0.04832105227     0.3529816475      
3030000000        -0.01934833452    -0.1016572863     5.41357933        -2.236144579      -0.05656458528    0.01215975489     0.7480582247      0.31953887        
3140000000        -0.03553273529    0.06913795322     5.148841829       -2.862774885      -0.05616961449    0.01258464162     0.2163350714      -0.1083621021     
3250000000        0.01402245834     -0.1053718626     4.699757204       -3.594519904      -0.04833152192    0.02967570447     0.7571094853      -0.7262287843     
3360000000        -0.09226426482    0.05412097648     4.403332451       -4.043431401      -0.05161766924    0.01880781455     -0.3637141045     -0.310296734      
3470000000        0.09080145508     -0.07993778586    3.541579261       -4.6733246        -0.04317151436    0.03416835874     -0.3686355559     -0.9496637166     
3580000000        -0.1444300562     0.006316136103    3.121123723       -5.007991591      -0.04367192939    0.03147306746     -0.7005997602     0.5200555287      
3690000000        0.1073111221      -0.004800966475   2.369445826       -5.451332964      -0.03643830859    0.04167815113     -0.7703618862     -0.0766889476     
3800000000        -0.1597486287     -0.04496015236    1.744416225       -5.617850581      -0.03012709707    0.04195037461     0.2018121759      1.121088407       
3910000000        0.06895456463     0.07815553248     1.057610393       -5.849219538      -0.02819127337    0.04623269733     -0.1435191683     0.3645224027      
4020000000        -0.1275709122     -0.1077450812     0.06567000263     -5.883467722      -0.02051003314    0.04765589604     1.093687007       0.3550522767      
4130000000        -0.008374149911   0.1177258044      -0.6243790731     -6.04801392       -0.02412279466    0.04840666813     0.2255854048      -0.06144656239    
4240000000        -0.0831470564     -0.1366490573     -1.90796111       -5.719768158      0.003194341805    0.05252642774     0.4157442704      -0.9863310099     
4350000000        -0.1123309284     0.094136931       -2.131787804      -5.760478781      -0.008177459977   0.05290284555     -0.3724629983     -0.04068635336    
4460000000        0.01213117316     -0.1136396676     -3.019469425      -5.301180385      0.01658169541     0.05030844471     -0.4644287374     -0.2986684924     
4570000000        -0.1595395058     0.0128591815      -3.607217363      -4.96696191       0.001888559563    0.05351902648     -0.2436047896     0.4780657881      
4680000000        0.04202667251     -0.02820425853    -4.328691331      -4.420139559      0.03727926642     0.04096532685     0.2105986105      0.4131711927      
4790000000        -0.1303137243     -0.05659719184    -4.75732987       -3.719151883      0.01687977041     0.05249045971     0.5554510769      0.2737338466      
4900000000        0.01310691331     0.05860699341     -5.382009815      -2.979586657      0.044530581       0.03177224691     0.7635809178      -0.5915569289     
5010000000        -0.0749649182     -0.06769035757    -5.49999452       -2.113682335      0.03564488697     0.04079730702     0.1830956993      -0.6762223153     
5120000000        -0.07127194852    0.07451336831     -5.925914728      -1.162953167      0.0505060347      0.01895600167     -0.8432959302     -1.205617882      
5230000000        -0.004345553461   -0.04702121019    -5.967149898      -0.2895662683     0.04748643868     0.02703248119     -1.072546233      -0.0851373128     
5340000000        -0.1272596866     0.02378750965     -5.596373807      0.7888542843      0.05448501666     0.002492289146    -1.650699834      0.7453783352      
5450000000        0.03141775355     0.01335630938     -5.606936805      1.614784909       0.05480652108     0.008101514345    -0.1496633805     1.723993825       
5560000000        -0.1275086254     -0.07639248669    -4.938204726      2.366149495       0.05243969011     -0.01004566231    0.7091003932      1.8662086         
5670000000        0.02262090892     0.08255028725     -4.394304076      3.043412785       0.05318027235     -0.01055095151    2.289090752       0.7335108685      
5780000000        -0.04476746172    -0.1505657136     -3.871466365      3.633881644       0.04735819918     -0.02091834475    2.26957457        -0.607705929      
5890000000        -0.04049227759    0.1279355437      -2.751248851      3.803618727       0.04301300856     -0.03128723243    1.347503362       -3.080714571      
6000000000        0.07867495716     -0.1442160308     -1.799456295      4.371930082       0.03608078952     -0.03158602291    -1.013717152      -2.683278347      
