! RsaToolbox (C) 2015 Rohde & Schwarz America
! 
! Number of points: 51
! Number of ports: 2
! Balanced ports?: No
! 
! 
# Hz S RI R 50
500000000         -0.1541474462     0.06782203168     -4.943911326      3.448535576       0.06418914896     -0.03730416711    0.08929497199     0.09837902578     
610000000         0.1519969106      -0.0164675843     -4.498904639      4.063052252       0.05893099935     -0.04310782455    0.03247682241     0.1743602242      
720000000         -0.1629674435     -0.01349660009    -3.942005367      4.557043338       0.04769349722     -0.05343194901    0.1348150396      0.02469184744     
830000000         0.1310580224      0.06262393296     -3.331690307      5.067917187       0.04475446803     -0.05539595876    0.1584939606      -0.0890134447     
940000000         -0.1261651218     -0.104176335      -2.656350528      5.501364258       0.03655965251     -0.06056393432    0.04069283702     -0.07391091772    
1050000000        0.0735007897      0.1244356185      -1.978204663      5.809675614       0.02868292313     -0.06366290532    -0.08258717814    -0.241896835      
1160000000        -0.0464338623     -0.1520356536     -1.201411678      6.000626328       0.02013746504     -0.06638863878    0.005962966792    0.05603722766     
1270000000        -0.01424457133    0.135555163       -0.4537878959     6.051765733       0.01386886111     -0.06705193013    -0.2654148809     -0.08311105711    
1380000000        0.03764585778     -0.1415092498     0.3530494497      6.037046302       0.006299777361    -0.06796730849    0.1325179169      0.07151018354     
1490000000        -0.08984778821    0.09584832191     1.026866784       5.941470861       -0.003420533913   -0.06686440587    -0.2412875283     0.1680372436      
1600000000        0.08269227296     -0.09038139135    1.841261794       5.765034354       -0.01149912275    -0.06474156751    0.1561917823      -0.1230488627     
1710000000        -0.1201228276     0.03208901361     2.463013363       5.491579495       -0.01640282058    -0.0634703674     -0.0952451103     0.2909017412      
1820000000        0.09089185297     -0.02780047804    3.167742509       5.115309762       -0.02932970215    -0.05786300503    -2.645570647e-05  -0.121011507      
1930000000        -0.112705268      -0.02337709628    3.69397111        4.689549004       -0.03203639797    -0.05589788902    0.2434659283      0.285014633       
2040000000        0.06217988208     0.0204732623      4.299009503       4.159704071       -0.03948052327    -0.04956844114    0.005552531536    -0.1489285187     
2150000000        -0.0897019282     -0.04013011232    4.772870514       3.427858218       -0.04935806795    -0.03919275209    0.3796520277      -0.07917422365    
2260000000        0.03295136616     0.03959887102     5.183803922       2.893384947       -0.04822893083    -0.03919663252    -0.05414660352    -0.2085996726     
2370000000        -0.06377809495    -0.04543357342    5.449240832       2.009876973       -0.05755896784    -0.02435582291    0.04920243084     -0.4275602835     
2480000000        0.008444312029    0.0326879099      5.691706843       1.450934913       -0.05146172197    -0.03236800896    -0.3176198768     -0.1497001953     
2590000000        -0.06083639339    -0.0375062041     5.711809001       0.6134952279      -0.06069734845    -0.0006783074964  -0.4018695611     -0.0513678921     
2700000000        0.006706338376    0.03506172821     5.894029872       -0.1333408622     -0.05502724717    -0.0219249181     -0.2910217207     0.2395303754      
2810000000        -0.05639944226    -0.05234136432    5.634616485       -1.0190605        -0.05952273617    0.007142002484    -0.04516225       0.5204667476      
2920000000        0.01113987993     0.05482003465     5.693491865       -1.653358002      -0.05811966233    -0.0001165611968  0.05679063108     0.3526700838      
3030000000        -0.01943785325    -0.1017878428     5.428884401       -2.224704265      -0.05686739938    0.01206861258     0.7554875315      0.3147577767      
3140000000        -0.03471186385    0.06875560433     5.10881668        -2.863044753      -0.05519847389    0.0124611907      0.2167815905      -0.1083125461     
3250000000        0.01425005682     -0.1058828384     4.685777866       -3.58584649       -0.04846821745    0.02962696516     0.7560572554      -0.7212916635     
3360000000        -0.09183563292    0.05445500836     4.386933139       -4.035193221      -0.05136991779    0.0189462255      -0.3597979018     -0.3105059705     
3470000000        0.0907382369      -0.08073116839    3.53374704        -4.677434308      -0.0429941926     0.03404091453     -0.368601403      -0.9526044418     
3580000000        -0.1443169713     0.006330139004    3.129258604       -5.007730702      -0.0438427972     0.03131378678     -0.6934875092     0.5169900101      
3690000000        0.1078090072      -0.005308100954   2.336189685       -5.458030399      -0.03646201671    0.04150296278     -0.7707764182     -0.0756608198     
3800000000        -0.1592922211     -0.04491140693    1.734312855       -5.600940192      -0.03007883176    0.04182306078     0.2067209434      1.116222664       
3910000000        0.06968515366     0.07773114741     1.023128356       -5.847732291      -0.0283728436     0.04620274078     -0.1485517613     0.3699468274      
4020000000        -0.1279259175     -0.1084918678     0.07067135545     -5.894379597      -0.02083496367    0.04751472261     1.092599867       0.355627372       
4130000000        -0.008337404579   0.1175460443      -0.6278213982     -6.045059764      -0.02400218753    0.04837303946     0.2223336803      -0.06158867537    
4240000000        -0.08342649043    -0.136309728      -1.901394635      -5.709813982      0.00340679697     0.05235887553     0.4134316363      -0.9899152719     
4350000000        -0.1120161191     0.09449962527     -2.139321947      -5.769868733      -0.008272152342   0.05297147083     -0.3720241619     -0.0385964997     
4460000000        0.0111138951      -0.1137369052     -3.028352591      -5.288346852      0.01660929211     0.05034492932     -0.4668911193     -0.2936148206     
4570000000        -0.1590134203     0.01393910218     -3.629488833      -4.950829055      0.001492779094    0.05367574583     -0.2334695257     0.4783769492      
4680000000        0.04155029356     -0.02917490713    -4.338637927      -4.409770193      0.03684634501     0.04080526429     0.2006430598      0.4111712777      
4790000000        -0.1311344504     -0.05563472211    -4.777366763      -3.718303595      0.0166816998      0.05200515704     0.5563306674      0.2716813137      
4900000000        0.0130308019      0.05772706494     -5.393872263      -2.95241149       0.0444481217      0.03190557994     0.762322716       -0.5864289111     
5010000000        -0.07564409822    -0.06672740728    -5.490390025      -2.098634531      0.03537641758     0.04085700079     0.1803061257      -0.6790041802     
5120000000        -0.07024160773    0.07296796143     -5.922598948      -1.141718143      0.05038336414     0.01919016008     -0.8365480115     -1.196001732      
5230000000        -0.005275002215   -0.04659040645    -5.958653153      -0.2868669805     0.04744332724     0.0270639497      -1.074527921      -0.09611494293    
5340000000        -0.125883624      0.02317250706     -5.571541409      0.8157099424      0.05457868215     0.002417206627    -1.65090062       0.748441821       
5450000000        0.02968218178     0.01398374978     -5.593029223      1.596943109       0.05499869168     0.007632122084    -0.1511960707     1.720205543       
5560000000        -0.1267416179     -0.07578472793    -4.942749132      2.386794284       0.05268362381     -0.009880075336   0.7136872103      1.869138062       
5670000000        0.0219644513      0.08283668011     -4.392397655      3.056785965       0.05338031939     -0.01059373968    2.277638545       0.737194843       
5780000000        -0.04453692958    -0.1494668126     -3.847178969      3.647918289       0.04736710367     -0.02090719672    2.274553796       -0.6158262103     
5890000000        -0.04160768911    0.1269490123      -2.737164466      3.800067784       0.0429024837      -0.03130861068    1.341218367       -3.07762085       
6000000000        0.07877096534     -0.1432456225     -1.786357575      4.371922947       0.03590848441     -0.03192816173    -1.025329826      -2.690336206      
