! RsaToolbox (C) 2015 Rohde & Schwarz America
! 
! Number of points: 51
! Number of ports: 2
! Balanced ports?: No
! 
! 
# Hz S RI R 50
500000000         -0.1528853625     0.06699919701     -4.921502667      3.441820306       0.06363857355     -0.03639099479    0.08617049964     0.1089445406      
610000000         0.1513847858      -0.01714012213    -4.480882975      4.053821863       0.05858728194     -0.04407370654    0.03636385467     0.1730500773      
720000000         -0.1624568105     -0.01356062014    -3.938219393      4.562670215       0.04757138344     -0.05358278035    0.1294379366      0.02674884874     
830000000         0.1305081099      0.06214284524     -3.318826629      5.069867282       0.04404936601     -0.05515859146    0.1600892804      -0.08877821351    
940000000         -0.1256496906     -0.1030270681     -2.648643148      5.53455772        0.03657041543     -0.06056281804    0.04045819418     -0.07301675049    
1050000000        0.07309965044     0.1234209761      -1.966856174      5.834426781       0.02819543594     -0.06347404144    -0.07957906559    -0.2425082448     
1160000000        -0.04658424482    -0.1505195349     -1.168423488      6.002283149       0.01982504493     -0.06649422435    0.00836393763     0.05254082098     
1270000000        -0.01365818456    0.134456411       -0.4205434659     6.057580018       0.01314859156     -0.06777846259    -0.2654073814     -0.08184071752    
1380000000        0.03689865023     -0.1403378248     0.3856702351      6.040339969       0.006639327959    -0.06795659067    0.1323830003      0.0684461144      
1490000000        -0.08899625391    0.09459283948     1.052324586       5.941054187       -0.003733869448   -0.06764550094    -0.2412264245     0.1715355798      
1600000000        0.08107472211     -0.08904812485    1.875822275       5.760221905       -0.0117324248     -0.06424703135    0.1582836759      -0.1229101591     
1710000000        -0.11864914       0.03193819895     2.508975772       5.473863246       -0.01697851556    -0.0630293645     -0.09642394097    0.2925518945      
1820000000        0.08909980953     -0.02836110629    3.208337082       5.109889551       -0.02877251066    -0.05797435033    0.00189377503     -0.1225308148     
1930000000        -0.1107405201     -0.02267546579    3.732452147       4.698125126       -0.03311529249    -0.05581091936    0.2447356046      0.2892764206      
2040000000        0.06030358002     0.01889645122     4.33364698        4.133760003       -0.03938939488    -0.04949259711    0.004626867622    -0.1489510984     
2150000000        -0.08767136931    -0.03848395124    4.792520684       3.404723208       -0.04955921929    -0.03873871257    0.3804869591      -0.07867402601    
2260000000        0.03221179917     0.03664765507     5.195678242       2.844130486       -0.04852326189    -0.03948892954    -0.05562459919    -0.208507603      
2370000000        -0.06316968054    -0.04310096428    5.457896912       1.98890188        -0.05678141826    -0.02428833784    0.05371982784     -0.4212713074     
2480000000        0.009639826603    0.02974343672     5.687762714       1.409793659       -0.05046178627    -0.03328993314    -0.3128370556     -0.1487953138     
2590000000        -0.06174131855    -0.03437779844    5.654814384       0.5954330065      -0.06050637234    -0.001328418831   -0.4042909003     -0.05107037304    
2700000000        0.00941948127     0.03317162022     5.830783637       -0.1725312673     -0.0542746932     -0.02237165728    -0.2994736523     0.2383782101      
2810000000        -0.05888889357    -0.04950966686    5.58882765        -1.008263839      -0.05957594252    0.006729953078    -0.04649629124    0.5160760138      
2920000000        0.01611075737     0.05336040631     5.608302817       -1.680528358      -0.05795006982    0.0002256788039   0.05098229977     0.357633114       
3030000000        -0.02385562286    -0.1024383679     5.390239346       -2.252650858      -0.05682245736    0.01214889642     0.7516451746      0.31655373        
3140000000        -0.03056761436    0.07109980285     5.070364994       -2.887608789      -0.05571586255    0.01261444267     0.2167255571      -0.1074535974     
3250000000        0.009143584408    -0.1084915474     4.609980014       -3.612180743      -0.047595768      0.02949614376     0.7580156583      -0.7276292688     
3360000000        -0.08843395114    0.05922093615     4.317640007       -4.034280489      -0.05100100007    0.01874170523     -0.3610184589     -0.3075944218     
3470000000        0.0884879604      -0.08680185676    3.451811104       -4.688970527      -0.04269171324    0.03391674985     -0.3702017944     -0.9473683759     
3580000000        -0.1432494819     0.01272325311     3.038217643       -5.006353982      -0.04325289393    0.031294          -0.6937288537     0.5173927964      
3690000000        0.1091342047      -0.01276080403    2.250661947       -5.457694689      -0.03538514004    0.04144729029     -0.7685988264     -0.07558629534    
3800000000        -0.1614915878     -0.03830998018    1.657238163       -5.591192922      -0.0303430277     0.04150063551     0.2073243819      1.114573924       
3910000000        0.07615059614     0.0719755441      0.9308144532      -5.825365816      -0.02875926519    0.04649505115     -0.1500203309     0.3685083118      
4020000000        -0.1345123649     -0.1028818935     -0.03099725302    -5.848013578      -0.02097318421    0.0472527621      1.093772263       0.3533027967      
4130000000        0.002173215151    0.1164891571      -0.7436508218     -5.973502301      -0.02372471871    0.04838037727     0.2257928397      -0.059473018      
4240000000        -0.09363362938    -0.1332182884     -1.996645859      -5.601554964      0.003112257716    0.05268502086     0.4147024634      -0.9914384901     
4350000000        -0.09896697849    0.1018205211      -2.280091103      -5.623896982      -0.008202002572   0.05243883579     -0.3696257903     -0.03790701227    
4460000000        -0.0004761145974  -0.1181533635     -3.123034104      -5.143812474      0.01659087524     0.05061160316     -0.4679076904     -0.2992243072     
4570000000        -0.1521439552     0.02834313177     -3.720125283      -4.756006801      0.002041596195    0.05381985752     -0.2354284013     0.4782840434      
4680000000        0.03144161403     -0.04187806323    -4.378374566      -4.173585407      0.03617966736     0.04064173812     0.2012742054      0.4143472532      
4790000000        -0.1338512152     -0.03852405399    -4.782808748      -3.475710774      0.01638260175     0.05200447292     0.5588193916      0.2736646187      
4900000000        0.0133890966      0.04000226781     -5.359101599      -2.705749867      0.0433965738      0.03174167037     0.7634504258      -0.5882671267     
5010000000        -0.08523341268    -0.05014012009    -5.405524739      -1.867927082      0.03548145381     0.04142644153     0.1870346774      -0.6834339632     
5120000000        -0.05780548602    0.05813305825     -5.764697471      -0.9099280485     0.05035491393     0.01961612672     -0.8359158175     -1.198090923      
5230000000        -0.02416031063    -0.03535081074    -5.733596332      -0.06520565845    0.04720376767     0.02728734874     -1.071970819      -0.09275056165    
5340000000        -0.1062369272     0.01557157841     -5.33726424       0.9555614193      0.05474795438     0.002589513794    -1.649661286      0.7497210733      
5450000000        0.006598008331    0.0147359306      -5.288894428      1.727922191       0.05470573645     0.008150723019    -0.1509554159     1.715838196       
5560000000        -0.1050699353     -0.06856565177    -4.624183323      2.450150262       0.05173618435     -0.009959098563   0.7142695754      1.866227905       
5670000000        0.002461877419    0.07361006737     -4.07768856       3.071385206       0.05330043982     -0.01032480552    2.276880254       0.7372977173      
5780000000        -0.02984785102    -0.1314387918     -3.52898277       3.610518334       0.04764471682     -0.02019024785    2.280441649       -0.610409889      
5890000000        -0.05372143164    0.111813955       -2.486111638      3.733661837       0.04318599232     -0.03085607047    1.34227652        -3.077296991      
6000000000        0.0813607648      -0.1205872744     -1.553121156      4.217651687       0.03572575936     -0.0314377994     -1.020849432      -2.683797514      
