! RsaToolbox (C) 2015 Rohde & Schwarz America
! 
! Number of points: 51
! Number of ports: 2
! Balanced ports?: No
! 
! 
# Hz S RI R 50
500000000         -0.1542322487     0.06971935183     -4.971410237      3.505755392       0.06434962394     -0.0383013958     0.09675700552     0.09918090199     
610000000         0.153905943       -0.01665506884    -4.552928358      4.095461697       0.05854766709     -0.04377472207    0.03223905577     0.1599539185      
720000000         -0.1632199883     -0.01312770136    -3.948754477      4.582062257       0.04790236802     -0.05285491445    0.1326260027      0.009800728938    
830000000         0.1305726767      0.06220263988     -3.346807269      5.048654114       0.04494142342     -0.05493711059    0.1622298588      -0.07723685331    
940000000         -0.128549844      -0.1044163257     -2.63887629       5.568192779       0.0372439156      -0.06017707943    0.04277119094     -0.08294221602    
1050000000        0.07382327318     0.1256832331      -2.050971241      5.819098004       0.02874896539     -0.06311461875    -0.08449727406    -0.2428367067     
1160000000        -0.04616416618    -0.151476562      -1.213428296      5.988084024       0.01978760618     -0.06642829369    0.006565084787    0.05663443268     
1270000000        -0.01439949125    0.1358418912      -0.4559504888     6.08044483        0.0134191101      -0.06733425913    -0.2663952168     -0.09035557149    
1380000000        0.03914321959     -0.1420917511     0.334388287       6.059609849       0.00675438086     -0.06829033629    0.136221386       0.05911654146     
1490000000        -0.09026478231    0.09746413678     1.011189899       5.962933474       -0.003836490415   -0.06687439344    -0.2403550562     0.1641271832      
1600000000        0.08369139582     -0.08983245492    1.826412352       5.793951196       -0.01161625661    -0.06501933994    0.1663326246      -0.1152569143     
1710000000        -0.1208514795     0.03256447986     2.456475264       5.538405823       -0.01615228522    -0.06283609934    -0.08370629275    0.2865356886      
1820000000        0.09270599484     -0.02702823468    3.139595628       5.175604225       -0.02913475081    -0.05738712945    -0.01080893966    -0.1274396631     
1930000000        -0.1141961217     -0.02347316407    3.716334066       4.701722343       -0.03286658034    -0.05595881402    0.2421587676      0.2755771176      
2040000000        0.06287755817     0.02251503989     4.268123892       4.195083982       -0.03882419106    -0.04995781994    0.00767548877     -0.1462524132     
2150000000        -0.09070277214    -0.04126718268    4.77116582        3.465454326       -0.04906349684    -0.0394446571     0.3718356262      -0.07627993277    
2260000000        0.03385298699     0.04042584077     5.173061777       2.891396852       -0.04930018421    -0.03937116932    -0.04022864865    -0.2152712423     
2370000000        -0.06358613819    -0.04722330719    5.475042592       2.086580542       -0.05707061256    -0.02327658199    0.04887063946     -0.4105650793     
2480000000        0.006671145558    0.03305167332     5.682815977       1.553400022       -0.0513633357     -0.03259753018    -0.3083726098     -0.1388424839     
2590000000        -0.06200855225    -0.03893141076    5.851818115       0.6165267958      -0.05955676974    -0.0005908349115  -0.3933479337     -0.03723347258    
2700000000        0.003203260945    0.03831016272     5.906610301       -0.1355448988     -0.0546279061     -0.02266219471    -0.2950264957     0.2477843307      
2810000000        -0.05432348326    -0.05381649733    5.668004432       -1.049294323      -0.05971559449    0.007033730157    -0.0371270427     0.5036663652      
2920000000        0.008490590379    0.05484467745     5.772481506       -1.558623974      -0.05740734401    0.0005367358909   0.05563472105     0.3310127885      
3030000000        -0.017823698      -0.1013019681     5.458673989       -2.20228325       -0.05686831201    0.0126574448      0.7474914701      0.3076338212      
3140000000        -0.03831575438    0.06789278984     5.203173338       -2.830535879      -0.05615768232    0.01227923735     0.2175836383      -0.1104636916     
3250000000        0.01836630143     -0.1049635261     4.77921014        -3.554001278      -0.04829586199    0.03089440208     0.7589452318      -0.7299373747     
3360000000        -0.09303599596    0.05137408525     4.449616055       -4.037323148      -0.05161069553    0.01940975516     -0.3691802607     -0.2995276292     
3470000000        0.09068331122     -0.0772504583     3.570808698       -4.689802222      -0.04449334678    0.0346201508      -0.3553052424     -0.9540445605     
3580000000        -0.1464657336     0.004069500137    3.199304023       -5.063333806      -0.04296975691    0.03057189594     -0.6886958544     0.5244408463      
3690000000        0.1073594242      -0.002340103732   2.403659764       -5.508877818      -0.03610225145    0.0418348656      -0.7691707965     -0.08410276849    
3800000000        -0.1574418545     -0.04736946896    1.791869427       -5.633599702      -0.03046559065    0.04228601867     0.2028941313      1.129230744       
3910000000        0.0658949241      0.0792798996      1.085309493       -5.872506318      -0.02843737246    0.04658331456     -0.1534683495     0.3549646839      
4020000000        -0.1254989952     -0.1094364598     0.1375375666      -5.977990869      -0.02052712576    0.04799433667     1.095372379       0.3786756917      
4130000000        -0.01318960637    0.1176045612      -0.5423710176     -6.11931135       -0.02348376695    0.0476839118      0.2277918137      -0.07166592355    
4240000000        -0.07736935467    -0.1365834177     -1.825459516      -5.769997167      0.003623618716    0.05283479882     0.4191801128      -0.9948332751     
4350000000        -0.1158548817     0.09266899526     -2.088295249      -5.882171551      -0.008512477517   0.05323457737     -0.3876198206     -0.05061274567    
4460000000        0.01582974009     -0.1120721102     -3.007832679      -5.406250884      0.01659403867     0.05002513614     -0.4580418496     -0.3056212        
4570000000        -0.161730215      0.008620080538    -3.617679519      -5.099394135      0.001609165805    0.05320974288     -0.2425357172     0.4817004154      
4680000000        0.04495473951     -0.02406947501    -4.317774804      -4.548089826      0.0368472018      0.04054891431     0.2082463081      0.4000002526      
4790000000        -0.1281294376     -0.06138512492    -4.752561185      -3.820121232      0.01617765029     0.05211221979     0.5469793317      0.2914290961      
4900000000        0.01125004422     0.06297801435     -5.410736371      -3.087933115      0.04451425352     0.03173237943     0.7602034226      -0.5976221523     
5010000000        -0.07158559561    -0.07171976566    -5.535921725      -2.191160092      0.03482577428     0.04105816225     0.186908394       -0.6753555189     
5120000000        -0.07472170144    0.07736020535     -5.958278966      -1.255167145      0.05068186071     0.01936695626     -0.8673047734     -1.22383228       
5230000000        0.0006914163823   -0.04866778478    -6.090890936      -0.3860889155     0.0469238871      0.02713432775     -1.071129196      -0.08640839184    
5340000000        -0.1329068691     0.02461439557     -5.706606624      0.7276599761      0.0543284529      0.00198435627     -1.681949544      0.7477765384      
5450000000        0.03807992488     0.01420565415     -5.705165167      1.547226347       0.05504266488     0.007807402994    -0.1264633729     1.729759774       
5560000000        -0.1338399202     -0.07967048138    -5.079274196      2.387379507       0.05162746845     -0.009544563722   0.6976194121      1.88240601        
5670000000        0.02794625424     0.08717795461     -4.524630128      3.032668081       0.05319945167     -0.01031753129    2.298568671       0.7203336368      
5780000000        -0.04819937795    -0.1571618617     -3.960125469      3.682046456       0.04754766825     -0.0214276004     2.277141619       -0.6086255657     
5890000000        -0.03866653517    0.1335116029      -2.85848526       3.838676906       0.04322043191     -0.03130795409    1.338741492       -3.112279109      
6000000000        0.07899720967     -0.1525558531     -1.881792488      4.452490885       0.03614485761     -0.03199893528    -1.042458624      -2.684924713      
