! RsaToolbox (C) 2015 Rohde & Schwarz America
! 
! Number of points: 51
! Number of ports: 2
! Balanced ports?: No
! 
! 
# Hz S RI R 50
500000000         -0.1535164267     0.06705214083     -4.966252037      3.43368365        0.06408932487     -0.03654064757    0.0823495621      0.1018171082      
610000000         0.1523346901      -0.01744084433    -4.491757375      4.052408536       0.05917612333     -0.04334044734    0.0399535489      0.1734210274      
720000000         -0.1635754555     -0.01358337235    -3.952447033      4.569797656       0.04762307792     -0.05280128475    0.127512782       0.02349670576     
830000000         0.1315131187      0.06243098527     -3.335128114      5.077525565       0.0447691981      -0.05506127475    0.163226079       -0.08731963578    
940000000         -0.1266551316     -0.1033696234     -2.654067708      5.507902293       0.03669809159     -0.06056397487    0.04170231648     -0.07583346077    
1050000000        0.07364531606     0.1250883341      -1.997766424      5.818912232       0.02877230563     -0.06370945806    -0.08281806367    -0.24170511       
1160000000        -0.04700596258    -0.1517012268     -1.185223383      6.001920467       0.02001427664     -0.06627634573    0.007353267633    0.05385995896     
1270000000        -0.01382493135    0.1355470717      -0.465025565      6.044194352       0.01371776449     -0.06719212409    -0.268379608      -0.08242405876    
1380000000        0.03774199635     -0.1424073279     0.3632597296      6.048889754       0.006175824569    -0.06789524877    0.1335800514      0.06806949462     
1490000000        -0.09002891928    0.0967367962      1.0328488         5.937223172       -0.003708739295   -0.0668918259     -0.2367037926     0.170592322       
1600000000        0.08306035399     -0.09047365189    1.833219191       5.775227106       -0.01176802013    -0.06464162475    0.1558527238      -0.121629274      
1710000000        -0.1205150858     0.03209550306     2.460392722       5.494158521       -0.01667272127    -0.06361755531    -0.09719028052    0.2907907359      
1820000000        0.09119641781     -0.02808832005    3.149716783       5.122824198       -0.02919651988    -0.0576193693     -0.002481979406   -0.1250040335     
1930000000        -0.1129792482     -0.02318459377    3.689836692       4.702477747       -0.03259261504    -0.05594274122    0.243252585       0.2850111396      
2040000000        0.06273742765     0.02048597857     4.31872937        4.157569889       -0.03967662048    -0.04992706925    0.005892629228    -0.1518056223     
2150000000        -0.0892521292     -0.04087774083    4.774636863       3.466871274       -0.04903237695    -0.039059774      0.3751899682      -0.08604393705    
2260000000        0.03285580501     0.03983645141     5.187044062       2.889221169       -0.04832297366    -0.03928485507    -0.05248436063    -0.210188939      
2370000000        -0.0640854314     -0.04568982869    5.441560648       2.015538422       -0.05730190192    -0.02412487285    0.04606614517     -0.4204522367     
2480000000        0.008226414211    0.03310440481     5.688316079       1.446274725       -0.05114279409    -0.03236097479    -0.3120882624     -0.1544440738     
2590000000        -0.06169192865    -0.03832950443    5.724633424       0.6241609941      -0.06076192458    -0.001339833051   -0.4081084157     -0.04611753389    
2700000000        0.006487825885    0.03523632139     5.894712039       -0.1406537322     -0.05464189494    -0.02194224885    -0.293667942      0.2358943033      
2810000000        -0.05598890409    -0.05235849321    5.635955902       -0.9973170065     -0.05885847725    0.00703497988     -0.05120940394    0.5245219234      
2920000000        0.01070224866     0.05428854749     5.690081626       -1.619752182      -0.05804215649    -0.0005322406917  0.05179075217     0.345321372       
3030000000        -0.01890498959    -0.1017763987     5.449018172       -2.238627222      -0.05666434037    0.01264309048     0.7553559203      0.3201571449      
3140000000        -0.03474925831    0.06902370602     5.107919157       -2.87629403       -0.05620712246    0.01267721564     0.2122515827      -0.1110280038     
3250000000        0.0142189879      -0.105894357      4.714014655       -3.587448293      -0.04843777561    0.02992804404     0.7564214708      -0.7258642628     
3360000000        -0.09275522828    0.05339320749     4.419424971       -4.029361952      -0.05125079414    0.0187577253      -0.3617062709     -0.3149348673     
3470000000        0.09132111073     -0.07982150465    3.551701424       -4.675755639      -0.04295345164    0.03391173886     -0.368397134      -0.9477423116     
3580000000        -0.1441438496     0.005861748941    3.126295659       -5.000235063      -0.04373670605    0.03148178266     -0.69733473       0.5185403867      
3690000000        0.1075408608      -0.004470919259   2.374754517       -5.460033217      -0.03623594959    0.0418574141      -0.7679252052     -0.07752847291    
3800000000        -0.1586748958     -0.04595876113    1.762737337       -5.589278461      -0.03002911711    0.04187179189     0.2061943163      1.116183909       
3910000000        0.0689111948      0.07870732993     1.052293232       -5.859775938      -0.02843943804    0.04625579468     -0.1479571746     0.3671269765      
4020000000        -0.1270313114     -0.1084242538     0.07648169062     -5.893135957      -0.02069142115    0.04758445009     1.09131647        0.3620171768      
4130000000        -0.009531686082   0.1173378155      -0.6039054999     -6.046863102      -0.02390351217    0.04819198118     0.2257753071      -0.06000233549    
4240000000        -0.0824835673     -0.1365188807     -1.894098209      -5.727640191      0.00335057723     0.05255142434     0.4166007198      -0.9907919819     
4350000000        -0.1130823866     0.09399826825     -2.137891561      -5.783669749      -0.008123767501   0.05305984243     -0.3724815714     -0.04047144877    
4460000000        0.01211262308     -0.1136472225     -3.027306371      -5.322441195      0.0164871986      0.05018090198     -0.4640938055     -0.2997743787     
4570000000        -0.1602228433     0.01270425133     -3.62248106       -4.976144133      0.001586437466    0.0536468164      -0.2424235539     0.476125645       
4680000000        0.04306106269     -0.02781213075    -4.328190331      -4.452362628      0.03668764894     0.04088846719     0.2077184071      0.4117992696      
4790000000        -0.1309014857     -0.05774137378    -4.758361235      -3.749649969      0.01683318654     0.05200568779     0.5479097301      0.27606902        
4900000000        0.01284485962     0.05968774483     -5.39788047       -2.999369634      0.04448147403     0.03174835666     0.7690852374      -0.5919014443     
5010000000        -0.07495289296    -0.06804807484    -5.510579487      -2.126437719      0.03514037172     0.04092857652     0.1845238147      -0.6775186423     
5120000000        -0.07127780467    0.07472120225     -5.926947403      -1.16548393       0.0504780988      0.01922786343     -0.838614962      -1.207737458      
5230000000        -0.003219599603   -0.04743558913    -5.972086624      -0.3134024334     0.04713808052     0.02704944167     -1.072132541      -0.08089612183    
5340000000        -0.1278215349     0.0239930246      -5.596875223      0.7783637475      0.05457497733     0.002745477489    -1.653147696      0.7513675679      
5450000000        0.03237333149     0.01392206922     -5.624729102      1.591900408       0.05499147204     0.007994143943    -0.141857069      1.728973616       
5560000000        -0.128940165      -0.07673006505    -4.961561222      2.362405089       0.05240041653     -0.009838827451   0.7066213116      1.86747159        
5670000000        0.02391377836     0.08343283832     -4.405214926      3.046265288       0.05340456099     -0.01063445973    2.287109681       0.7396432913      
5780000000        -0.04592839628    -0.151743874      -3.895551456      3.649838009       0.0472608746      -0.02069344629    2.271059291       -0.5996232249     
5890000000        -0.04061850905    0.128451243       -2.769351458      3.806825693       0.04284529528     -0.03114700054    1.349098215       -3.080380062      
6000000000        0.07853138447     -0.1457927227     -1.821253821      4.391995338       0.03595148451     -0.03180341577    -1.018398784      -2.684093683      
