! RsaToolbox (C) 2015 Rohde & Schwarz America
! 
! Number of points: 51
! Number of ports: 2
! Balanced ports?: No
! 
! 
# Hz S RI R 50
500000000         -0.1533593088     0.06738405675     -4.933739283      3.457470034       0.06418773125     -0.03638386117    0.08283562348     0.1027600366      
610000000         0.1508547664      -0.01683329046    -4.467462508      4.045998912       0.05923156166     -0.04379063154    0.03745594709     0.1745940369      
720000000         -0.1626964509     -0.01372102089    -3.940866965      4.569335316       0.04809825675     -0.05314905268    0.1332010324      0.02694349765     
830000000         0.1309801042      0.06203515828     -3.306331618      5.068562547       0.04484340608     -0.05589817164    0.1647466024      -0.09041761747    
940000000         -0.1263014078     -0.1030576602     -2.648042375      5.527444091       0.03616485694     -0.06110596059    0.03912950433     -0.07247256693    
1050000000        0.07322179526     0.1236039922      -1.9748916        5.835939971       0.0293032647      -0.06346031457    -0.08212373612    -0.2456997696     
1160000000        -0.04655275866    -0.1504137814     -1.178787812      6.027726396       0.02015137075     -0.06669507528    0.005485912514    0.0536100103      
1270000000        -0.01411206182    0.1345230937      -0.434805576      6.071102279       0.01357937002     -0.06724806352    -0.2646106785     -0.08178160037    
1380000000        0.03710751981     -0.140484184      0.3790484471      6.051926518       0.006155877086    -0.0669382419     0.1317103092      0.06756359026     
1490000000        -0.08931688964    0.09463002533     1.045192272       5.944814453       -0.0032455017     -0.06707950144    -0.2405993219     0.1691589882      
1600000000        0.08173526824     -0.08932284266    1.862646889       5.773747741       -0.01183921341    -0.06453731349    0.1594856199      -0.1228225942     
1710000000        -0.1186024249     0.03211589158     2.512193608       5.486763958       -0.01695610725    -0.06342946264    -0.09897372671    0.2960600095      
1820000000        0.08964428306     -0.02816725522    3.211786172       5.119122056       -0.03013944211    -0.05799090739    -0.001832465389   -0.1241931135     
1930000000        -0.111048229      -0.02262890898    3.7285408         4.685644991       -0.03247122238    -0.05568540521    0.2462907986      0.2879974996      
2040000000        0.06067031622     0.01953005418     4.322607608       4.134001399       -0.03901293137    -0.04974153571    0.004777404296    -0.1507201709     
2150000000        -0.08832010627    -0.03882580251    4.784727221       3.40574156        -0.04931585387    -0.03939252869    0.3791579732      -0.08351369225    
2260000000        0.03220098093     0.03715491295     5.176712955       2.849924318       -0.04821996793    -0.0392859718     -0.05786688529    -0.2080633057     
2370000000        -0.06363163143    -0.04329108447    5.453224999       1.987430408       -0.0579372932     -0.02406929116    0.05528641942     -0.4231815368     
2480000000        0.009226353839    0.03009336069     5.680394612       1.417815361       -0.0510576036     -0.03295351794    -0.3087260981     -0.148815485      
2590000000        -0.06119093671    -0.03425558656    5.653253912       0.6044384842      -0.05940788839    -0.002151921131   -0.4062621531     -0.0442607592     
2700000000        0.008647081442    0.03359637037     5.847041364       -0.1879873427     -0.05469215128    -0.02236656404    -0.296783531      0.2369731737      
2810000000        -0.05872590467    -0.04984299839    5.599047759       -1.018012375      -0.05933990771    0.006874056716    -0.04795409167    0.5197249468      
2920000000        0.01491066068     0.05340151489     5.632992369       -1.662464143      -0.056956789      -0.0001973429587  0.05287237676     0.3572636661      
3030000000        -0.02325910516    -0.1029253528     5.410533106       -2.246412963      -0.05704557809    0.01240049566     0.7570922525      0.3141153445      
3140000000        -0.03115524724    0.07097563893     5.074461222       -2.89717618       -0.05470445898    0.01263669315     0.2157995877      -0.1047451701     
3250000000        0.009827394038    -0.1083443835     4.628297864       -3.62267457       -0.04841075238    0.02964453002     0.7577502918      -0.7260642142     
3360000000        -0.08991166204    0.05840175971     4.332505998       -4.051866306      -0.05136946057    0.01871688741     -0.3602794478     -0.3067145691     
3470000000        0.08919099718     -0.08516521752    3.466450114       -4.670954841      -0.04273411805    0.03327684835     -0.3672970126     -0.9470890629     
3580000000        -0.1436015218     0.01123202313     3.050321109       -4.998471226      -0.04355664148    0.03143268621     -0.6934294611     0.5202402615      
3690000000        0.108455956       -0.01092743594    2.262507525       -5.444880259      -0.0358439038     0.04164115241     -0.7663747011     -0.07416727713    
3800000000        -0.1609716862     -0.04002203792    1.668093222       -5.587361547      -0.02948845096    0.04184556724     0.2093635306      1.114845573       
3910000000        0.07414248586     0.07352746278     0.9552981605      -5.83060638       -0.0280165796     0.04574122707     -0.1465965949     0.365497453       
4020000000        -0.1331377476     -0.1038569584     -0.01922655107    -5.851391058      -0.02106157767    0.04693877725     1.091870961       0.3563708963      
4130000000        -4.878282562e-05  0.1166789755      -0.7235682061     -5.998111921      -0.0243629167     0.0480312794      0.2235459574      -0.05943804257    
4240000000        -0.09084562957    -0.1338530332     -1.975837772      -5.618109911      0.002847148757    0.05224368061     0.4114119281      -0.9889717678     
4350000000        -0.1025077179     0.1000065506      -2.253018296      -5.669641833      -0.008667388932   0.052501451       -0.3673904589     -0.03799589318    
4460000000        0.001716544502    -0.1173301116     -3.107173112      -5.171085266      0.01648046254     0.05003850283     -0.4659970541     -0.2976941022     
4570000000        -0.153743729      0.02418950759     -3.684031107      -4.80568687       0.000840399209    0.05371825291     -0.2353763554     0.4780960243      
4680000000        0.03401174024     -0.03830508143    -4.356845689      -4.218546667      0.03591776371     0.04048695605     0.2008981973      0.4096391086      
4790000000        -0.1332342178     -0.04300054535    -4.781395982      -3.533840176      0.01644476247     0.05142504742     0.5597345419      0.2755471677      
4900000000        0.01315820962     0.04467068613     -5.373461277      -2.77407079       0.04375847392     0.03198387794     0.7623490933      -0.5877319864     
5010000000        -0.0829449594     -0.05457862094    -5.422398304      -1.927599122      0.03489337544     0.0403406568      0.1874029707      -0.6815161721     
5120000000        -0.06091759726    0.0619132705      -5.794679122      -0.9603812937     0.04999687949     0.01912474817     -0.8360940267     -1.198539851      
5230000000        -0.01928204298    -0.03858878836    -5.787796924      -0.11931586       0.04772125108     0.02668187726     -1.07319341       -0.08759615695    
5340000000        -0.111245878      0.01776601933     -5.393496944      0.9249913545      0.05405052489     0.003136998459    -1.651206402      0.74563602        
5450000000        0.01235015225     0.01447316166     -5.355086124      1.704343444       0.05450989304     0.008202011864    -0.1478673521     1.714183364       
5560000000        -0.1100939959     -0.07022853196    -4.696491705      2.432045995       0.05238691711     -0.009498020162   0.7130978804      1.863964573       
5670000000        0.007572233211    0.07554329932     -4.14314357       3.067713688       0.05353740886     -0.0103360906     2.289195208       0.7402043224      
5780000000        -0.03355960548    -0.1361918002     -3.601272225      3.627213213       0.04747026509     -0.02079365945    2.274771568       -0.6133451673     
5890000000        -0.0508296378     0.1153378636      -2.542636581      3.749646146       0.04333823278     -0.0308493053     1.344473506       -3.077234921      
6000000000        0.08080700785     -0.1262262464     -1.609443129      4.254225762       0.03622579439     -0.03170045306    -1.021255964      -2.686445205      
