! RsaToolbox (C) 2015 Rohde & Schwarz America
! 
! Number of points: 51
! Number of ports: 2
! Balanced ports?: No
! 
! 
# Hz S RI R 50
500000000         -0.1524188668     0.06658303738     -4.919246984      3.428920879       0.06427055417     -0.03734920268    0.08106469282     0.1015306552      
610000000         0.151026994       -0.01686233841    -4.472283956      4.043330644       0.05859706695     -0.04253067234    0.03927238889     0.1690742503      
720000000         -0.1627646983     -0.01326649357    -3.933211736      4.567994085       0.04773171775     -0.05240431814    0.1313938023      0.02343522777     
830000000         0.1314970702      0.06223763525     -3.324072237      5.071368901       0.04402427943     -0.05578025761    0.1646601728      -0.08972452338    
940000000         -0.1268546581     -0.1037178785     -2.654952866      5.516373          0.03602254528     -0.0610566812     0.03751639234     -0.07118920679    
1050000000        0.07326864451     0.1243458167      -1.981817673      5.808405209       0.02802743563     -0.0642651063     -0.08379394208    -0.2424970789     
1160000000        -0.0469490625     -0.1514780521     -1.185537512      6.012084664       0.01959629311     -0.06670234657    0.007596961824    0.05168771824     
1270000000        -0.0139688924     0.1351213455      -0.4464550018     6.052207408       0.01327721519     -0.06566636124    -0.2646591372     -0.08187409329    
1380000000        0.03732519597     -0.1412962824     0.3718445585      6.028315929       0.00559149827     -0.06841060712    0.1352639554      0.06861573077     
1490000000        -0.08944185078    0.09524201602     1.037033123       5.933297988       -0.002977860605   -0.06757048791    -0.2393108995     0.168090782       
1600000000        0.08207707852     -0.0897513032     1.845109865       5.748249972       -0.01226512809    -0.06464250266    0.1610281696      -0.1210452661     
1710000000        -0.1196008399     0.03213041648     2.484045575       5.471598817       -0.01626870527    -0.06301563256    -0.09687886864    0.2956067446      
1820000000        0.09009011835     -0.0276507698     3.171254852       5.110619585       -0.02888960185    -0.05794787146    0.0006438705406   -0.1227504844     
1930000000        -0.1122368649     -0.02308229543    3.710743487       4.681430812       -0.03256533074    -0.05586602844    0.245834525       0.2862560921      
2040000000        0.06176836044     0.01970346086     4.326780984       4.137915821       -0.03950407098    -0.04979655396    0.004124216846    -0.1520355495     
2150000000        -0.08890848607    -0.0400082022     4.766892592       3.426901625       -0.04865294623    -0.03846321822    0.3804540293      -0.08198929351    
2260000000        0.0327161476      0.03829487413     5.169230187       2.870613079       -0.04868324308    -0.03909101655    -0.05513013153    -0.2050249976     
2370000000        -0.06353494525    -0.04475773126    5.441026968       2.014223473       -0.05693777177    -0.02358959103    0.05738976371     -0.4217371338     
2480000000        0.009064882994    0.0316872336      5.694371421       1.441916089       -0.05168189523    -0.03187270386    -0.312140741      -0.1476045371     
2590000000        -0.06124248356    -0.03624413535    5.694616525       0.6165307393      -0.06053374396    -0.0006255127483  -0.4016007767     -0.0519478349     
2700000000        0.00759326946     0.03460682929     5.840135821       -0.1590783506     -0.05502969242    -0.0221961016     -0.2921244765     0.2403540739      
2810000000        -0.05753938854    -0.0513635017     5.630748991       -0.9959355056     -0.05899875703    0.007379594583    -0.04359555505    0.5208693352      
2920000000        0.01288978104     0.05440513045     5.666591761       -1.663183031      -0.05813366775    -0.0002889461269  0.05175674854     0.3571262047      
3030000000        -0.02113940753    -0.1020618081     5.410174539       -2.239040778      -0.0568549805     0.01263846591     0.7516446178      0.3173530844      
3140000000        -0.03311531246    0.07008076459     5.098090863       -2.881553253      -0.05568444834    0.01263977647     0.2199274464      -0.1052615275     
3250000000        0.01212360244     -0.1066485867     4.652405452       -3.60399188       -0.04829173311    0.02986356502     0.7494319762      -0.7284311121     
3360000000        -0.0907337293     0.05540007353     4.365996653       -4.026859322      -0.05162387169    0.01863562427     -0.3592706089     -0.3024815752     
3470000000        0.09019877017     -0.08266626298    3.498778726       -4.686735091      -0.04301216577    0.03403324577     -0.372500635      -0.947278722      
3580000000        -0.1440036595     0.008471910842    3.080476339       -5.006207275      -0.04356230536    0.0310668396      -0.6917395816     0.5150813815      
3690000000        0.1081674322      -0.007350245025   2.316744983       -5.450010659      -0.03626461252    0.04178546722     -0.767771204      -0.0737502097     
3800000000        -0.1594825238     -0.04341156408    1.717166601       -5.581049566      -0.02988484245    0.0417816825      0.2073719753      1.113439543       
3910000000        0.07105263323     0.07631313801     1.008983948       -5.82987905       -0.02838583976    0.04612742828     -0.1496284152     0.3681936521      
4020000000        -0.1298485994     -0.1063380316     0.03468654401     -5.868332354      -0.02081616909    0.0475313784      1.091346759       0.3533811486      
4130000000        -0.005668956321   0.1173591837      -0.6540150283     -6.02410258       -0.02405469126    0.0482699419      0.2221382611      -0.05745565524    
4240000000        -0.08612349629    -0.1355618834     -1.930510456      -5.666744585      0.003517628545    0.05270306736     0.4076018597      -0.9934706055     
4350000000        -0.1082945094     0.09648812562     -2.179491735      -5.72092309       -0.008271357325   0.0529095834      -0.3674887466     -0.03698211195    
4460000000        0.007809580769    -0.1153182313     -3.058780787      -5.246343782      0.01641598473     0.05023309305     -0.4675821535     -0.2992290242     
4570000000        -0.1575017869     0.01700760797     -3.638093924      -4.893598625      0.001566968557    0.05332634748     -0.2355924726     0.4772405945      
4680000000        0.03859177604     -0.03193574771    -4.336068803      -4.332779305      0.03688694606     0.04103700999     0.2019814538      0.4119809506      
4790000000        -0.131890282      -0.05183868855    -4.770914015      -3.651290972      0.01660141935     0.05208516735     0.5582575456      0.276872043       
4900000000        0.01292099245     0.05350908637     -5.388664016      -2.900892156      0.04446822105     0.03204478769     0.7662955514      -0.5873429754     
5010000000        -0.07822255045    -0.06275843084    -5.470353664      -2.032300905      0.0355363455      0.04099740373     0.1883020693      -0.6821107655     
5120000000        -0.06696812063    0.06937734038     -5.872908426      -1.080044916      0.05039563847     0.01915621517     -0.8367010896     -1.200823147      
5230000000        -0.01001914777    -0.04365208       -5.89600342       -0.2276774026     0.0473237199      0.02698128793     -1.073810885      -0.08555145945    
5340000000        -0.12108282       0.02117475867     -5.512035561      0.8376229294      0.0543542564      0.00306548668     -1.647319678      0.7395836011      
5450000000        0.02377947047     0.01405632496     -5.502983581      1.644378255       0.05486922386     0.007929109805    -0.1464977222     1.719916724       
5560000000        -0.1212063357     -0.07383858413    -4.841155316      2.402875797       0.05230029426     -0.00978867222    0.7111231405      1.871671579       
5670000000        0.01690830477     0.08029419184     -4.30299279       3.060162192       0.05345951417     -0.01053448437    2.280054412       0.7428820483      
5780000000        -0.0408019647     -0.144850865      -3.768120443      3.645261111       0.04741218316     -0.02084995545    2.273796428       -0.6133910605     
5890000000        -0.04389896616    0.1231933683      -2.665331337      3.786720037       0.04298102742     -0.0313588767     1.340790776       -3.074429227      
6000000000        0.07947156578     -0.1377228349     -1.722888558      4.333311705       0.03606458603     -0.03194840157    -1.016990499      -2.688749375      
