! RsaToolbox (C) 2015 Rohde & Schwarz America
! 
! Number of points: 51
! Number of ports: 2
! Balanced ports?: No
! 
! 
# Hz S RI R 50
500000000         -0.1523605287     0.06650575995     -4.918504768      3.419233962       0.06299373601     -0.03802113757    0.08494923244     0.09958443614     
610000000         0.1508342922      -0.01665241085    -4.471433146      4.034160043       0.06043543876     -0.04373562046    0.03954367184     0.1687590009      
720000000         -0.1624486446     -0.01330796536    -3.923080732      4.55684986        0.0475898553      -0.05276322164    0.1312382148      0.02501359395     
830000000         0.131393373       0.06207822263     -3.307967747      5.081925345       0.04520925675     -0.05553102366    0.1617149321      -0.09008958287    
940000000         -0.1262328923     -0.1030069739     -2.636152818      5.515622584       0.03634825967     -0.06091617277    0.03935757106     -0.07169780926    
1050000000        0.0731388256      0.1238202453      -1.965355657      5.832688354       0.02876011192     -0.06378092786    -0.08567988918    -0.2446585044     
1160000000        -0.04652285576    -0.1508241445     -1.185931542      6.026200094       0.01984543683     -0.06603572574    0.007140922046    0.05212097963     
1270000000        -0.01418937836    0.1347930282      -0.438077415      6.082740493       0.01344001104     -0.06733471915    -0.2631181308     -0.0817137461     
1380000000        0.03725947067     -0.1409433931     0.3744425243      6.044739548       0.006921757007    -0.06799072579    0.1341978965      0.06723690874     
1490000000        -0.08920525759    0.09496048093     1.046497738       5.94102785        -0.003512447831   -0.0671360525     -0.2406215309     0.1660406067      
1600000000        0.08177493513     -0.08957545459    1.859705563       5.765238278       -0.01176266924    -0.0648451204     0.1586449583      -0.1230222818     
1710000000        -0.1190413162     0.03201665357     2.491568349       5.501176316       -0.017436964      -0.0638013216     -0.09806360152    0.2944601689      
1820000000        0.08997495472     -0.02801143751    3.193110598       5.128292288       -0.02955476605    -0.0582701082     -0.00317411687    -0.1210609886     
1930000000        -0.1115416661     -0.02296501398    3.7225577         4.68205727        -0.03289530511    -0.05556697487    0.2419663754      0.288862455       
2040000000        0.06119586155     0.01958332583     4.314862369       4.151545181       -0.03943215615    -0.05038592154    0.005281032776    -0.1540830724     
2150000000        -0.08850346506    -0.0391488187     4.778479892       3.415994823       -0.04928717777    -0.03948987051    0.3785733027      -0.08541519361    
2260000000        0.03260581568     0.03781439736     5.173001961       2.858305006       -0.04838817011    -0.03946664616    -0.0541905862     -0.209261778      
2370000000        -0.06357813627    -0.04396139085    5.454393413       1.999788702       -0.0576347891     -0.02392875474    0.05389975586     -0.4231551933     
2480000000        0.009240753949    0.0309859775      5.695147532       1.428703526       -0.05109818467    -0.0323540903     -0.3123391488     -0.1468671401     
2590000000        -0.06115688011    -0.03523593023    5.677774907       0.5986999187      -0.0610491727     -0.001734411729   -0.4068221476     -0.0504356921     
2700000000        0.008270021528    0.03407885879     5.85872165        -0.1700207307     -0.05584026189    -0.02181062126    -0.2909582152     0.2349113261      
2810000000        -0.05872039869    -0.0503443107     5.613370327       -1.028832466      -0.05820607894    0.007461146203    -0.04153306061    0.5205002932      
2920000000        0.0147880353      0.05367339402     5.633341818       -1.675552492      -0.05778605226    -0.001093702824   0.05315462189     0.3568760674      
3030000000        -0.02195622399    -0.1023671553     5.408453372       -2.237727871      -0.05627713667    0.01248355501     0.7586900379      0.3144839325      
3140000000        -0.03254802153    0.0704683736      5.084733986       -2.878423391      -0.05531674274    0.01306058994     0.2129702011      -0.1052521677     
3250000000        0.01106832083     -0.1075970456     4.645319241       -3.614331173      -0.04804910318    0.02999638207     0.7524152648      -0.7288071937     
3360000000        -0.0898964256     0.05695134029     4.35035007        -4.027534796      -0.05102503201    0.01861591305     -0.364143563      -0.3093928076     
3470000000        0.08918981254     -0.08429224789    3.483730149       -4.68943588       -0.04286620223    0.03302744502     -0.3643239594     -0.947596217      
3580000000        -0.1438704878     0.01042646263     3.0642681         -4.99945781       -0.044056835      0.03135515443     -0.6938042361     0.519581408       
3690000000        0.108154729       -0.009726068936   2.281510249       -5.441537842      -0.03664549244    0.04152090396     -0.7684407656     -0.07219720819    
3800000000        -0.1606387794     -0.04132793844    1.6867058         -5.591851469      -0.03032501819    0.04211893519     0.209504286       1.115103781       
3910000000        0.07302153856     0.07443516701     0.9632836615      -5.82989524       -0.02825400903    0.04639275861     -0.1466320594     0.3668672953      
4020000000        -0.1318234056     -0.1045362949     -0.001350573508   -5.855797299      -0.02112069772    0.04744378231     1.092725305       0.3518671656      
4130000000        -0.002102132421   0.1171167046      -0.7044983136     -6.006463493      -0.02416327918    0.04755133053     0.2223635942      -0.05749569649    
4240000000        -0.08935388923    -0.1347935647     -1.96301196       -5.641607565      0.003453817718    0.05208186952     0.411999243       -0.9928506189     
4350000000        -0.1051113158     0.09831974655     -2.223397836      -5.686422026      -0.008393046057   0.05275685476     -0.369527769      -0.03987376248    
4460000000        0.004424935672    -0.1162640303     -3.083756141      -5.196596566      0.01615943344     0.04954572054     -0.4674225101     -0.2970726024     
4570000000        -0.1550508738     0.02118378878     -3.660658495      -4.835201369      0.001625552508    0.0527784035      -0.2370998403     0.4769850437      
4680000000        0.03598482907     -0.03617817536    -4.352813994      -4.26778198       0.03632685797     0.04122622505     0.2048283566      0.4096280331      
4790000000        -0.1324134469     -0.04639108852    -4.768015161      -3.576095002      0.01551046229     0.05165156524     0.5593833979      0.2730064132      
4900000000        0.01307835523     0.04775597528     -5.36370945       -2.80746007       0.04433077516     0.03224797192     0.7627518135      -0.5871227251     
5010000000        -0.08079791814    -0.05787846819    -5.444518479      -1.968079536      0.03568742439     0.04128115979     0.1871662407      -0.6829042909     
5120000000        -0.06375295669    0.06527183205     -5.834755576      -1.010269183      0.0495750338      0.01926867484     -0.8382367256     -1.200316025      
5230000000        -0.01565190218    -0.04039549828    -5.825947603      -0.153716883      0.04728005934     0.02740414258     -1.073262753      -0.0930261564     
5340000000        -0.1153639331     0.01891043037     -5.445515289      0.8887745643      0.05462230005     0.002975507746    -1.651655951      0.7492169175      
5450000000        0.01697798818     0.01420393772     -5.406652639      1.689331824       0.05507583898     0.008529097172    -0.152192711      1.713407169       
5560000000        -0.1147928685     -0.07174897939    -4.754037896      2.428833887       0.05222257017     -0.009519201898   0.7104952054      1.865098491       
5670000000        0.01171725895     0.07740753889     -4.213067875      3.072838622       0.05288701589     -0.009907523839   2.281006175       0.7333753847      
5780000000        -0.03655736521    -0.1396888196     -3.668548128      3.634473068       0.04737259072     -0.02093634448    2.27963089        -0.6144474658     
5890000000        -0.04805196077    0.1185393408      -2.593193178      3.769346777       0.04277839811     -0.03134117919    1.343245354       -3.075304851      
6000000000        0.08010651171     -0.1310416311     -1.649686637      4.287560284       0.0365341624      -0.03125666723    -1.025848443      -2.687983384      
