! RsaToolbox (C) 2015 Rohde & Schwarz America
! 
! Number of points: 51
! Number of ports: 2
! Balanced ports?: No
! 
! 
# Hz S RI R 50
500000000         -0.1552306861     0.06815276295     -4.96956053       3.46698014        0.06447447618     -0.03716153348    0.08887005843     0.09351995276     
610000000         0.1519481093      -0.01636143401    -4.512394891      4.06244367        0.05893506143     -0.04352477957    0.04090722387     0.1735418346      
720000000         -0.16320014       -0.01309309714    -3.94153681       4.569104981       0.0480092591      -0.05317059094    0.1250350397      0.01790193739     
830000000         0.1321184337      0.06193554401     -3.316700372      5.078043843       0.04486524284     -0.05519126697    0.1691672792      -0.08666228737    
940000000         -0.1274799258     -0.1041295007     -2.67643483       5.541529276       0.03684101822     -0.06031718998    0.03246579898     -0.07060529484    
1050000000        0.07361377776     0.1251175106      -1.990631207      5.806066521       0.02880356731     -0.06353511497    -0.0793568734     -0.2383080085     
1160000000        -0.04711490497    -0.1526424289     -1.193755994      6.010906444       0.02030433305     -0.06634100362    0.009989722148    0.05727998631     
1270000000        -0.01409613527    0.1364414692      -0.4774196857     6.078142622       0.01362292835     -0.06699576716    -0.2623983774     -0.07881997148    
1380000000        0.03798813745     -0.1417624205     0.3353226228      6.034272975       0.006684852315    -0.06760147792    0.1317879222      0.06920460006     
1490000000        -0.09020806104    0.09633911401     1.011929844       5.944762896       -0.003504582896   -0.06674186833    -0.2327959448     0.1657159136      
1600000000        0.08280485123     -0.09006310254    1.822112008       5.760500283       -0.01155920761    -0.06478118681    0.1587778132      -0.1203251359     
1710000000        -0.120937787      0.03285507858     2.470216814       5.49587781        -0.01692434659    -0.06360722307    -0.09659657858    0.2983752324      
1820000000        0.09193778783     -0.027821647      3.163335518       5.132412406       -0.02946111102    -0.05789311659    -0.007199200518   -0.1182251091     
1930000000        -0.1138474494     -0.02405300923    3.716799254       4.706000541       -0.03248535838    -0.05614355853    0.2426931563      0.2783914295      
2040000000        0.06265152246     0.02128423378     4.298669315       4.19665619        -0.0394292602     -0.04915666697    0.01146951958     -0.1463977164     
2150000000        -0.09066661447    -0.04099614546    4.785690642       3.463297132       -0.04977275724    -0.03905320199    0.3838119642      -0.09336729686    
2260000000        0.03311721608     0.04101082683     5.201098702       2.908199033       -0.04818980448    -0.0392507614     -0.05685922538    -0.2134835574     
2370000000        -0.06421047449    -0.04761014506    5.467057216       2.050322986       -0.05731587283    -0.02438851497    0.05129608634     -0.4235725892     
2480000000        0.008153260686    0.03412974253     5.700570741       1.445300708       -0.05067117375    -0.0324775561     -0.3094216027     -0.149005114      
2590000000        -0.06035813317    -0.03934977949    5.747167081       0.6704857988      -0.06091896188    -0.0005335253802  -0.3951769895     -0.04242296992    
2700000000        0.004782720003    0.03648395836     5.939907311       -0.1648211719     -0.05499146575    -0.02079268614    -0.2815920464     0.2412723171      
2810000000        -0.05481839925    -0.0531600602     5.646118317       -1.016711838      -0.0590166226     0.007957053144    -0.0450886277     0.514604966       
2920000000        0.009554838762    0.05488550663     5.697298457       -1.631073873      -0.05703821872    -0.0002975725976  0.05972720004     0.3494557949      
3030000000        -0.01831192151    -0.1023348942     5.497008671       -2.193502693      -0.05660337432    0.01276745199     0.7627593354      0.3266980384      
3140000000        -0.03745185584    0.06799411774     5.176360024       -2.856127848      -0.05595993418    0.01287026435     0.2132845964      -0.1120671084     
3250000000        0.01534364466     -0.1045227423     4.716588087       -3.599044205      -0.04891504844    0.02947745859     0.7579262533      -0.7192353605     
3360000000        -0.09337840229    0.05223087221     4.440279665       -4.032645965      -0.05168891333    0.0191277874      -0.3667156951     -0.30711528       
3470000000        0.09181785583     -0.07890021801    3.570054293       -4.70986201       -0.04335207913    0.0341786669      -0.3609790223     -0.9461635632     
3580000000        -0.144636631      0.005016857758    3.146595228       -5.023828813      -0.04405388665    0.03143566839     -0.7017373628     0.5154770707      
3690000000        0.1072471365      -0.003156764666   2.382609064       -5.487390993      -0.03605567164    0.04194189321     -0.7622588119     -0.07444924814    
3800000000        -0.1583253741     -0.04690156505    1.7789167         -5.606083575      -0.03019927209    0.04189747747     0.1991740598      1.116562118       
3910000000        0.06767910719     0.07968869805     1.066561757       -5.875480977      -0.02846899615    0.04634502745     -0.1439672312     0.3608760399      
4020000000        -0.1263274401     -0.1095205098     0.1062207314      -5.935320372      -0.02042573746    0.04769070819     1.095735473       0.357323015       
4130000000        -0.01117770094    0.1178461388      -0.5878424624     -6.104878352      -0.02355440784    0.04840059252     0.2223986134      -0.07212371073    
4240000000        -0.08006373048    -0.1370275319     -1.867749444      -5.758470162      0.003582799592    0.05250209217     0.4147575151      -0.9944558418     
4350000000        -0.1145642027     0.09278040379     -2.118883276      -5.81313346       -0.008116274472   0.05293315194     -0.3739037285     -0.04204256298    
4460000000        0.01383464783     -0.1117608175     -3.019050241      -5.336834433      0.01645580573     0.05043264326     -0.4617072356     -0.3044329697     
4570000000        -0.1608198583     0.01006515324     -3.589812001      -5.035144838      0.001529745316    0.05340833604     -0.2457918146     0.483581314       
4680000000        0.04389530793     -0.02514903992    -4.337255774      -4.507425129      0.03694075217     0.04106560351     0.2103847944      0.41246819        
4790000000        -0.1286807358     -0.05967451632    -4.744001874      -3.774885633      0.01669108449     0.0525171102      0.5575927992      0.2742201825      
4900000000        0.01283598598     0.06245072186     -5.409813554      -3.042990383      0.04437913737     0.03201433675     0.7710590874      -0.602969329      
5010000000        -0.0729720816     -0.07031650096    -5.53316981       -2.186255969      0.03546763874     0.04119743233     0.1786361194      -0.6761401567     
5120000000        -0.07447569072    0.07675714046     -5.970066596      -1.229159142      0.0506792094      0.0192658699      -0.8521528864     -1.214254823      
5230000000        -0.0009634419112  -0.04915236682    -6.02937568       -0.3542205367     0.04701640346     0.02678933928     -1.06233609       -0.09067702058    
5340000000        -0.1313778609     0.02467656322     -5.654815294      0.7485116691      0.05479163266     0.002610044527    -1.660287543      0.7514728176      
5450000000        0.03598740697     0.01384997368     -5.702971843      1.563034674       0.05437789812     0.00804332816     -0.1384484773     1.722366488       
5560000000        -0.1322399676     -0.07826720178    -5.037477941      2.370013669       0.05237260606     -0.01010549307    0.6987235745      1.86773453        
5670000000        0.02628778853     0.08558515459     -4.482603754      3.034290783       0.05341667699     -0.01103044458    2.301535361       0.7186470324      
5780000000        -0.04770896956    -0.155355081      -3.961166602      3.665135779       0.04741867855     -0.0208384703     2.273081148       -0.6107150778     
5890000000        -0.03900012746    0.1317110658      -2.825856033      3.829262305       0.04323883273     -0.03128204544    1.364134497       -3.100603277      
6000000000        0.07898284495     -0.1487946212     -1.873628206      4.41998949        0.03629119465     -0.03193944208    -1.021780131      -2.683043601      
