! RsaToolbox (C) 2015 Rohde & Schwarz America
! 
! Number of points: 51
! Number of ports: 2
! Balanced ports?: No
! 
! 
# Hz S RI R 50
500000000         -0.1534127146     0.0668951571      -4.934948989      3.44551048        0.06584839909     -0.03623836652    0.08357822575     0.1051858008      
610000000         0.1518684626      -0.01646466181    -4.50528212       4.036263842       0.05854983019     -0.04278597635    0.03947182213     0.1736891964      
720000000         -0.1632375121     -0.01421902515    -3.961833615      4.561963064       0.04778432695     -0.05346404277    0.1322041339      0.01890747645     
830000000         0.1311970949      0.06197908148     -3.320760226      5.064750897       0.04428974847     -0.05452556717    0.1604749655      -0.08967452849    
940000000         -0.1266873777     -0.1032463014     -2.651138076      5.518329959       0.03698093484     -0.061002608      0.03911156272     -0.07453791706    
1050000000        0.07351976633     0.1240980774      -1.971708921      5.802913346       0.02884085918     -0.06295740829    -0.0818990422     -0.2436403442     
1160000000        -0.04671348631    -0.1515837163     -1.183737959      6.001149755       0.02030724292     -0.06591182458    0.003184596972    0.05140477734     
1270000000        -0.01397905964    0.1354314536      -0.4519111725     6.056961969       0.01396241296     -0.06726903467    -0.2682034904     -0.08162645669    
1380000000        0.03720955551     -0.1414009482     0.3710406898      6.021396677       0.00648456587     -0.06722440545    0.1366568724      0.07408732676     
1490000000        -0.08974867314    0.09568668902     1.035790153       5.92793918        -0.00427088578    -0.06703159543    -0.2411968251     0.1696762178      
1600000000        0.08229479194     -0.08980508894    1.847421657       5.738181333       -0.01185186622    -0.06456962827    0.1555583947      -0.1236218012     
1710000000        -0.1196036488     0.03219465166     2.472772757       5.476217614       -0.01638538207    -0.06361852596    -0.09586068172    0.293452748       
1820000000        0.09112133831     -0.02781796083    3.163413253       5.124251655       -0.02960993709    -0.05797838741    -0.002681863176   -0.1182669247     
1930000000        -0.1125905216     -0.0233034268     3.708212496       4.676782188       -0.03301438414    -0.05664915778    0.2461880678      0.2905821975      
2040000000        0.06175257638     0.01997269876     4.30833549        4.136429259       -0.0397357632     -0.04962379793    0.0068038434      -0.1515597186     
2150000000        -0.08910767734    -0.03964208812    4.774492533       3.426476589       -0.0494792232     -0.03947201038    0.3779966586      -0.08587247687    
2260000000        0.03271942213     0.03896033764     5.175028779       2.878041109       -0.04750809525    -0.03862861081    -0.05833317702    -0.2095570121     
2370000000        -0.06372745335    -0.04522967339    5.441660008       2.011374088       -0.05705650698    -0.02330624166    0.05443050129     -0.423815249      
2480000000        0.00855103787     0.03177209571     5.69373015        1.439402029       -0.05220894665    -0.03276023582    -0.3163624927     -0.1441485881     
2590000000        -0.06135347858    -0.03718002141    5.724232036       0.6312847308      -0.05995249915    -0.0008744050855  -0.409156405      -0.05398225797    
2700000000        0.007040483411    0.03534073383     5.898563097       -0.1575884041     -0.05431760215    -0.02065753235    -0.2966556709     0.2392249269      
2810000000        -0.05687999353    -0.05193116516    5.639976142       -1.003870806      -0.05912722315    0.007233400279    -0.04671093735    0.5205890659      
2920000000        0.01245657541     0.05459427088     5.674057752       -1.651096974      -0.05804778399    -0.0003107421364  0.0554642368      0.3567303418      
3030000000        -0.02070167847    -0.10204757       5.430216891       -2.234946721      -0.05692884218    0.01270593576     0.7551874577      0.3118157765      
3140000000        -0.03445103765    0.06982056797     5.106586351       -2.87687353       -0.05620103743    0.01229085895     0.2173701055      -0.1060144842     
3250000000        0.01325175446     -0.1065358296     4.677290648       -3.578608675      -0.04812298017    0.03032114257     0.7516411518      -0.7219532906     
3360000000        -0.0918784067     0.05510938168     4.386269225       -4.03178791       -0.05152289494    0.01860399166     -0.3639959992     -0.3078900628     
3470000000        0.09038223326     -0.08202560991    3.520627624       -4.667797302      -0.04340528051    0.03389939        -0.3691651359     -0.9459100539     
3580000000        -0.1437897682     0.007787729613    3.10210964        -4.991661905      -0.04361068452    0.03145422176     -0.6946304963     0.517461103       
3690000000        0.1076316386      -0.006340027787   2.324536492       -5.456246577      -0.03628460399    0.04198720676     -0.7700361364     -0.0753555103     
3800000000        -0.1591954827     -0.04379551485    1.723813666       -5.581518453      -0.03007109065    0.04206094803     0.2075880826      1.11429817        
3910000000        0.07044446468     0.07683138549     1.017237146       -5.841334955      -0.02832465863    0.04619149956     -0.1492944499     0.3710623313      
4020000000        -0.1293136328     -0.1068751961     0.03670740539     -5.877300651      -0.02070601213    0.04743900248     1.087535968       0.3515320096      
4130000000        -0.00629627984    0.1175312698      -0.6558165391     -6.026673673      -0.02394741458    0.04823522242     0.2273453952      -0.05873364701    
4240000000        -0.08552656323    -0.1359909028     -1.926501204      -5.689326929      0.003378612717    0.05264298687     0.4120328082      -0.9929456091     
4350000000        -0.109812431      0.09572025388     -2.170337472      -5.735174331      -0.008244780679   0.05288550451     -0.3700588127     -0.03292280108    
4460000000        0.008770720102    -0.1149327159     -3.055676695      -5.257532449      0.01670170726     0.05020397287     -0.469079962      -0.2989587562     
4570000000        -0.157972455      0.01556145027     -3.608362351      -4.923111947      0.001569672044    0.05355714176     -0.2301195303     0.4786489772      
4680000000        0.0398346819      -0.03063959628    -4.322067934      -4.365850539      0.03703105726     0.04104493371     0.2001217578      0.4131696599      
4790000000        -0.1319595873     -0.05324839801    -4.777861144      -3.679789999      0.01662969216     0.05200110143     0.5593386083      0.2719403226      
4900000000        0.01301985234     0.05510875583     -5.370357342      -2.928547475      0.04447568891     0.03175108107     0.7697838121      -0.5874256918     
5010000000        -0.07727751881    -0.06457272172    -5.484200194      -2.06566798       0.03535521379     0.04100393533     0.1853530064      -0.6852865233     
5120000000        -0.06859247386    0.07090298086     -5.894653266      -1.113304912      0.05051855103     0.01902830196     -0.836638447      -1.197293739      
5230000000        -0.008276669309   -0.04456359893    -5.912593208      -0.2439279424     0.04740277495     0.0269628957      -1.07129165       -0.09187039041    
5340000000        -0.1230165511     0.02217744105     -5.531359142      0.8201903799      0.05444210535     0.002541846201    -1.646022263      0.7506433488      
5450000000        0.02620957606     0.01400166936     -5.537425618      1.625000471       0.0549348174      0.007895421308    -0.1431290561     1.721897632       
5560000000        -0.1234162301     -0.07477658242    -4.88106614       2.391195049       0.0524673797      -0.009926564955   0.7156437156      1.868275004       
5670000000        0.01922843978     0.08112388849     -4.327652129      3.055730583       0.05353883369     -0.0105142708     2.284495633       0.7412742672      
5780000000        -0.04200663418    -0.1467782706     -3.802214897      3.638387443       0.04745190272     -0.02092989436    2.276828323       -0.6122015079     
5890000000        -0.04319105297    0.1243898273      -2.690770443      3.789271555       0.04266330182     -0.03108883336    1.340123104       -3.076124035      
6000000000        0.07916181535     -0.1397241503     -1.739043473      4.343050528       0.0359345014      -0.03188306686    -1.020790175      -2.689008094      
