! RsaToolbox (C) 2015 Rohde & Schwarz America
! 
! Number of points: 51
! Number of ports: 2
! Balanced ports?: No
! 
! 
# Hz S RI R 50
500000000         -0.1528740823     0.07129320502     -4.911035003      3.515290639       0.06413374392     -0.03417929177    0.08737996413     0.1020597614      
610000000         0.1518654972      -0.01960100792    -4.488163473      4.074024973       0.05979608406     -0.04283410917    0.03968038446     0.1945102774      
720000000         -0.1634407938     -0.01353800017    -3.990293678      4.561230599       0.04728398608     -0.05406717063    0.1346674691      0.01899288365     
830000000         0.1333649457      0.06205254048     -3.338915827      5.141070902       0.04454492106     -0.05590103727    0.1759972463      -0.07581442528    
940000000         -0.1270157397     -0.1057152301     -2.712758594      5.525521731       0.03811190833     -0.06055092273    0.03679411748     -0.07946597663    
1050000000        0.07374989241     0.1236445755      -2.015417564      5.77084744        0.02803958837     -0.063658891      -0.07029628172    -0.2368803365     
1160000000        -0.0480331406     -0.153140977      -1.173509644      6.024227591       0.0196279247      -0.06666350809    -0.002240394777   0.04755453827     
1270000000        -0.01364381798    0.1353974938      -0.466163204      6.019180086       0.01297045447     -0.06729385778    -0.2491540482     -0.0796765793     
1380000000        0.0388116762      -0.1429921985     0.3268544528      6.0355787         0.006460621867    -0.06790379395    0.1313582926      0.08021271184     
1490000000        -0.09011464566    0.09651745856     1.009815488       5.939660908       -0.004503904337   -0.06676165606    -0.2393275156     0.1679805311      
1600000000        0.084627904       -0.08840902895    1.767299226       5.785482961       -0.01217535142    -0.06498804369    0.1442821601      -0.1145701529     
1710000000        -0.1215865687     0.03249124438     2.44572823        5.539172131       -0.01633568716    -0.06328304586    -0.1001125055     0.2824537515      
1820000000        0.09496745467     -0.0297174789     3.218716543       5.176253524       -0.02990156929    -0.05775433389    0.01371527704     -0.1159437916     
1930000000        -0.1148851663     -0.02557902411    3.707392944       4.731265276       -0.03242031182    -0.05664093823    0.2359397319      0.2757960363      
2040000000        0.06400208175     0.02122864127     4.327925078       4.191664588       -0.03815469435    -0.04969805066    -0.0001433365265  -0.1450664574     
2150000000        -0.09141606092    -0.04222764075    4.781128357       3.518002059       -0.04927096827    -0.03883964279    0.3691246792      -0.07001030265    
2260000000        0.03351585567     0.04284228384     5.196365047       2.965243361       -0.0480726757     -0.03918162063    -0.05253181442    -0.2140793001     
2370000000        -0.06479676813    -0.04627937451    5.453225836       2.035930747       -0.0565410448     -0.02521105839    0.0418622582      -0.4036205557     
2480000000        0.00809517689     0.03421838954     5.719168416       1.43580993        -0.05189890917    -0.03238632732    -0.3015453361     -0.1564166072     
2590000000        -0.05864013359    -0.04209139198    5.805272109       0.7425572962      -0.05911238809    -0.00113309949    -0.4171711998     -0.02260431412    
2700000000        0.005216130987    0.03697418794     5.988016002       -0.1496901602     -0.05489151655    -0.02013814121    -0.3035475904     0.239751575       
2810000000        -0.05463698506    -0.05518382043    5.684112149       -0.9817829223     -0.05691968074    0.008115165485    -0.03400961153    0.5381592854      
2920000000        0.008958424442    0.05660537258     5.704217676       -1.61406008       -0.05868120766    0.0005681646115   0.06709445868     0.3378343126      
3030000000        -0.01473279763    -0.1028358117     5.454067917       -2.103573279      -0.05560926955    0.01351639354     0.7650536967      0.3228297272      
3140000000        -0.03716897219    0.06704127789     5.237163165       -2.830505619      -0.05430683339    0.01234928566     0.2015883822      -0.1144530169     
3250000000        0.01620789059     -0.1044771522     4.730186675       -3.672301348      -0.04854933749    0.02969466313     0.805109487       -0.7280875369     
3360000000        -0.09268149734    0.04904017597     4.480872005       -4.001899817      -0.05119367688    0.01870794807     -0.3865515655     -0.3067155156     
3470000000        0.09182123095     -0.07591854036    3.611967449       -4.653302916      -0.04452401644    0.03317564909     -0.3457903993     -0.9556455955     
3580000000        -0.1447594166     0.002736464841    3.220456048       -5.025246738      -0.04337411209    0.03154881078     -0.7056558925     0.5315373478      
3690000000        0.1060199961      -0.002636207966   2.455066098       -5.448321166      -0.03572683346    0.04198013897     -0.7611190591     -0.09051903631    
3800000000        -0.1563967168     -0.04830802232    1.809404475       -5.641660934      -0.02900812437    0.04179644918     0.2084783398      1.128582354       
3910000000        0.06675382704     0.08077584207     1.116247524       -5.891644199      -0.02798751625    0.04644233659     -0.1427750794     0.3778847744      
4020000000        -0.1271343529     -0.1119522005     0.164266218       -6.003031739      -0.02033106343    0.04808731587     1.117496696       0.3622902171      
4130000000        -0.01149439532    0.1172216609      -0.5723849132     -6.076834819      -0.02363746391    0.04886941469     0.2093370907      -0.08198658495    
4240000000        -0.07840330154    -0.1373242587     -1.829831486      -5.799002939      0.002934584299    0.05370033583     0.4569992041      -0.9765857697     
4350000000        -0.1180285364     0.09089842439     -2.063432021      -5.932495831      -0.008483830941   0.05246184479     -0.3864248647     -0.03057240988    
4460000000        0.01522791665     -0.1130284742     -3.010535344      -5.467783607      0.01651681065     0.05064481352     -0.4541849441     -0.302217195      
4570000000        -0.1610523164     0.01139027812     -3.618304652      -5.055085698      0.002707636461    0.05413710583     -0.2625964938     0.4990070726      
4680000000        0.04468679056     -0.02284040302    -4.31608241       -4.570194473      0.0372980011      0.04099146411     0.2188076293      0.4032761648      
4790000000        -0.1299360693     -0.06226897985    -4.803556138      -3.873908124      0.01711018227     0.0518960482      0.5569807219      0.2976954298      
4900000000        0.01306035928     0.06512517482     -5.458310133      -3.101812141      0.04561993969     0.03175888618     0.7632733854      -0.6120333356     
5010000000        -0.07395864278    -0.07121353596    -5.595079493      -2.187525336      0.03544454183     0.04129698788     0.1782078919      -0.6737893736     
5120000000        -0.07423208654    0.07638901472     -6.00807877       -1.215623837      0.05000052981     0.01959831403     -0.8640289128     -1.208823432      
5230000000        0.00213279482     -0.047728654      -6.058543461      -0.3831431286     0.04712908375     0.02656011053     -1.042727053      -0.0731368546     
5340000000        -0.1325125694     0.02264033817     -5.654928334      0.7187385577      0.05442417492     0.003201976143    -1.694238481      0.7501083676      
5450000000        0.03711175919     0.01645366289     -5.810841187      1.53544302        0.05487185861     0.00781623847     -0.1309150032     1.739393217       
5560000000        -0.1338916868     -0.0809988156     -5.106459624      2.366198027       0.05262539391     -0.01037005083    0.7118542094      1.905284563       
5670000000        0.02924932912     0.08716166019     -4.535455959      3.05930608        0.05378364087     -0.01102323596    2.311698654       0.712608458       
5780000000        -0.04874425009    -0.1570059508     -4.028857079      3.681180793       0.04694151825     -0.02117530285    2.270483882       -0.5840167827     
5890000000        -0.03922527283    0.1329996288      -2.895516814      3.822077395       0.04265011996     -0.03063295263    1.354162229       -3.090958833      
6000000000        0.07961911708     -0.1511250734     -1.890349279      4.448145493       0.03616206124     -0.03194380196    -1.010947341      -2.689764952      
