! RsaToolbox (C) 2015 Rohde & Schwarz America
! 
! Number of points: 51
! Number of ports: 2
! Balanced ports?: No
! 
! 
# Hz S RI R 50
500000000         -0.1540809274     0.06864053756     -4.955942358      3.475822994       0.06432500419     -0.03693928547    0.09607817399     0.1077427218      
610000000         0.1521612257      -0.01615034975    -4.492115856      4.039914172       0.05841028821     -0.04383012164    0.04160013338     0.1784402098      
720000000         -0.1648023576     -0.01350351144    -3.970173202      4.58601996        0.04744527135     -0.05281796677    0.1282488784      0.01007987152     
830000000         0.1329717338      0.06254994869     -3.358097354      5.077977051       0.04462827271     -0.05496922243    0.1556781785      -0.08359248329    
940000000         -0.1263743192     -0.1041302979     -2.659829154      5.506199335       0.03687279093     -0.06034616492    0.03963528449     -0.07249150595    
1050000000        0.07393925637     0.1254137158      -2.004550121      5.839897516       0.02905140769     -0.06393100768    -0.08385708073    -0.2397801126     
1160000000        -0.04638412222    -0.1520125717     -1.200932882      6.015561444       0.02038023253     -0.0665478264     0.002368074442    0.05864620523     
1270000000        -0.01391536836    0.1361853629      -0.4697122666     6.055096859       0.01357395845     -0.06785663365    -0.2597824462     -0.07320572112    
1380000000        0.03852432966     -0.1434584558     0.3442954373      6.071977366       0.006463419348    -0.06808100299    0.1353738975      0.06379226556     
1490000000        -0.09045741707    0.09697714448     1.049402637       5.967119094       -0.003537742319   -0.06745644601    -0.2403121835     0.1599293808      
1600000000        0.08441057056     -0.09081637859    1.833577732       5.778138238       -0.01154609783    -0.0649786911     0.1525156409      -0.1244633891     
1710000000        -0.1218211129     0.03261573613     2.468249511       5.525092282       -0.01743880956    -0.06338229888    -0.09636907957    0.2932493216      
1820000000        0.09220785648     -0.02798792906    3.151946223       5.152290216       -0.02872822803    -0.05752673259    0.0001415531803   -0.117587185      
1930000000        -0.1141473949     -0.02411395498    3.722259768       4.706497969       -0.03275631499    -0.05611822107    0.2450014012      0.2729557615      
2040000000        0.06351850182     0.0213888716      4.292515683       4.202861441       -0.0390891013     -0.05005975679    0.009698000229    -0.1503831449     
2150000000        -0.09049808234    -0.04095901176    4.773414989       3.455983992       -0.04916242433    -0.03911306928    0.3838016732      -0.07637318771    
2260000000        0.03309738636     0.04118795693     5.161952709       2.944962464       -0.04826219755    -0.0392204656     -0.04970331054    -0.2146815245     
2370000000        -0.06354573369    -0.04748238251    5.44842926        2.049773472       -0.05725817736    -0.02407184574    0.04639185847     -0.4200183413     
2480000000        0.007761562709    0.03430715576     5.698936935       1.471189065       -0.05107808609    -0.03242067868    -0.3016030875     -0.1537586905     
2590000000        -0.05991207808    -0.03867167607    5.765902992       0.61979792        -0.06029117767    -0.0006563433903  -0.4106472881     -0.04550747827    
2700000000        0.005131536163    0.03570770472     5.932080618       -0.1786360917     -0.05529724894    -0.02159595474    -0.2926366301     0.2456423732      
2810000000        -0.05527286977    -0.0527600497     5.646861073       -0.9977354634     -0.05922943091    0.007104012429    -0.04553471845    0.529902756       
2920000000        0.007669561077    0.05514385924     5.794423451       -1.662196083      -0.05881852894    0.0007443461294   0.04365098737     0.3546426245      
3030000000        -0.01785230823    -0.1011842862     5.469669679       -2.214716598      -0.05650410188    0.01368911418     0.750717224       0.3174334405      
3140000000        -0.03596395999    0.06835058331     5.143301423       -2.871768079      -0.0562676688     0.01197170061     0.2137213197      -0.1268120256     
3250000000        0.01672384515     -0.1048190519     4.773988819       -3.604276631      -0.04838608852    0.03079912969     0.7670875367      -0.7288953165     
3360000000        -0.09381913394    0.05165988207     4.440853726       -4.033569677      -0.05100999962    0.01861522938     -0.3634020833     -0.3176529742     
3470000000        0.09135524184     -0.07793339342    3.574352177       -4.708103444      -0.04360636275    0.0343544696      -0.3535130517     -0.9462110257     
3580000000        -0.1451432556     0.003785085166    3.177438511       -5.028589586      -0.04378070868    0.03081502553     -0.697301311      0.515718383       
3690000000        0.1072039157      -0.002676223172   2.407631437       -5.492774735      -0.03627533832    0.04232364082     -0.7646560011     -0.0871645792     
3800000000        -0.1585847139     -0.04809934273    1.804821966       -5.627380304      -0.03000611687    0.04206919608     0.2019748334      1.123565154       
3910000000        0.06686938554     0.08085305244     1.120916067       -5.904851734      -0.02822927935    0.04548235192     -0.1486935716     0.3580648303      
4020000000        -0.1268613636     -0.1088907197     0.08181598659     -5.954655177      -0.02068535328    0.04783080919     1.09426137        0.3610073517      
4130000000        -0.01167899836    0.1175557971      -0.564181198      -6.107246823      -0.02388799204    0.04790121225     0.229719225       -0.06405736943    
4240000000        -0.08017033339    -0.1375097781     -1.880265025      -5.793253357      0.003676271663    0.05265796179     0.4305751305      -0.9872277325     
4350000000        -0.1160027459     0.09204662591     -2.084373651      -5.856166171      -0.007880177111   0.05255653752     -0.3776275215     -0.03566298593    
4460000000        0.01579752378     -0.1123077273     -3.002598441      -5.398746164      0.01662343475     0.04997598208     -0.4665255477     -0.3070377396     
4570000000        -0.1627379656     0.009526651353    -3.622639935      -5.086992431      0.001889255553    0.0535716236      -0.2511021676     0.4855298686      
4680000000        0.04468230903     -0.02498623729    -4.360984481      -4.497695392      0.03672037026     0.04123827633     0.209581729       0.4094783178      
4790000000        -0.1294396371     -0.06121628731    -4.778234582      -3.830010849      0.01645115844     0.05167027775     0.5457518987      0.2773773489      
4900000000        0.01285230741     0.06318205595     -5.429098317      -3.048315724      0.04471297709     0.03163781108     0.7644491865      -0.6007428545     
5010000000        -0.07223898917    -0.07100719959    -5.5437735        -2.185617136      0.0357188156      0.04111063756     0.1969432209      -0.6615511483     
5120000000        -0.0734962672     0.07723502815     -5.956324114      -1.237386488      0.05065173734     0.01913957817     -0.8534184739     -1.216634039      
5230000000        0.0008468854357   -0.04906344041    -6.022116186      -0.3621346045     0.04698333391     0.02736861584     -1.078427014      -0.0835879542     
5340000000        -0.1325716674     0.02372281812     -5.673204652      0.6841222208      0.05408968881     0.002056026513    -1.667717751      0.746426623       
5450000000        0.03643903509     0.01429724693     -5.72485365       1.54024889        0.05494833325     0.007872092296    -0.1312783067     1.724669773       
5560000000        -0.1324722171     -0.0797085613     -5.064821994      2.339013707       0.05266107695     -0.01001635689    0.7079566198      1.886303902       
5670000000        0.02697424591     0.08593976498     -4.489108647      3.022251632       0.05355565558     -0.01025535128    2.311753168       0.7439831457      
5780000000        -0.04768062755    -0.1554901302     -3.9352           3.649035004       0.04765407884     -0.02073386579    2.282521195       -0.6097850415     
5890000000        -0.03843645751    0.132315889       -2.833702503      3.837162405       0.04299837886     -0.031360119      1.343522326       -3.080993754      
6000000000        0.07926034927     -0.1505600214     -1.870708329      4.434348199       0.03614350273     -0.0322771465     -1.01880696       -2.680463961      
