! RsaToolbox (C) 2015 Rohde & Schwarz America
! 
! Number of points: 51
! Number of ports: 2
! Balanced ports?: No
! 
! 
# Hz S RI R 50
500000000         -0.1554859132     0.06922799349     -4.996559791      3.477514353       0.06363899299     -0.03777966545    0.08839698749     0.110055476       
610000000         0.1523117572      -0.01702021062    -4.552732918      4.037984383       0.05801336528     -0.04327580106    0.03269900263     0.1697612451      
720000000         -0.1669457406     -0.01553966943    -4.023558222      4.633476498       0.04818433087     -0.05377504       0.1311472482      0.01815839339     
830000000         0.13193959        0.06292089075     -3.339784816      5.060505421       0.04547908008     -0.05373594667    0.1509022746      -0.08427808281    
940000000         -0.1274035871     -0.1019345        -2.658280597      5.527986551       0.03671330227     -0.06028968362    0.02531370822     -0.07052317451    
1050000000        0.07325986028     0.1254332364      -2.032665103      5.840244943       0.02823782692     -0.06443249185    -0.07235453857    -0.2349445212     
1160000000        -0.04805012047    -0.1531985402     -1.193879442      6.068508934       0.0192593974      -0.06637012779    0.001170532653    0.07054794604     
1270000000        -0.01416328084    0.1361156553      -0.447502346      6.053357355       0.01349712374     -0.06846076432    -0.2681106554     -0.09263488463    
1380000000        0.03849078715     -0.1425287724     0.3422804155      6.047639234       0.006010984706    -0.06779854824    0.1335633998      0.08436379743     
1490000000        -0.09035138041    0.09665704519     0.993416164       5.99628272        -0.003110355165   -0.06648267592    -0.2410967969     0.1667450806      
1600000000        0.08586417884     -0.09054177254    1.812249195       5.879251945       -0.01088547471    -0.06426804976    0.1472298641      -0.1263454853     
1710000000        -0.1232408434     0.0321246013      2.457972382       5.57134957        -0.01630531902    -0.06345085174    -0.09487481215    0.2836120345      
1820000000        0.09470597655     -0.02659626491    3.110813201       5.186687202       -0.02920948908    -0.05751860513    0.005652647657    -0.1125657723     
1930000000        -0.114543058      -0.02509204857    3.690281633       4.729360283       -0.03213488864    -0.05606432241    0.2268087845      0.2890395411      
2040000000        0.06364902109     0.02088469639     4.307717201       4.176285241       -0.039231497      -0.04975325926    -0.000775278052   -0.140688982      
2150000000        -0.0891321376     -0.0421035327     4.737072915       3.484542265       -0.0501364802     -0.03973582117    0.3688783374      -0.1042824323     
2260000000        0.03433737531     0.04175480828     5.179388818       2.965064544       -0.04789789134    -0.03926113012    -0.02655923853    -0.2262530608     
2370000000        -0.06417224556    -0.04974884912    5.469787735       2.100017004       -0.05733905261    -0.02536543184    0.04823775564     -0.4193178587     
2480000000        0.008567434736    0.03498186171     5.747534989       1.539973229       -0.05164956331    -0.03225346738    -0.2909224411     -0.1496867664     
2590000000        -0.06096524745    -0.03847299889    5.783046942       0.670943012       -0.06054073797    -0.00128521149    -0.3970984034     -0.02175397647    
2700000000        0.00332933967     0.03722029179     6.046734807       -0.1878449193     -0.05382851713    -0.02372448852    -0.2856388281     0.235671623       
2810000000        -0.05261839181    -0.05339998007    5.613572996       -1.046565417      -0.05629454821    0.007817806322    -0.03250697321    0.5356702754      
2920000000        0.007971666753    0.0562119633      5.737796587       -1.571323499      -0.05700362304    -5.635218166e-05  0.03794693785     0.3200089173      
3030000000        -0.01669371128    -0.101654157      5.527354075       -2.19776749       -0.05722021259    0.01115749941     0.7869156273      0.2946143243      
3140000000        -0.03613520041    0.06737550348     5.161091741       -2.874146897      -0.05596027341    0.01312737124     0.1985412909      -0.1194363025     
3250000000        0.01758654043     -0.1046113968     4.713963833       -3.581503563      -0.04743860761    0.02986480628     0.7670958805      -0.7239609459     
3360000000        -0.09364892542    0.0508977659      4.494756151       -4.0420913        -0.05224093759    0.02121602627     -0.3710716916     -0.3021217391     
3470000000        0.09135846049     -0.0761429444     3.648650687       -4.632044978      -0.04369093829    0.03414310264     -0.356440055      -0.9619130015     
3580000000        -0.1421883851     0.004333361983    3.156005671       -5.041223452      -0.04296025686    0.03173609231     -0.7048397466     0.5564918041      
3690000000        0.1073981375      -0.0008732435526  2.508054689       -5.51954625       -0.03611497026    0.04248410893     -0.7836486774     -0.08956179651    
3800000000        -0.1580861658     -0.04717349261    1.828255005       -5.656182367      -0.03021594764    0.04156801585     0.2008688055      1.138471915       
3910000000        0.0683349669      0.08005364984     1.077764478       -5.919683357      -0.02927683481    0.04685193442     -0.1689239363     0.3563242621      
4020000000        -0.1251159012     -0.1107520089     0.1667423706      -5.980457467      -0.02102398343    0.04740158289     1.112832598       0.3923463518      
4130000000        -0.01301908493    0.1181893572      -0.5538761245     -6.14805485       -0.02329672344    0.04876759278     0.2071260868      -0.06770058687    
4240000000        -0.07834873348    -0.1391503364     -1.833069949      -5.864379496      0.002924987142    0.05219994234     0.4506333964      -0.9860518242     
4350000000        -0.1184860766     0.09012314677     -2.023509214      -5.917871704      -0.008489726704   0.05191029273     -0.3970524162     -0.03873280751    
4460000000        0.01741948724     -0.1133342907     -2.970633669      -5.477653505      0.01724214461     0.0505233725      -0.458026773      -0.3174705307     
4570000000        -0.1622046977     0.007635616697    -3.608274868      -5.117835031      0.001604957651    0.05414689844     -0.2617382539     0.5033961102      
4680000000        0.04372587055     -0.02276613191    -4.304257906      -4.522173774      0.0365572856      0.04211593287     0.207248832       0.402282479       
4790000000        -0.1283594221     -0.06137806922    -4.780718858      -3.858072138      0.016870879       0.05166922519     0.548762743       0.2942829942      
4900000000        0.01204530057     0.0641675964      -5.410110321      -3.093960663      0.04483992118     0.03259493188     0.7845561462      -0.6121046699     
5010000000        -0.07140740752    -0.07180665433    -5.540591563      -2.263355504      0.03547549105     0.04175168797     0.1942728098      -0.681466167      
5120000000        -0.07636395097    0.07709750533     -6.007806048      -1.302535903      0.0508173506      0.01918498885     -0.8827529735     -1.207297413      
5230000000        0.001749788411    -0.04917895049    -6.115483446      -0.3371494249     0.04836686088     0.02699231282     -1.052135769      -0.08920139804    
5340000000        -0.1342478395     0.02358782478     -5.687387066      0.7100159002      0.0543782043      0.003236754907    -1.676562487      0.7733280906      
5450000000        0.03775960952     0.01418154221     -5.755429172      1.557673854       0.0546058926      0.00732373935     -0.1319599303     1.713579649       
5560000000        -0.1312250793     -0.07886498421    -5.016550964      2.33354186        0.05224145007     -0.009124604493   0.7071373631      1.898664744       
5670000000        0.02944269031     0.08943832666     -4.532869187      3.062119548       0.05342723843     -0.01144508998    2.322046158       0.7245834897      
5780000000        -0.04770676419    -0.1597666293     -4.024416583      3.663054638       0.0473575626      -0.02057593769    2.281143481       -0.6208763323     
5890000000        -0.03930492699    0.1350153834      -2.865976053      3.848091673       0.04309252593     -0.03099690682    1.320108296       -3.110723429      
6000000000        0.079697676       -0.1534688473     -1.902645345      4.444906113       0.03537078243     -0.03160817746    -1.005827112      -2.701393802      
