! RsaToolbox (C) 2015 Rohde & Schwarz America
! 
! Number of points: 51
! Number of ports: 2
! Balanced ports?: No
! 
! 
# Hz S RI R 50
500000000         -0.1553047299     0.06737748533     -5.007562994      3.447288895       0.06398127011     -0.03810936605    0.09228295407     0.1150951876      
610000000         0.1542923152      -0.01644974388    -4.560075619      4.065799513       0.06040508887     -0.04406847551    0.04728800602     0.1693991909      
720000000         -0.1646441668     -0.01576932147    -4.007818575      4.588255892       0.04622323574     -0.05347372547    0.13250507        0.0220057143      
830000000         0.1325246841      0.06226961315     -3.334309383      5.097010262       0.04574104678     -0.05604294477    0.1726266384      -0.09127806316    
940000000         -0.1284353882     -0.1056721807     -2.701637546      5.570472987       0.03648092958     -0.06061270762    0.04465509054     -0.06571540997    
1050000000        0.07644486427     0.1244801283      -1.979412668      5.876521811       0.02822198555     -0.06250084287    -0.07149944982    -0.2455029575     
1160000000        -0.04747005925    -0.1534292698     -1.198006395      6.068297667       0.02124252682     -0.06692968977    0.002499494499    0.06592378961     
1270000000        -0.0144259287     0.1379851848      -0.4888083383     6.122884736       0.01318993237     -0.06827221354    -0.2393789183     -0.09723572886    
1380000000        0.03966527432     -0.1437053233     0.2941693449      6.091977325       0.006034569825    -0.06614578616    0.1206999979      0.07874182143     
1490000000        -0.09133072197    0.09679244459     0.9836425036      5.977363136       -0.003254797049   -0.06668991899    -0.2309587788     0.1627836677      
1600000000        0.0840492174      -0.08991380036    1.788159352       5.818626756       -0.01116945084    -0.06488992047    0.1606142805      -0.09847194573    
1710000000        -0.1215818822     0.03126247972     2.43305552        5.516879937       -0.0157248273     -0.06321167811    -0.1205995261     0.2816238431      
1820000000        0.09404937923     -0.02776431106    3.183114637       5.161836985       -0.02876624354    -0.05656496604    0.01561219783     -0.1081213065     
1930000000        -0.1140986979     -0.02517144009    3.69204296        4.751320596       -0.03242417389    -0.0556591378     0.2489475048      0.2824311571      
2040000000        0.06167795882     0.02351805568     4.241589923       4.19669302        -0.03944650065    -0.05079456751    0.005744712671    -0.1587844516     
2150000000        -0.09162802249    -0.04038994014    4.79165662        3.442029549       -0.04944422132    -0.0389686512     0.3662451271      -0.06825016699    
2260000000        0.03352126107     0.04146273807     5.213035339       2.921356919       -0.04857985973    -0.03968582797    -0.05008834755    -0.2114453952     
2370000000        -0.06339767575    -0.04823764041    5.520219775       2.155670079       -0.05829439946    -0.024911102      0.04157353071     -0.4128723791     
2480000000        0.007993621752    0.03681532294     5.732043944       1.553168307       -0.05116312488    -0.03213232808    -0.3191654746     -0.1649930907     
2590000000        -0.06230418384    -0.03952999413    5.782442966       0.6598018194      -0.0596972446     0.0002577266438   -0.3957586252     -0.03835556133    
2700000000        0.002975429641    0.03651207685     5.930035412       -0.09032165151    -0.05562929196    -0.02382768419    -0.3074133761     0.2389109434      
2810000000        -0.0529281646     -0.05721339583    5.733956062       -0.9066723814     -0.06151634101    0.005076725029    -0.06722146616    0.5537140159      
2920000000        0.005816322286    0.0545909442      5.829896593       -1.609130875      -0.05833255301    -0.001071593975   0.06101076082     0.3601313954      
3030000000        -0.0139186997     -0.09996329993    5.384095214       -2.084708333      -0.05929492459    0.01306166755     0.7624441754      0.3222428631      
3140000000        -0.03894164786    0.0659987852      5.19746341        -2.847182244      -0.05669162746    0.01407056838     0.1861572896      -0.09938017005    
3250000000        0.01556038391     -0.1041616946     4.772217526       -3.647048199      -0.0498165998     0.03152145411     0.7773624462      -0.7148728002     
3360000000        -0.09456428885    0.04945617914     4.485001902       -4.008206268      -0.05185819995    0.01995095411     -0.3793109453     -0.2727736095     
3470000000        0.09279508144     -0.07668630779    3.614760155       -4.688035094      -0.04302628843    0.03489301989     -0.3432396247     -0.9800546491     
3580000000        -0.1450268626     0.001308272826    3.199704798       -5.029854189      -0.04451150041    0.0313926878      -0.709126069      0.5340459527      
3690000000        0.1067686528      -0.002354364377   2.420350931       -5.565626547      -0.03727779525    0.0416787467      -0.7581562654     -0.09649234628    
3800000000        -0.1582468003     -0.04956619814    1.843499609       -5.659855365      -0.0300580948     0.04155844101     0.215329326       1.146066602       
3910000000        0.06476722658     0.08048696816     1.165271711       -5.908166951      -0.02787082501    0.04687494729     -0.1634569751     0.3546582398      
4020000000        -0.1242259964     -0.1098119169     0.1576684011      -5.945582846      -0.02127541675    0.04752017968     1.112662732       0.3621964878      
4130000000        -0.01204517391    0.1179835796      -0.5810510983     -6.15445439       -0.02428667623    0.04854241411     0.2122979243      -0.06527861164    
4240000000        -0.07983928919    -0.1375691742     -1.857362347      -5.820835125      0.003230432741    0.05319037413     0.4395843893      -0.9848429371     
4350000000        -0.1164675131     0.09129850566     -2.096938744      -5.889764056      -0.007938033309   0.05260886306     -0.4037090202     -0.02989814325    
4460000000        0.01585842669     -0.1111977324     -2.969635324      -5.423988484      0.01735123943     0.0506259295      -0.4547154077     -0.3055940332     
4570000000        -0.1601800621     0.01044558268     -3.601875213      -5.050517871      0.001610566115    0.05329235112     -0.2389786607     0.4949804149      
4680000000        0.04398075491     -0.02354858071    -4.337998843      -4.539054567      0.0369214409      0.04147984783     0.1927733112      0.394176383       
4790000000        -0.1310650259     -0.06274218857    -4.839827083      -3.850905432      0.01721188524     0.05131772587     0.5682770665      0.2907974453      
4900000000        0.01162190922     0.06487247348     -5.420223215      -3.159259004      0.04529775413     0.03140686172     0.7464082239      -0.6118491574     
5010000000        -0.07353294641    -0.07292285562    -5.585858761      -2.211734026      0.03650208451     0.04163595572     0.2062819978      -0.6638989747     
5120000000        -0.07606949657    0.07920719683     -6.032355673      -1.277304385      0.05078098464     0.01915863236     -0.8997657042     -1.2122916        
5230000000        0.001861795201    -0.05112798885    -6.117896893      -0.3927228419     0.04696538613     0.02667826455     -1.042087547      -0.09837880525    
5340000000        -0.1326630563     0.02328411303     -5.717650866      0.7121319307      0.05437681753     0.003125684059    -1.688007019      0.7662311731      
5450000000        0.03921377659     0.01479743421     -5.750237834      1.519440704       0.05519914015     0.007756907906    -0.1171151699     1.724015656       
5560000000        -0.1325279772     -0.08123017102    -5.049667676      2.26982471        0.05289006961     -0.01029185241    0.7256333062      1.897780336       
5670000000        0.02744451351     0.08721419424     -4.553293512      2.992846155       0.05344673899     -0.008982688702   2.295877947       0.7258426655      
5780000000        -0.04917958379    -0.1582469493     -4.007983395      3.699591989       0.04820060744     -0.02141907265    2.297874101       -0.6086000202     
5890000000        -0.03862070665    0.1325661987      -2.856678595      3.826422918       0.04352949243     -0.03168359411    1.300268979       -3.117775268      
6000000000        0.0789013356      -0.1503617316     -1.929738446      4.449332376       0.03676230546     -0.03268695787    -1.015730031      -2.720619663      
