! RsaToolbox (C) 2015 Rohde & Schwarz America
! 
! Number of points: 51
! Number of ports: 2
! Balanced ports?: No
! 
! 
# Hz S RI R 50
500000000         -0.1546009779     0.06777211279     -4.95177037       3.439424154       0.06405269444     -0.03660734741    0.09145592005     0.1060958663      
610000000         0.1522292346      -0.01757419668    -4.498804104      4.070907736       0.05880595063     -0.04388047503    0.03968906129     0.1742941761      
720000000         -0.164011687      -0.01309382636    -3.950074095      4.57962723        0.04762458073     -0.05342728039    0.1315874159      0.02565799542     
830000000         0.1315698922      0.06265895069     -3.327026176      5.069111412       0.0448321344      -0.05533154385    0.1593361376      -0.09209823911    
940000000         -0.1274831146     -0.1043906137     -2.65952658       5.530649205       0.03683952314     -0.06062933065    0.03713811224     -0.07690823307    
1050000000        0.07381877303     0.1249096543      -2.012250491      5.815356287       0.02889263496     -0.0634962138     -0.08156767912    -0.2429078018     
1160000000        -0.04707747325    -0.1525543481     -1.197513461      6.01960417        0.02027413087     -0.06630789914    0.01240594691     0.05553493721     
1270000000        -0.01403318625    0.1360194683      -0.4716937763     6.042924578       0.01369238076     -0.0674547418     -0.2592527198     -0.08081646473    
1380000000        0.03746551648     -0.1424126625     0.3507902319      6.052835009       0.006445438742    -0.06819331347    0.1350549817      0.06842279422     
1490000000        -0.09053826332    0.09618858248     1.021314346       5.958966518       -0.003196657229   -0.06733206893    -0.2406476004     0.1636851513      
1600000000        0.08338093758     -0.09005738795    1.823198348       5.779575073       -0.01158338519    -0.0642627099     0.1604092333      -0.1244393035     
1710000000        -0.1204178557     0.03234128281     2.459486466       5.49559497        -0.01646127194    -0.06357884095    -0.09627504249    0.2899213879      
1820000000        0.09171245992     -0.02775199898    3.143142307       5.144000229       -0.02954282631    -0.05788406601    -5.067935235e-05  -0.1233521567     
1930000000        -0.1137660369     -0.02392311767    3.682802644       4.70044162        -0.0322732149     -0.0561101596     0.2462812791      0.2840089982      
2040000000        0.06232887879     0.02090299502     4.310755134       4.16727281        -0.03905965391    -0.04985323755    0.005764656417    -0.154516498      
2150000000        -0.09055636823    -0.04054186866    4.783793881       3.43348165        -0.04937930722    -0.03905810661    0.3816298821      -0.08669878493    
2260000000        0.03264654428     0.04073612019     5.156475584       2.91750761        -0.04847180979    -0.03884061062    -0.05512771887    -0.2060211339     
2370000000        -0.06374432147    -0.04631787166    5.478418576       2.02563676        -0.05718251112    -0.02427588001    0.05639280609     -0.4235383019     
2480000000        0.007949901745    0.0335213989      5.687052931       1.432155055       -0.05114308745    -0.03233610994    -0.3103808312     -0.1396747165     
2590000000        -0.06091918796    -0.03927326575    5.749092698       0.6350227928      -0.0607999734     -0.0005652668679  -0.4030310717     -0.05143336936    
2700000000        0.006189287174    0.03619749844     5.926708387       -0.1487730714     -0.05510075174    -0.02212720095    -0.292974493      0.239216617       
2810000000        -0.05572705716    -0.05341023579    5.671770499       -1.005078063      -0.05925335947    0.007133954266    -0.04868461848    0.5242487978      
2920000000        0.009920504875    0.05605060607     5.741132732       -1.644156844      -0.05824044139    0.0004018469256   0.0559736646      0.3493354687      
3030000000        -0.01829263754    -0.102543287      5.478530331       -2.231063494      -0.05749269693    0.01274980654     0.7544547709      0.3231502275      
3140000000        -0.03701492772    0.0680565089      5.169655431       -2.864766883      -0.05482371684    0.01257994002     0.2127061259      -0.109696681      
3250000000        0.01573239081     -0.105211705      4.730864          -3.582480331      -0.04833639423    0.02939680132     0.7562565496      -0.722200345      
3360000000        -0.09305335581    0.05176605284     4.440033345       -4.031791586      -0.05122563515    0.01829782046     -0.3706766047     -0.3061091594     
3470000000        0.09165334702     -0.07864268869    3.583411176       -4.683594693      -0.04345691867    0.03392352976     -0.3667414989     -0.9449757781     
3580000000        -0.1454590708     0.004385363776    3.163482959       -5.02912913       -0.04374328079    0.03125079001     -0.7029053124     0.5181942556      
3690000000        0.1074929461      -0.003697431646   2.372194322       -5.47486581       -0.03657028264    0.04140322613     -0.7701884818     -0.07966261991    
3800000000        -0.1585130543     -0.04711390287    1.772356509       -5.608410526      -0.02999777254    0.04190933449     0.2022068732      1.118751883       
3910000000        0.06750760972     0.07919155061     1.066913976       -5.875056958      -0.02860254198    0.04602523323     -0.1445505262     0.3658745354      
4020000000        -0.1261582971     -0.1094958037     0.1042304013      -5.922175798      -0.02062608235    0.04757306428     1.088146323       0.3603419451      
4130000000        -0.01084756106    0.1177222729      -0.571314925      -6.075698518      -0.02362404783    0.04826446991     0.2248236378      -0.06213215634    
4240000000        -0.08083904535    -0.1372245848     -1.873414145      -5.758354483      0.003162532259    0.05252974701     0.4201495612      -0.9868955393     
4350000000        -0.1149409711     0.09326868504     -2.133609054      -5.819554703      -0.008098511065   0.0527185782      -0.3769521095     -0.03948416875    
4460000000        0.01335879881     -0.1136426702     -3.032371636      -5.356832285      0.01681937937     0.05008403857     -0.461766245      -0.2938117503     
4570000000        -0.1612135917     0.01067079231     -3.612615479      -5.023160697      0.001868132019    0.05362587403     -0.2489043489     0.4792090245      
4680000000        0.04350490496     -0.0258402098     -4.307781628      -4.495610292      0.03693509956     0.04103473861     0.2134510465      0.4122133149      
4790000000        -0.1296121925     -0.05979342014    -4.763217175      -3.771157274      0.01672712733     0.05223286193     0.5589533347      0.2809022147      
4900000000        0.01287584007     0.06136472896     -5.403011898      -3.016024182      0.0447871428      0.03219396882     0.7720778284      -0.5890837502     
5010000000        -0.07376589626    -0.07008522749    -5.527057332      -2.158367018      0.03587589224     0.04075057355     0.1800233782      -0.6770130836     
5120000000        -0.07266077399    0.07619793713     -5.93637494       -1.196821715      0.05048771906     0.0194361931      -0.8360444325     -1.203200817      
5230000000        -0.0009789746255  -0.04881701246    -6.024430314      -0.3313100635     0.04706323589     0.02678151506     -1.068603803      -0.07752009002    
5340000000        -0.130445689      0.02414689399     -5.609704157      0.7505647142      0.05444674129     0.002365610727    -1.654491485      0.7412614696      
5450000000        0.03465232998     0.01404606365     -5.669753554      1.593882852       0.05482376946     0.007446024821    -0.1346358265     1.719995067       
5560000000        -0.1315039545     -0.07774391025    -5.007907303      2.356684052       0.05239113982     -0.009908966733   0.6996527602      1.872154196       
5670000000        0.02622358501     0.08517303318     -4.473762413      3.036355235       0.05317957965     -0.01039095499    2.293596991       0.729847492       
5780000000        -0.04715950415    -0.1547544152     -3.946844905      3.665903764       0.04757775431     -0.02101927719    2.275269426       -0.6086539898     
5890000000        -0.03897885606    0.1308676302      -2.800518812      3.820173144       0.04342656366     -0.0310844013     1.356542483       -3.095527041      
6000000000        0.0789359659      -0.148542434      -1.859778492      4.414623472       0.03595230116     -0.03160036218    -1.025855144      -2.679174947      
