! RsaToolbox (C) 2015 Rohde & Schwarz America
! 
! Number of points: 51
! Number of ports: 2
! Balanced ports?: No
! 
! 
# Hz S RI R 50
500000000         -0.1543764621     0.06727813184     -4.961744118      3.441042789       0.06472333136     -0.03718306874    0.08723462252     0.1004653456      
610000000         0.1523332894      -0.01687447168    -4.521646526      4.075340214       0.05878852645     -0.04272904478    0.03375341637     0.1636187389      
720000000         -0.1636371613     -0.01382182166    -3.960006516      4.576138728       0.04746890849     -0.05282425161    0.1316740318      0.01961720502     
830000000         0.1320754737      0.06302057952     -3.329135385      5.084278523       0.04434937864     -0.05511413088    0.1594102237      -0.09158047702    
940000000         -0.1273675561     -0.1052898243     -2.698813664      5.520050539       0.03696616302     -0.06063671029    0.04437184278     -0.07211341366    
1050000000        0.07388205081     0.1251550913      -2.007147301      5.828517492       0.02869565887     -0.06338233328    -0.07581192209    -0.236290841      
1160000000        -0.04626626894    -0.1526412219     -1.212736314      6.017100389       0.02018120588     -0.06618512552    0.006126885594    0.05458438197     
1270000000        -0.01407289784    0.1363202631      -0.4569354608     6.068067319       0.01330364385     -0.06764641798    -0.2625560315     -0.07897187077    
1380000000        0.03881856427     -0.1422903091     0.3416781878      6.050792755       0.006431048944    -0.06758230917    0.1315141957      0.06971633124     
1490000000        -0.09064083546    0.09639510512     1.010287432       5.944554413       -0.003527897697   -0.06686010065    -0.2358238203     0.1638791209      
1600000000        0.08400861919     -0.09116803855    1.839618948       5.797388642       -0.01141248214    -0.06465897077    0.1567046545      -0.1238234987     
1710000000        -0.1211268306     0.03297077119     2.468854173       5.51500454        -0.01650118396    -0.06381021072    -0.102724103      0.2909565962      
1820000000        0.09219284356     -0.02826955169    3.185115314       5.125572229       -0.02865083909    -0.05761923248    -0.002252039009   -0.1203125301     
1930000000        -0.1138700619     -0.02390554361    3.702499885       4.71348581        -0.03236836258    -0.0558624199     0.2393019091      0.2835654982      
2040000000        0.0636414066      0.02118192241     4.343901085       4.1998402         -0.03968091799    -0.04992083125    0.007705648176    -0.1502450021     
2150000000        -0.09040548652    -0.0406565927     4.782009157       3.434094241       -0.0497108182     -0.03907437714    0.3772538406      -0.08678887445    
2260000000        0.03340884671     0.04051598534     5.192757216       2.905472872       -0.04874832695    -0.03920893785    -0.05597422598    -0.2157716301     
2370000000        -0.06429498643    -0.04722747952    5.462700285       2.047570113       -0.05700540514    -0.02408767028    0.04201315969     -0.4210047024     
2480000000        0.008208652958    0.03355585411     5.702060895       1.440110999       -0.05132821714    -0.03245955441    -0.3117356346     -0.1490613932     
2590000000        -0.06035069004    -0.03946152702    5.752088948       0.6480362692      -0.06064316089    -0.0009698620621  -0.4147420928     -0.05081596957    
2700000000        0.004961707164    0.03601755202     5.941111063       -0.1079698882     -0.05556919139    -0.02169726308    -0.2830262163     0.2367005668      
2810000000        -0.05488331616    -0.05301674828    5.656548862       -1.006826491      -0.05946189442    0.007462212388    -0.03684857464    0.521687532       
2920000000        0.009597786702    0.05483389646     5.748280883       -1.596352978      -0.05754015101    -0.000445932587   0.05668156081     0.343200295       
3030000000        -0.01888035797    -0.1022602469     5.501918285       -2.221890684      -0.0559839109     0.01254553039     0.7448901748      0.3247674615      
3140000000        -0.03571746126    0.06752052158     5.120358365       -2.871156486      -0.05594522149    0.01238820188     0.2214441113      -0.1088154575     
3250000000        0.01448566746     -0.1062345058     4.750594784       -3.629701612      -0.04904835717    0.030165823       0.7520217792      -0.7191439243     
3360000000        -0.09243448824    0.05208997056     4.426447218       -4.018420005      -0.05096024148    0.01899616416     -0.3634169475     -0.310087581      
3470000000        0.09141556919     -0.0786011368     3.563970509       -4.685863926      -0.04307714749    0.03389663075     -0.3613990125     -0.9438460994     
3580000000        -0.1446700692     0.003458453109    3.162524553       -4.99704139       -0.04384252188    0.03131024369     -0.6998847627     0.519024467       
3690000000        0.1068696007      -0.003482385306   2.372466101       -5.471819588      -0.03625765701    0.04161689192     -0.7707411199     -0.08044926378    
3800000000        -0.1586425304     -0.04659588635    1.770479009       -5.621019309      -0.03028267882    0.04207453593     0.2102111253      1.124036073       
3910000000        0.06789768487     0.07902023941     1.072157154       -5.869293163      -0.02806689056    0.04649920905     -0.1441254801     0.3627853751      
4020000000        -0.1259894371     -0.1087547839     0.09999957231     -5.909446036      -0.02092024768    0.04773103705     1.101547632       0.3588482554      
4130000000        -0.01044937037    0.1180884838      -0.6011287159     -6.09140475       -0.02434571201    0.04817251764     0.2245007009      -0.06271228431    
4240000000        -0.08130439371    -0.1373424977     -1.892134459      -5.767010327      0.003534509117    0.05249886086     0.4128116392      -0.9895410306     
4350000000        -0.1149155125     0.0926759541      -2.117505366      -5.826776562      -0.007993604559   0.05278334511     -0.3711284376     -0.04624989079    
4460000000        0.0142987268      -0.1132722646     -3.011684042      -5.370252231      0.01660247975     0.05016535124     -0.4626410598     -0.2963577096     
4570000000        -0.1612213105     0.01027872507     -3.59979271       -5.019235018      0.001713560329    0.05364427652     -0.2402867848     0.4782425435      
4680000000        0.04482464492     -0.02539804205    -4.312059112      -4.496863323      0.03707072851     0.04094323552     0.2063359329      0.4104252418      
4790000000        -0.129573226      -0.05974288285    -4.755736273      -3.784223681      0.01673058713     0.05227262443     0.555579315       0.2778131417      
4900000000        0.01241900399     0.06172011048     -5.394853585      -3.032011528      0.04470298441     0.03170207985     0.7683599195      -0.5983109818     
5010000000        -0.07315519452    -0.06968519092    -5.505467674      -2.166417205      0.03521527364     0.04066038187     0.1812278173      -0.6680187933     
5120000000        -0.0742693767     0.07664301246     -5.969820619      -1.209708999      0.05071737943     0.01935719463     -0.838744468      -1.209567447      
5230000000        -0.001585595426   -0.04874332249    -6.031937123      -0.3439978805     0.04719724707     0.02687324867     -1.068854689      -0.08279088204    
5340000000        -0.1309139729     0.02521068975     -5.650183069      0.749892684       0.0543356123      0.002426372595    -1.656553279      0.7453511074      
5450000000        0.03487411141     0.01467067469     -5.687444739      1.575213142       0.05456726058     0.007865847911    -0.136020738      1.725389612       
5560000000        -0.1310748458     -0.07829227298    -5.020064516      2.357961046       0.05249784706     -0.01018894943    0.7125986574      1.879074616       
5670000000        0.02664345689     0.08558901399     -4.475398181      3.039277331       0.05294388933     -0.01105306926    2.294285415       0.7400021079      
5780000000        -0.04767307267    -0.1544487327     -3.932930404      3.666334657       0.04741085711     -0.02120533691    2.276512201       -0.6030397896     
5890000000        -0.03895352036    0.1309889406      -2.809996002      3.823670249       0.04312360926     -0.03135200215    1.355379876       -3.104587601      
6000000000        0.07920271903     -0.1485082656     -1.869435365      4.411190503       0.03591307722     -0.03167991533    -1.020685098      -2.679832192      
