! RsaToolbox (C) 2015 Rohde & Schwarz America
! 
! Number of points: 51
! Number of ports: 2
! Balanced ports?: No
! 
! 
# Hz S RI R 50
500000000         -0.1521972567     0.06608167291     -4.911428183      3.431122418       0.0642675842      -0.03742005538    0.07975197594     0.1052680011      
610000000         0.1499796212      -0.01698630117    -4.460759001      4.057748736       0.05880140837     -0.04340868499    0.04015434812     0.1772316181      
720000000         -0.1614292115     -0.0136572076     -3.936694055      4.587666693       0.0473399433      -0.05381524531    0.1296359286      0.02361097521     
830000000         0.1297569573      0.0617088899      -3.315223788      5.088907124       0.04432257568     -0.05567114711    0.1612345294      -0.08982524321    
940000000         -0.1250793338     -0.1020223871     -2.604411075      5.464800375       0.03697207751     -0.06038423093    0.03914005635     -0.07360564659    
1050000000        0.07272224128     0.1227915064      -1.908888279      5.62619284        0.02884145497     -0.06386214778    -0.08366204488    -0.243338884      
1160000000        -0.04605103284    -0.1493698806     -1.110513961      5.605753828       0.01973839215     -0.06614486042    0.006227898527    0.05171464315     
1270000000        -0.01381765958    0.1331389099      -0.4524063776     5.734233201       0.01367020979     -0.06674079914    -0.2637351414     -0.08074879907    
1380000000        0.03645320237     -0.1390807629     0.3439407519      5.783177097       0.005868448675    -0.06726804061    0.1319635343      0.06744930908     
1490000000        -0.08787655085    0.09375135601     1.04460307        5.486418915       -0.003487064944   -0.06715182556    -0.239852205      0.1688065733      
1600000000        0.0802135244      -0.08874875307    1.811523877       5.573062621       -0.01144597048    -0.06501242405    0.1579669578      -0.1226308936     
1710000000        -0.1170805469     0.03151080757     2.357156091       5.227042252       -0.01694715601    -0.06347285689    -0.0955373475     0.2943302417      
1820000000        0.08752612025     -0.02864562906    2.90285349        4.539371117       -0.02955165098    -0.05740166756    -0.001620874193   -0.1216152699     
1930000000        -0.1091001555     -0.02196639031    3.336418008       4.199072216       -0.03248390247    -0.05614229148    0.2450090127      0.2872156531      
2040000000        0.05889903754     0.01733960584     4.293277007       4.069673574       -0.0394160122     -0.04923499331    0.004870045065    -0.1532523776     
2150000000        -0.08646312356    -0.03662869334    4.779767546       3.359717238       -0.04972602087    -0.0392552201     0.3789378486      -0.08370512576    
2260000000        0.0315826796      0.03448126465     5.21021906        2.822479425       -0.04844534018    -0.03910601561    -0.05649729317    -0.2102304838     
2370000000        -0.06275571883    -0.04005514085    5.475587613       1.963435017       -0.05749638318    -0.02436660628    0.05390813116     -0.4230119948     
2480000000        0.01078967005     0.02675451525     5.693095514       1.380631464       -0.05109916528    -0.03258473579    -0.3146889158     -0.1479027591     
2590000000        -0.0625359118     -0.03088571131    5.622905832       0.5680219933      -0.0606748574     -0.001147374818   -0.4041531328     -0.05119863404    
2700000000        0.01260844339     0.03165732324     5.791066799       -0.2087372366     -0.05485171304    -0.02155123683    -0.2961116008     0.2412061053      
2810000000        -0.06142346933    -0.04627812654    5.542354258       -1.038472523      -0.05842901929    0.007101247214    -0.04470999832    0.5154009751      
2920000000        0.02015827037     0.05264906958     5.589295207       -1.704588255      -0.05804179532    -0.0002683282895  0.05114795577     0.3571890472      
3030000000        -0.02739736624    -0.1026827991     5.334915115       -2.274159281      -0.05689901053    0.01196416013     0.7550208532      0.312612695       
3140000000        -0.02616352588    0.07343652844     5.014452443       -2.920375938      -0.05511743826    0.01211632147     0.2147594838      -0.1046600989     
3250000000        0.004350109957    -0.1115222052     4.564529903       -3.648535068      -0.04796855331    0.02946979588     0.7566917239      -0.7265984461     
3360000000        -0.08566115797    0.06529073417     4.259328323       -4.085330335      -0.05101728189    0.01856488068     -0.3599222284     -0.3101340582     
3470000000        0.08599891514     -0.09334737808    3.38311895        -4.708061127      -0.04250774444    0.03399054521     -0.3711708355     -0.9488681062     
3580000000        -0.1430739462     0.01954469271     2.956807825       -4.987734659      -0.04360234117    0.03115420405     -0.6921993148     0.5166970111      
3690000000        0.1107826605      -0.02061656304    2.148202882       -5.40465835       -0.03593618396    0.04151151733     -0.7709191398     -0.07611414251    
3800000000        -0.1642522514     -0.03128150105    1.499810167       -5.271993693      -0.02985117314    0.04213422897     0.2067764372      1.110579556       
3910000000        0.08412453532     0.06532194465     0.8123158477      -5.652631231      -0.02816110949    0.04624271269     -0.1472541083     0.3666619571      
4020000000        -0.1414551586     -0.09679416567    -0.1112051243     -5.694247775      -0.02111724328    0.04728629417     1.092420121       0.3529694427      
4130000000        0.01522248983     0.1157825291      -0.8085736414     -5.706338113      -0.02488962033    0.04781785909     0.2253562811      -0.0582661799     
4240000000        -0.1053820029     -0.1299072653     -2.039324027      -5.389488591      0.003085661448    0.05235755191     0.4138284635      -0.9908861258     
4350000000        -0.08293553442    0.1115854308      -2.17434277       -5.101566843      -0.008590337895   0.05284716592     -0.3685827057     -0.03806662039    
4460000000        -0.01531307865    -0.1235080212     -3.167005357      -4.928517365      0.01591200414     0.05036771983     -0.4691280733     -0.2999319533     
4570000000        -0.143075183      0.04572316632     -3.745793839      -4.507726328      0.001620136385    0.05344320016     -0.2356985384     0.4792378874      
4680000000        0.01902184822     -0.05779308081    -4.410674934      -3.925096697      0.03606677171     0.04172897874     0.2025458489      0.4128584075      
4790000000        -0.1376127899     -0.01649350859    -4.79062334       -3.232824215      0.01597158239     0.05212666509     0.5594675133      0.2758882751      
4900000000        0.01346728113     0.01751831919     -5.314846156      -2.447342331      0.04426493648     0.03168558072     0.7619642444      -0.5880628725     
5010000000        -0.09710241109    -0.02955724671    -5.272261264      -1.629532109      0.03497616224     0.04155641743     0.1850691132      -0.6844490022     
5120000000        -0.0419694595     0.03926019743     -5.569341362      -0.6762611579     0.0502089336      0.01882123338     -0.8332592739     -1.198025161      
5230000000        -0.04682012275    -0.02198547497    -5.478640917      0.1360245705      0.04683866621     0.02665807166     -1.0691682        -0.09116593409    
5340000000        -0.08300742507    0.006786627229    -5.081793706      1.084954385       0.05431759556     0.003178050813    -1.64860224       0.7497399816      
5450000000        -0.02003540844    0.01603276655     -4.975981459      1.817502611       0.05477267985     0.007899001505    -0.1487171864     1.720058263       
5560000000        -0.08071295917    -0.06033310294    -4.326100696      2.479327061       0.05170127645     -0.009717317572   0.7186806716      1.863179063       
5670000000        -0.01913559251    0.0634316504      -3.773721267      3.060706361       0.05382198236     -0.009893447448   2.277704264       0.7369291115      
5780000000        -0.01424346305    -0.1118142158     -3.247100147      3.536896161       0.04750423239     -0.02071701256    2.275502396       -0.6116474916     
5890000000        -0.06787545979    0.09457508475     -2.241561991      3.63584115        0.04283755554     -0.03061496807    1.333568892       -3.074524311      
6000000000        0.0842474103      -0.09671462327    -1.361384166      4.058417591       0.03612835593     -0.03234952173    -1.020486696      -2.679934528      
