! RsaToolbox (C) 2015 Rohde & Schwarz America
! 
! Number of points: 42
! Number of ports: 2
! Balanced ports?: No
! 
! 
# Hz S RI R 50
500000000         -0.1512517929     0.06551835686     -4.906746156      3.418172165       0.06360215852     -0.03619639882    0.08427667226     0.1056287212      
610000000         0.1495902985      -0.01627666876    -4.469730755      4.053364451       0.05913920815     -0.04268236304    0.03831456909     0.1755783024      
720000000         -0.1606392264     -0.0132928919     -3.937453986      4.587293313       0.04767727238     -0.05333904946    0.1320707762      0.02452250894     
830000000         0.129410252       0.06135398522     -3.293247583      5.061770765       0.04410262267     -0.05526740678    0.1639586123      -0.09125008946    
940000000         -0.1246894076     -0.101831235      -2.435963282      4.967671173       0.0365438275      -0.06067062331    0.03865329518     -0.07198581646    
1050000000        0.07214321196     0.1220427901      -1.90290191       5.441142677       0.02834297055     -0.06336412622    -0.08440088207    -0.2436838771     
1160000000        -0.04602117836    -0.1490515023     -0.9444087721     5.043314608       0.01976380774     -0.06620772467    0.008211391429    0.05244534578     
1270000000        -0.01400963776    0.132888779       -0.4926041046     5.571150117       0.01361289016     -0.06713146335    -0.266253108      -0.08208406624    
1380000000        0.03623346239     -0.1382786185     0.2947054979      5.611273755       0.00669820755     -0.06856463015    0.1319067471      0.06841303885     
1490000000        -0.08780293167    0.09319638461     0.9633244984      5.097945573       -0.003504250169   -0.06689985873    -0.2404438026     0.1679972894      
1600000000        0.07955333591     -0.08818886429    1.665123203       4.929331119       -0.0113143461     -0.06442926272    0.1577103693      -0.1220131395     
1710000000        -0.1162644178     0.03132516891     1.921073351       4.543027691       -0.01670549282    -0.06357820287    -0.09856193167    0.2963204479      
2040000000        0.05824892595     0.01686945371     4.037854897       3.913689416       -0.03922293188    -0.04966018536    0.005597214406    -0.1521246256     
2150000000        -0.08591111004    -0.03582522273    4.563557395       3.225285773       -0.04946973171    -0.03893084227    0.3794554071      -0.08089032529    
2260000000        0.03153029457     0.03347321972     5.179758392       2.791602067       -0.04804106091    -0.03892696995    -0.05675580485    -0.2094894343     
2370000000        -0.06278469414    -0.03877130523    5.462924112       1.93808939        -0.0578503895     -0.02331764259    0.05301256722     -0.4205165773     
2480000000        0.01157505903     0.02562243864     5.694258408       1.362276449       -0.05134188255    -0.03288679575    -0.3151923389     -0.1464526935     
2590000000        -0.0625622645     -0.02965941653    5.584479339       0.5515610077      -0.06018639409    -0.0006478577927  -0.4052393935     -0.05017263708    
2700000000        0.01383959781     0.03085598163     5.780723835       -0.218482904      -0.05554505931    -0.02161528886    -0.2938641597     0.2389017313      
2810000000        -0.06344839185    -0.04555773363    5.552197728       -1.046307655      -0.05830480474    0.008401585474    -0.04206489785    0.5205457204      
2920000000        0.02223179676     0.05261655524     5.575427734       -1.720468232      -0.05825681424    -0.0006918444996  0.05407755939     0.3574589498      
3030000000        -0.02974833921    -0.1032470539     5.326135681       -2.287519291      -0.05654154933    0.01216264667     0.7548749899      0.3145003389      
3140000000        -0.02395934425    0.07506158948     5.00486263        -2.945385565      -0.05538803123    0.01265170072     0.2153892586      -0.1049351896     
3250000000        0.00205217395     -0.112910375      4.527286866       -3.665820675      -0.04864334223    0.02977044194     0.7556298892      -0.7248501038     
3360000000        -0.08378011733    0.06864257157     4.213927346       -4.095049275      -0.05137898275    0.01871316874     -0.3634625928     -0.3086967932     
3470000000        0.0851431489      -0.09653479606    3.335826035       -4.691537094      -0.04275503459    0.03355114411     -0.3671215405     -0.945243602      
3580000000        -0.1426775903     0.02370780334     2.883059615       -4.947154982      -0.04410629447    0.03124762191     -0.6918844695     0.5176238531      
3690000000        0.1118727624      -0.02472588047    2.084146414       -5.336966047      -0.0358541794     0.04158938213     -0.7683665237     -0.07438816889    
3800000000        -0.1661216468     -0.02766522765    1.360940816       -5.065121667      -0.03012673106    0.04213823532     0.2087082684      1.114168759       
3910000000        0.08872397244     0.06190438941     0.7372664545      -5.451368996      -0.02799817541    0.04604828203     -0.1503094579     0.3664591888      
4020000000        -0.1459981501     -0.09373237938    -0.185595073      -5.232124528      -0.0210170979     0.04704695139     1.088085012       0.3533705842      
4130000000        0.02194737084     0.1155276448      -0.669964798      -5.221636907      -0.02412749993    0.04794788325     0.2252972457      -0.05642792242    
4240000000        -0.1118971035     -0.128058508      -1.944961296      -5.13979073       0.003127110646    0.05215421154     0.4158800614      -0.9930059716     
4460000000        -0.02318287082    -0.1262438893     -3.166602783      -4.802536794      0.01633650146     0.05008166468     -0.465702332      -0.2990800869     
4570000000        -0.1376963109     0.05528265238     -3.721468696      -4.355560358      0.0009994925638   0.05363310216     -0.235211725      0.4787415082      
4680000000        0.0124133788      -0.06635567546    -4.388283444      -3.770324643      0.03619385825     0.0411555832      0.2000421808      0.4120368275      
4790000000        -0.139033094      -0.005348044448   -4.764236805      -3.104026961      0.01603584525     0.05219363176     0.5576738762      0.2734416153      
4900000000        0.01307117101     0.006217559334    -5.274315524      -2.313177116      0.04397176517     0.03202765192     0.7615812176      -0.5859957485     
5010000000        -0.1027734578     -0.01996204816    -5.202321564      -1.532822489      0.0354958619      0.04120811201     0.1874871146      -0.6849254773     
5120000000        -0.03446951881    0.03018197417     -5.465837274      -0.5834923817     0.0504838369      0.01982913492     -0.8371554244     -1.198437313      
5230000000        -0.05685018376    -0.01613933966    -5.35803367       0.2050081042      0.04716023024     0.0274185206      -1.070528264      -0.09134811406    
5340000000        -0.07193763554    0.002744428115    -4.96232492       1.138802526       0.05436099637     0.003051303286    -1.648928408      0.7485315553      
