! RsaToolbox (C) 2015 Rohde & Schwarz America
! 
! Number of points: 51
! Number of ports: 2
! Balanced ports?: No
! 
! 
# Hz S RI R 50
500000000         -0.1526980102     0.06720288843     -4.917392937      3.447038653       0.06471755051     -0.03743591466    0.08506889016     0.09941935154     
610000000         0.1505095363      -0.01624463871    -4.481509536      4.052293492       0.0591152096      -0.043594075      0.03847935323     0.1733046446      
720000000         -0.1621426046     -0.01341043133    -3.932826907      4.57456578        0.04745881181     -0.05340446245    0.1324426116      0.02440148806     
830000000         0.1301849335      0.06163014099     -3.311427502      5.088180468       0.04461920906     -0.05503278782    0.1631533444      -0.09084920392    
940000000         -0.125565514      -0.1021426842     -2.637082737      5.537637129       0.03670670951     -0.06070925889    0.03792277515     -0.07565707184    
1050000000        0.07285071909     0.1232184544      -1.957618088      5.796760015       0.02915175313     -0.06319552693    -0.08448625807    -0.2418550252     
1160000000        -0.04597694054    -0.1500646025     -1.169600565      5.940687927       0.01997782335     -0.06540038806    0.005028142512    0.05041664963     
1270000000        -0.01386734657    0.1340538263      -0.4320546833     5.994652571       0.01382641945     -0.06750213905    -0.2644405111     -0.08369878791    
1380000000        0.03663090244     -0.1400717348     0.381420514       5.988063273       0.006547882829    -0.06774747089    0.132889714       0.06945433138     
1490000000        -0.08837348968    0.0942883268      1.05790953        5.909133009       -0.003368443046   -0.06700798541    -0.2402961357     0.1665112375      
1600000000        0.08107854426     -0.08885040879    1.862752782       5.723900183       -0.01173305381    -0.06477034912    0.1584862334      -0.1225939555     
1710000000        -0.1180400774     0.03164210171     2.483003444       5.424885519       -0.01677011775    -0.0631186032     -0.09774444775    0.2941025879      
1820000000        0.0888113305      -0.02819404565    3.185566244       5.080101803       -0.02950584792    -0.05787583092    -0.001710572121   -0.1210187844     
1930000000        -0.1104764417     -0.02235457115    3.722003816       4.655026454       -0.03301152022    -0.05598547555    0.2452451063      0.2880098799      
2040000000        0.05993063375     0.01834931225     4.350049977       4.137759261       -0.03925283445    -0.0496189095     0.004486062751    -0.1521736547     
2150000000        -0.08741094172    -0.03784815967    4.813497469       3.404454908       -0.04939017974    -0.03880151881    0.379945536       -0.0842785318     
2260000000        0.03209536895     0.03596129268     5.198543045       2.833933174       -0.04797759708    -0.03943929674    -0.05709576566    -0.2078377593     
2370000000        -0.06316515058    -0.04217331856    5.452030705       1.98766168        -0.05704484374    -0.02388929492    0.05220497129     -0.4227435936     
2480000000        0.01012828108     0.028928902       5.685353882       1.393786913       -0.05046570344    -0.03268944931    -0.3147346238     -0.1496039845     
2590000000        -0.06222957       -0.03320278972    5.648365717       0.5726042403      -0.06072614951    -0.001559281168   -0.4026827023     -0.05408490508    
2700000000        0.01040040515     0.032752648       5.818170345       -0.1821294305     -0.05444382156    -0.0216308095     -0.2940687892     0.240155033       
2810000000        -0.05976735801    -0.04829619825    5.57056795        -1.026902941      -0.05892383807    0.00780702776     -0.04458988556    0.5191573095      
2920000000        0.01703188941     0.05343579501     5.620787085       -1.705448768      -0.05767755956    -0.0006589645897  0.05233690661     0.3558980223      
3030000000        -0.02480930649    -0.1024854109     5.376021755       -2.264193704      -0.05719831145    0.01152073007     0.7545335138      0.315846017       
3140000000        -0.0295050405     0.07185192406     5.052018041       -2.907903197      -0.05593017291    0.01250217254     0.2166083596      -0.1045053412     
3250000000        0.007951133884    -0.1094791815     4.600814287       -3.619435636      -0.04832003336    0.03009925454     0.7572571033      -0.7248396878     
3360000000        -0.08831806481    0.06112210453     4.299867575       -4.059115814      -0.0508753578     0.01886592164     -0.361737295      -0.30733704       
3470000000        0.08771387488     -0.08849478513    3.42803384        -4.697187054      -0.04295058242    0.03427672548     -0.3710730416     -0.9514813473     
3580000000        -0.143122524      0.01464670338     3.020278017       -5.012369644      -0.04375773383    0.03102176897     -0.6945559008     0.518947074       
3690000000        0.1094603762      -0.0148470765     2.230613004       -5.457472011      -0.0361380255     0.04137278853     -0.7678217122     -0.07473763827    
3800000000        -0.1620883793     -0.03666930273    1.63367124        -5.580663837      -0.02999651819    0.0417272627      0.2090804891      1.114290429       
3910000000        0.07812878489     0.07033844292     0.9003399184      -5.800207803      -0.02824115246    0.04638515131     -0.1498739521     0.368949356       
4020000000        -0.136538133      -0.1007500887     -0.0676262819     -5.822989532      -0.02091910926    0.04658617513     1.091520251       0.3519911681      
4130000000        0.005754508078    0.116235882       -0.7753543492     -5.915433986      -0.02361783417    0.04754133033     0.225748284       -0.05737574472    
4240000000        -0.09686803818    -0.1323404461     -2.019822426      -5.559242541      0.003060369302    0.05181579336     0.412208426       -0.9914934394     
4350000000        -0.09505491704    0.1040524244      -2.292885756      -5.550240866      -0.008946296737   0.05307922783     -0.3695712676     -0.03598349417    
4460000000        -0.00452437764    -0.1195318773     -3.14381258       -5.104153437      0.01594702019     0.05027248274     -0.4685296005     -0.2984324925     
4570000000        -0.1498255879     0.03224300966     -3.731412715      -4.711173623      0.001238759919    0.05379260798     -0.2344508554     0.4771937701      
4680000000        0.02861956879     -0.0458207652     -4.38839502       -4.110160804      0.03641151137     0.04071460337     0.203693143       0.4116489762      
4790000000        -0.1346098632     -0.03350533918    -4.780434372      -3.418751495      0.01635742812     0.05217080185     0.5572900551      0.2744004502      
4900000000        0.01312246546     0.03441797197     -5.3437314        -2.647329454      0.04519218818     0.03184288884     0.7626036333      -0.5852313465     
5010000000        -0.08842454106    -0.04510486871    -5.368474577      -1.797416084      0.0357567493      0.04148070815     0.1852268653      -0.6823210933     
5120000000        -0.05380747467    0.05278291553     -5.708813094      -0.8480716487     0.05036508464     0.0189544437      -0.8372127393     -1.194974223      
5230000000        -0.03020831943    -0.03160663694    -5.659916081      -0.0009639906012  0.04716504808     0.02742778907     -1.069557677      -0.09038747735    
5340000000        -0.09998842329    0.01334373001     -5.2662847        1.00229575        0.05429080842     0.003513983179    -1.650896445      0.7458061734      
5450000000        -0.0009067162173  0.01502006873     -5.194404786      1.760459568       0.05447438895     0.008050215648    -0.14639256       1.7163754         
5560000000        -0.0979077965     -0.06634926796    -4.534802239      2.452735355       0.05218026279     -0.009022785505   0.7146136517      1.868032396       
5670000000        -0.003303550649   0.07103744149     -3.989439081      3.074580093       0.05356337489     -0.01105168349    2.281041619       0.7356726832      
5780000000        -0.02543058805    -0.1259612292     -3.451040658      3.598063286       0.04723642743     -0.02028279134    2.276130627       -0.6110306279     
5890000000        -0.05747195706    0.1071067825      -2.413172402      3.713705557       0.04258005358     -0.0310932091     1.343990108       -3.077535794      
6000000000        0.08217883855     -0.1139043272     -1.494999577      4.170239975       0.03678647223     -0.03187035953    -1.020899134      -2.683764563      
