! RsaToolbox (C) 2015 Rohde & Schwarz America
! 
! Number of points: 51
! Number of ports: 2
! Balanced ports?: No
! 
! 
# Hz S RI R 50
500000000         -0.154631421      0.06748232991     -4.953255954      3.439982494       0.06374882322     -0.03753684731    0.08473240665     0.09486040143     
610000000         0.1511636972      -0.01568740979    -4.502779615      4.00390095        0.05888724753     -0.04350220596    0.04304349725     0.1748319471      
720000000         -0.1642657667     -0.01253295038    -3.960476041      4.582650863       0.04768442396     -0.05256429912    0.1345816974      0.02741019506     
830000000         0.132694155       0.06278090179     -3.353885501      5.099916518       0.04453456808     -0.05471168687    0.1608994981      -0.08692202061    
940000000         -0.1271403283     -0.1041170657     -2.669236988      5.539531752       0.03635198898     -0.0605884008     0.04040754801     -0.0686957065     
1050000000        0.07428390533     0.1249059439      -1.97704186       5.821632482       0.02852500423     -0.06426326747    -0.08489570072    -0.2376401504     
1160000000        -0.04632186145    -0.1529826969     -1.222955187      6.007889059       0.02004934524     -0.06657806295    0.007006225456    0.0565274412      
1270000000        -0.01408341806    0.1365069151      -0.4847510049     6.06323463        0.0139679401      -0.06755824614    -0.2577934098     -0.08200182066    
1380000000        0.03835775703     -0.1422541142     0.3383373544      6.061761787       0.006365795644    -0.06777373073    0.1351522627      0.07231913959     
1490000000        -0.08987680078    0.09703528136     1.038228327       5.947445096       -0.003270870428   -0.06670570566    -0.2352670405     0.1666435779      
1600000000        0.08243729174     -0.09023040533    1.850270906       5.764592001       -0.01135787123    -0.06433895953    0.1537180645      -0.128448046      
1710000000        -0.1206835657     0.03310955688     2.462521396       5.494261094       -0.01684884513    -0.0634730303     -0.09794046879    0.2942683546      
1820000000        0.09240274131     -0.0276412461     3.165272045       5.148028021       -0.02908431853    -0.05797030284    -0.0008152074423  -0.1137362335     
1930000000        -0.1141445786     -0.02422132716    3.696299921       4.724491          -0.0324251769     -0.0556936639     0.2491023666      0.2783487318      
2040000000        0.06353847682     0.02072189376     4.322056631       4.157317583       -0.039294245      -0.04940152875    0.01524032074     -0.1540726167     
2150000000        -0.090684928      -0.0406900607     4.79321798        3.448732238       -0.04938438661    -0.03883597015    0.3780060527      -0.08457991992    
2260000000        0.03324591741     0.04079151526     5.174978602       2.92521677        -0.04809753849    -0.03920224142    -0.05494927015    -0.2118388435     
2370000000        -0.064365834      -0.04717696086    5.44927238        2.037439716       -0.05725745746    -0.02388460058    0.04341018727     -0.4265153832     
2480000000        0.007035209332    0.03416628018     5.691894602       1.457571144       -0.0519334696     -0.032253015      -0.3140298374     -0.1591124265     
2590000000        -0.06045410782    -0.03898588568    5.716820333       0.6308679015      -0.06045966525    -0.0002782480985  -0.4011624434     -0.02990205755    
2700000000        0.005423963536    0.03595677018     5.92950644        -0.1616132762     -0.05422542003    -0.02172591157    -0.2987385248     0.2403758119      
2810000000        -0.0552091971     -0.05382538959    5.696753939       -1.014058464      -0.05964148903    0.007129840638    -0.04394051482    0.53285188        
2920000000        0.009808787145    0.05595624074     5.719797809       -1.619651082      -0.05786560179    0.0006374293433   0.04405963188     0.3444854689      
3030000000        -0.01855966076    -0.1021185294     5.492895694       -2.215739275      -0.05610335757    0.01200933125     0.7438727648      0.318445477       
3140000000        -0.03632893413    0.06828197837     5.135493374       -2.879473766      -0.05581344732    0.01187445399     0.2150370693      -0.1112898811     
3250000000        0.01567831635     -0.1059099883     4.774096192       -3.5963403        -0.04880119921    0.03027687215     0.7614804905      -0.7274030491     
3360000000        -0.09279147536    0.05276371539     4.438369052       -4.023166888      -0.05177926185    0.01782375895     -0.3586300495     -0.3133732859     
3470000000        0.09228146821     -0.07813245058    3.605285216       -4.678386822      -0.04347268408    0.03368349908     -0.3669588499     -0.9564794659     
3580000000        -0.1449256688     0.004050159361    3.177743523       -5.020256272      -0.04375899254    0.03127379141     -0.6982532172     0.5301203822      
3690000000        0.1073938757      -0.002587019233   2.385951444       -5.463137545      -0.03571187037    0.04185477458     -0.7687997953     -0.07493068561    
3800000000        -0.157746613      -0.04692704603    1.763219407       -5.623085878      -0.03023076146    0.04220681532     0.2018672967      1.122405078       
3910000000        0.06704117358     0.07991329581     1.106102523       -5.880017937      -0.02816601017    0.04596099175     -0.149893897      0.3661423506      
4020000000        -0.1252961308     -0.1092725843     0.1220335214      -5.922458417      -0.02094398759    0.04730781495     1.096505185       0.368742134       
4130000000        -0.01144468226    0.1177904606      -0.5673825066     -6.110510153      -0.02381316405    0.04815796663     0.2216862298      -0.06789475593    
4240000000        -0.0796232298     -0.1377471238     -1.861338079      -5.781608751      0.00376139555     0.05251668534     0.422369988       -0.9806468014     
4350000000        -0.1161219701     0.09322474897     -2.111649987      -5.863344296      -0.008407249631   0.05305732861     -0.3827535676     -0.04327580418    
4460000000        0.01504828781     -0.1123824194     -3.003788784      -5.375910374      0.0164031401      0.05016939353     -0.4582533752     -0.2934442787     
4570000000        -0.1606867015     0.009813345037    -3.621105901      -5.022897806      0.001991194058    0.05357378239     -0.2472813805     0.4739086455      
4680000000        0.04435968772     -0.02454625443    -4.294305612      -4.511620854      0.03680045221     0.04110121059     0.2179155194      0.4178623119      
4790000000        -0.1300855279     -0.06106262654    -4.779956843      -3.808590145      0.01693928259     0.05214671525     0.5521125168      0.2820901958      
4900000000        0.01282297261     0.06336325407     -5.432323404      -3.070893414      0.04511929866     0.03209552903     0.7786504484      -0.6025045149     
5010000000        -0.07329440862    -0.07107333094    -5.551844768      -2.193405069      0.03527191096     0.04139464381     0.193467095       -0.67429824       
5120000000        -0.07427152991    0.07752196491     -6.002834192      -1.232964037      0.05032116682     0.01948288866     -0.8364344714     -1.214700415      
5230000000        0.0004916844773   -0.049606435      -6.03187088       -0.3802177197     0.04749837776     0.02694214988     -1.07154984       -0.08013846552    
5340000000        -0.1312780231     0.02413664572     -5.656249892      0.7362611373      0.054549391       0.002752878234    -1.65949971       0.7553495805      
5450000000        0.03645090759     0.01435870025     -5.706941528      1.587034426       0.05457477388     0.008154051562    -0.1379055354     1.725480499       
5560000000        -0.1329853833     -0.07945808768    -5.042704824      2.359528798       0.05270407912     -0.009796262349   0.70085651        1.878451024       
5670000000        0.02699264884     0.0860760808      -4.489112373      3.040631672       0.05282816567     -0.01048920376    2.296192689       0.7416984666      
5780000000        -0.04845387116    -0.1559305787     -3.967337967      3.662045409       0.04754561702     -0.02104704259    2.277686459       -0.6124150889     
5890000000        -0.03850801662    0.1317993551      -2.814935013      3.835192544       0.04290487888     -0.03109631772    1.360698751       -3.094264489      
6000000000        0.07856654376     -0.1499227136     -1.856769348      4.436730736       0.03631464093     -0.03178233292    -1.020354932      -2.68807247       
