! RsaToolbox (C) 2015 Rohde & Schwarz America
! 
! Number of points: 51
! Number of ports: 2
! Balanced ports?: No
! 
! 
# Hz S RI R 50
500000000         -0.1559038609     0.06855599582     -4.981252566      3.467632792       0.06404492781     -0.03690333806    0.07086335506     0.1054997165      
610000000         0.1526849419      -0.0176978074     -4.495937473      4.085809062       0.05880436217     -0.04419737597    0.03117423279     0.1760132115      
720000000         -0.1649693251     -0.0146951247     -3.984174748      4.57739478        0.04775384479     -0.0528105653     0.1278754787      0.02352803836     
830000000         0.1325914711      0.06286974996     -3.352858002      5.063847114       0.04452282689     -0.05561169051    0.1612798665      -0.08955842315    
940000000         -0.1278484166     -0.1040434092     -2.642299893      5.536243903       0.0362548162      -0.0605171332     0.03228400224     -0.07502295668    
1050000000        0.07386533916     0.1253700107      -1.997631891      5.831665564       0.02919780031     -0.06400791689    -0.0827210525     -0.2450071044     
1160000000        -0.04641152173    -0.1517616808     -1.218548951      5.989512566       0.02028578007     -0.06642145665    0.006263215953    0.06067114108     
1270000000        -0.01391104888    0.1369140595      -0.4757232801     6.079329555       0.01371868161     -0.06719880004    -0.2635166773     -0.07865832903    
1380000000        0.03828623518     -0.142287299      0.3505110229      6.040983307       0.006162008792    -0.06770400502    0.1337275092      0.07027844318     
1490000000        -0.09059512615    0.09607161582     1.006148069       5.967260891       -0.003107630145   -0.06713917961    -0.2385162801     0.1606483256      
1600000000        0.08380164951     -0.09061719477    1.825636226       5.793814503       -0.01150663642    -0.06486179406    0.1588954716      -0.117716194      
1710000000        -0.1211331338     0.03379330412     2.490021961       5.499147873       -0.01616149221    -0.06379662733    -0.0951282595     0.2978356832      
1820000000        0.09213050455     -0.02804391459    3.177932819       5.107029048       -0.02925099292    -0.05758022025    -0.002061358809   -0.1205639075     
1930000000        -0.1143260375     -0.02437886037    3.719566532       4.729997016       -0.03234652496    -0.05606994068    0.2433835886      0.2853112044      
2040000000        0.06341215223     0.02119893953     4.313347901       4.195661677       -0.03931657103    -0.04940509911    0.01137860674     -0.1570925567     
2150000000        -0.0901235342     -0.04106240347    4.782606893       3.449582164       -0.04928649939    -0.03887219239    0.3753667183      -0.07738394701    
2260000000        0.03332060203     0.04088916257     5.205720537       2.912853298       -0.04803760149    -0.03966945923    -0.05548458046    -0.2018532032     
2370000000        -0.06389490515    -0.04727669805    5.46781261        2.046517419       -0.05696601897    -0.02419040502    0.04434191061     -0.4296357644     
2480000000        0.007289633155    0.03341241181     5.687592724       1.446727429       -0.05093505478    -0.03265719765    -0.3151811408     -0.1470171674     
2590000000        -0.06072164327    -0.03918125108    5.752743649       0.6523699454      -0.06031081566    -6.985434191e-05  -0.405404977      -0.0373752661     
2700000000        0.005683095194    0.03613651171     5.906646467       -0.1563266296     -0.05427631645    -0.02165291302    -0.2957807019     0.2341535642      
2810000000        -0.05507147312    -0.05351662636    5.646599066       -0.9972729783     -0.05902337184    0.007537931147    -0.04810666481    0.5178633398      
2920000000        0.009786551818    0.05460317433     5.712753623       -1.625377701      -0.05819190958    -0.0004892187037  0.06095359609     0.3478626271      
3030000000        -0.01771074347    -0.1008358896     5.456930015       -2.234379754      -0.05645725117    0.01207887383     0.7565214521      0.316997136       
3140000000        -0.03702815622    0.06793518364     5.150407274       -2.874831508      -0.05569455585    0.01225734822     0.2148803596      -0.11216555       
3250000000        0.01616887376     -0.1050945595     4.738678486       -3.598359778      -0.048640446      0.03038227342     0.7553355195      -0.7221221335     
3360000000        -0.09339884669    0.05240806192     4.437623886       -4.04393125       -0.05127061932    0.01855329736     -0.3643368938     -0.311550174      
3470000000        0.09132797271     -0.07890281826    3.572724383       -4.69738652       -0.04282501507    0.03458030189     -0.368271394      -0.946005626      
3580000000        -0.1444183588     0.004591672216    3.148899373       -5.01596886       -0.04385603332    0.03122632854     -0.6955053184     0.5172647205      
3690000000        0.1072411537      -0.003309377702   2.39804337        -5.477765021      -0.03619162649    0.04153102363     -0.7617086056     -0.07939528243    
3800000000        -0.1584578454     -0.04716053605    1.780765593       -5.620616577      -0.03007219863    0.04194484106     0.2012277566      1.121228211       
3910000000        0.06710521132     0.0797515735      1.101097335       -5.884932066      -0.02832078969    0.04586155722     -0.1479461452     0.361280571       
4020000000        -0.1259904057     -0.1097833216     0.1243727669      -5.922758746      -0.02075990365    0.04767033373     1.087062835       0.3614818241      
4130000000        -0.01120551396    0.1178649142      -0.6040661358     -6.111109415      -0.02381096884    0.04803775291     0.229875523       -0.06313603633    
4240000000        -0.08019267768    -0.1369194686     -1.873582604      -5.772191547      0.003128232361    0.05244619662     0.4215359098      -0.9777124089     
4350000000        -0.1155203953     0.09264397621     -2.108664837      -5.851031833      -0.008791498627   0.0529584482      -0.3745194847     -0.0499822862     
4460000000        0.01444929093     -0.1128152534     -3.018949919      -5.379216867      0.01658294719     0.05020953486     -0.4640963398     -0.2925169917     
4570000000        -0.1612329334     0.009522946551    -3.598308827      -5.029921991      0.00149932558     0.05360146263     -0.2453177091     0.4785806799      
4680000000        0.04394777119     -0.02510483749    -4.312748464      -4.48972064       0.03724924254     0.04095275129     0.2053797989      0.4083640723      
4790000000        -0.1306798756     -0.0599963814     -4.78338436       -3.788475678      0.01693794181     0.05205665731     0.552437195       0.2805440248      
4900000000        0.0132725155      0.06171997264     -5.41797045       -3.046421804      0.04413607584     0.03233838428     0.7714337325      -0.5879338084     
5010000000        -0.07340847701    -0.07044261694    -5.546814862      -2.156937567      0.03559173978     0.04103568334     0.1908234076      -0.6769247219     
5120000000        -0.07506227493    0.07760153711     -5.983551175      -1.244476635      0.05052654525     0.01899118366     -0.8440173609     -1.207984189      
5230000000        -0.0002023864217  -0.04879787937    -6.033257354      -0.3696443558     0.04708407876     0.02704343163     -1.07418834       -0.07168414362    
5340000000        -0.1309197843     0.0243511647      -5.641481627      0.7343719041      0.05388958259     0.002478593537    -1.664045036      0.7508794814      
5450000000        0.03620163724     0.01360500325     -5.690181323      1.592232354       0.05475913549     0.008158395713    -0.1481347714     1.725508958       
5560000000        -0.1317355484     -0.07944205403    -5.019178944      2.354680988       0.05230626765     -0.00954031546    0.7105759418      1.871857612       
5670000000        0.02669263631     0.08502021432     -4.46868952       3.043939459       0.05370132874     -0.0103486297     2.303529628       0.7352775117      
5780000000        -0.04785179347    -0.1561222374     -3.960056175      3.684322759       0.04728843716     -0.0207372001     2.271790523       -0.6062753761     
5890000000        -0.03812680021    0.1318978518      -2.808549214      3.838542305       0.04297963735     -0.03159498426    1.353608876       -3.093849041      
6000000000        0.07943619043     -0.1493048966     -1.891650632      4.431545615       0.03579875385     -0.03190476061    -1.016706711      -2.679624409      
