! RsaToolbox (C) 2015 Rohde & Schwarz America
! 
! Number of points: 51
! Number of ports: 2
! Balanced ports?: No
! 
! 
# Hz S RI R 50
500000000         -0.1541756541     0.06841375679     -4.936313571      3.474010775       0.0640103728      -0.03672378152    0.08545700272     0.09862752676     
610000000         0.1524298042      -0.016352918      -4.50565837       4.031210525       0.05899340488     -0.04360135473    0.03475144093     0.175186816       
720000000         -0.1630661935     -0.01317518856    -3.948191963      4.571204818       0.04783350766     -0.05302018851    0.1301496199      0.02577183263     
830000000         0.1317927986      0.06208988652     -3.336337473      5.070473173       0.04464936402     -0.05505332909    0.1621081467      -0.09222851199    
940000000         -0.1269165277     -0.1044996381     -2.675113235      5.514371079       0.03659719633     -0.06054642862    0.03926048525     -0.07334146198    
1050000000        0.07366014272     0.1244194359      -1.98309943       5.812348688       0.02893123454     -0.06348925176    -0.08055130646    -0.2435421805     
1160000000        -0.04681417719    -0.1522537917     -1.184206196      6.008177052       0.02036874542     -0.06645715499    0.004012027574    0.05569676434     
1270000000        -0.01395648345    0.1355965585      -0.4501677304     6.053190203       0.01349103703     -0.06732086225    -0.2649745032     -0.08083944834    
1380000000        0.03786963224     -0.1416759789     0.3547264231      6.030867355       0.006622226438    -0.06788316939    0.1341083361      0.07105556297     
1490000000        -0.09021578729    0.09630504251     1.014326268       5.950057097       -0.003662733545   -0.06690153638    -0.2339598664     0.1681141537      
1600000000        0.08318330348     -0.09048180282    1.834704538       5.778033924       -0.01172221577    -0.06450008364    0.1617032204      -0.1219782269     
1710000000        -0.1208058819     0.03287788481     2.480659604       5.497257932       -0.01666511054    -0.06352407346    -0.09292672521    0.2902420366      
1820000000        0.09159494936     -0.0280642584     3.170297777       5.126988142       -0.0294257355     -0.05766036978    -0.00481600139    -0.1214800542     
1930000000        -0.113620162      -0.02408420667    3.687988952       4.716451263       -0.03260821384    -0.05586791745    0.2410665301      0.283097243       
2040000000        0.06249630079     0.02025396191     4.295839317       4.162610095       -0.03931915841    -0.04952616364    0.002352821309    -0.1531547189     
2150000000        -0.08988535404    -0.04082516953    4.775919529       3.450902157       -0.04938015796    -0.03924224722    0.3772742133      -0.08608525754    
2260000000        0.03250914812     0.04099420086     5.189654914       2.904582469       -0.04826142072    -0.03901409918    -0.05405527214    -0.2066860355     
2370000000        -0.06379374862    -0.04625598341    5.436183163       2.050071488       -0.05700501918    -0.02398809128    0.04806096722     -0.4223968546     
2480000000        0.008196595125    0.03330627456     5.710347257       1.435590738       -0.05132974833    -0.03256668223    -0.312637958      -0.1479516807     
2590000000        -0.06048301607    -0.03825138882    5.744439045       0.6416362123      -0.06062636069    -0.0005307418756  -0.4046842175     -0.05476570098    
2700000000        0.005814013071    0.03632453457     5.883510909       -0.1489536735     -0.05501596106    -0.02247462233    -0.2920279869     0.2316565899      
2810000000        -0.05570845678    -0.05289203301    5.635159253       -1.011596708      -0.05897598492    0.007280639432    -0.05282926892    0.5291675494      
2920000000        0.01009319257     0.05525052547     5.726948898       -1.653789817      -0.05844153716    -0.0006975030713  0.04932612726     0.3579271138      
3030000000        -0.01841689646    -0.1024865434     5.451663476       -2.245250968      -0.05643697014    0.01204897017     0.7562816079      0.3180487965      
3140000000        -0.03578005731    0.06931287795     5.128744995       -2.879753818      -0.05585311827    0.01225272533     0.2163078849      -0.1021821856     
3250000000        0.01473741047     -0.1046650931     4.692040336       -3.60446937       -0.04783456098    0.02952827593     0.7550338715      -0.7193191152     
3360000000        -0.09267781675    0.05236079916     4.429397641       -4.019294398      -0.05106662626    0.01936022867     -0.3665516401     -0.3124237232     
3470000000        0.09177960455     -0.07978267968    3.573878044       -4.699508686      -0.04291639317    0.03401955825     -0.3647509877     -0.9435294099     
3580000000        -0.1443346143     0.005533017218    3.118617348       -5.005240249      -0.04367430955    0.03144802995     -0.7064915138     0.5103492733      
3690000000        0.1077893004      -0.004346387461   2.37356091        -5.47708659       -0.03624171359    0.04188631904     -0.76611596       -0.07685694786    
3800000000        -0.1587325484     -0.04600987956    1.74745873        -5.616636182      -0.02985661055    0.04190913628     0.2072527365      1.118055791       
3910000000        0.06789626181     0.07892470062     1.077125339       -5.864937105      -0.02833416653    0.04630652423     -0.142347593      0.3625916457      
4020000000        -0.1269908547     -0.1080290973     0.07171866596     -5.897119072      -0.02078093141    0.04768494525     1.096546966       0.3608536571      
4130000000        -0.01013937127    0.1176779345      -0.6069042306     -6.069714819      -0.02407719499    0.04802474746     0.2280700077      -0.06405927604    
4240000000        -0.081408225      -0.137028411      -1.872638236      -5.744101147      0.003397943029    0.05252161168     0.4212864236      -0.9917906633     
4350000000        -0.1142653972     0.09294766933     -2.115786259      -5.812689864      -0.008247150844   0.0528883772      -0.3731495572     -0.03924381337    
4460000000        0.01320698112     -0.1135109887     -3.027609347      -5.346640745      0.01655114523     0.05014806154     -0.4566718044     -0.2978108599     
4570000000        -0.1606245637     0.01116460748     -3.610799376      -5.001056389      0.001681887508    0.0536515633      -0.2436276427     0.4815330445      
4680000000        0.04301312938     -0.02652863786    -4.334962392      -4.471785564      0.03674659915     0.04127029616     0.2048208212      0.4101965694      
4790000000        -0.1303711087     -0.05882682279    -4.756979631      -3.751890521      0.016599756       0.05225126791     0.5513539424      0.2769893293      
4900000000        0.01291611418     0.06072314829     -5.419203071      -3.007780081      0.04478179995     0.03206036305     0.7662579917      -0.5923238099     
5010000000        -0.07412768155    -0.06910131127    -5.517502901      -2.135497323      0.03561325006     0.04117404447     0.1882773238      -0.6817243511     
5120000000        -0.07187016308    0.07513436675     -5.939493347      -1.187468618      0.05023118425     0.01948197935     -0.834086763      -1.203778175      
5230000000        -0.002381033031   -0.04782731086    -6.009386222      -0.323979277      0.04722471425     0.02696284593     -1.069863821      -0.08435043605    
5340000000        -0.1288625896     0.02453587204     -5.614486892      0.7620691658      0.05446486523     0.002517611644    -1.657759707      0.7483550187      
5450000000        0.0336522162      0.0140266465      -5.657992177      1.585436136       0.05491189927     0.007707658505    -0.1453722124     1.719983386       
5560000000        -0.1304083019     -0.07686951011    -4.984091347      2.370037167       0.05220781594     -0.009800052571   0.7061880499      1.873216573       
5670000000        0.02559307963     0.08427657187     -4.440768812      3.044635198       0.05312295027     -0.01054880079    2.294063585       0.7338716573      
5780000000        -0.04669019207    -0.1529108137     -3.911185765      3.65516188        0.04742744792     -0.02057902562    2.274037357       -0.6056560694     
5890000000        -0.03967981413    0.1299226135      -2.78671452       3.806242699       0.043266765       -0.03143618566    1.347467792       -3.089702984      
6000000000        0.07897115499     -0.1467399746     -1.843307209      4.406283323       0.03595956331     -0.03183987414    -1.029663934      -2.689491821      
