! RsaToolbox (C) 2015 Rohde & Schwarz America
! 
! Number of points: 24
! Number of ports: 2
! Balanced ports?: No
! 
! 
# Hz S RI R 50
500000000         -0.1503535658     0.06574014574     -4.902430252      3.447182055       0.06359076641     -0.03701625798    0.0823627658      0.1028831779      
610000000         0.1483178139      -0.01644060761    -4.464942936      4.073972068       0.05893483134     -0.04288763734    0.03873957546     0.1749895242      
720000000         -0.1603764743     -0.013237115      -3.802177548      4.404255861       0.04808994317     -0.05299720468    0.1316740366      0.02481863098     
830000000         0.1284566224      0.06036320329     -3.004843586      4.496916469       0.04429127422     -0.05519393154    0.1649891712      -0.0898769178     
940000000         -0.1237156019     -0.1009520516     -2.503913747      4.890545717       0.03692235324     -0.06015345596    0.03840146319     -0.07264948788    
1050000000        0.07180095464     0.1213108301      -1.570933298      4.540734725       0.02864235631     -0.06345755164    -0.08295378088    -0.2434254167     
2040000000        0.05667608604     0.01529980823     3.954737453       3.83535221        -0.03923736052    -0.04950054743    0.006088488318    -0.1528894951     
2150000000        -0.08434677869    -0.03372130543    4.52415868        3.209868804       -0.04910431041    -0.03910077681    0.3801776263      -0.08214422858    
2260000000        0.03087051585     0.03027041443     4.867602675       2.682887178       -0.04812630704    -0.039300301      -0.05746591847    -0.2096762575     
2370000000        -0.06256994605    -0.03555098921    5.317807411       1.852157345       -0.0575786032     -0.02390120846    0.05362243445     -0.4219314838     
2480000000        0.01351820584     0.02242003568     5.656740896       1.321415909       -0.05101553705    -0.03243787894    -0.3145587477     -0.1493434474     
2590000000        -0.06390172988    -0.02534048446    5.545198151       0.5355176975      -0.06055237947    -0.0005928094962  -0.4043730056     -0.05259270113    
2700000000        0.01825153641     0.02862582169     5.728710015       -0.2596760216     -0.05412262442    -0.02194508211    -0.2959831178     0.2382285579      
2810000000        -0.06701408327    -0.0423748605     5.506783366       -1.066715213      -0.05850060143    0.006567816625    -0.0446090153     0.5177618646      
2920000000        0.02864852361     0.05183792487     5.522069215       -1.775422042      -0.0577110605     -0.0007479403557  0.05182883803     0.3578309316      
3030000000        -0.03573481366    -0.1042673439     5.29610592        -2.341955429      -0.05697517993    0.01275418983     0.751710215       0.3158008509      
3140000000        -0.0178198237     0.07899023592     4.93676082        -2.984585367      -0.05531595985    0.01235559349     0.2137190399      -0.1053524253     
3250000000        -0.005316292401   -0.117784597      4.390828316       -3.655089854      -0.04811696555    0.02962005905     0.7545862691      -0.7267015075     
3360000000        -0.07888769358    0.07856826484     3.975335511       -3.94255477       -0.0512580694     0.01823802609     -0.3630844744     -0.3056359598     
3470000000        0.08168676496     -0.107694447      3.167432737       -4.593614865      -0.04247216122    0.03409027312     -0.369392367      -0.9436847176     
3690000000        0.1156838387      -0.03855030611    1.802501733       -4.931100614      -0.03630654395    0.04098640994     -0.7673650493     -0.07510344776    
4460000000        -0.04673793539    -0.1346137822     -3.093679931      -4.406498939      0.01605054705     0.04973658763     -0.4695094707     -0.2986985096     
4790000000        -0.1432012767     0.02496205829     -4.636513776      -2.770139159      0.01586052495     0.05201086563     0.5582150962      0.2751511804      
4900000000        0.01206248626     -0.02442907542    -5.098436986      -2.015355356      0.04386055678     0.03192916769     0.7652815608      -0.5864790218     
