! RsaToolbox (C) 2015 Rohde & Schwarz America
! 
! Number of points: 51
! Number of ports: 2
! Balanced ports?: No
! 
! 
# Hz S RI R 50
500000000         -0.1561323702     0.06530674547     -4.905790839      3.431594411       0.06398617245     -0.03765066969    0.0748374995      0.1207218162      
610000000         0.1547851413      -0.01732738502    -4.56189075       4.110926106       0.05943983181     -0.04360121845    0.0485311149      0.179674734       
720000000         -0.1649473161     -0.01302157994    -3.998325944      4.564221132       0.04833322102     -0.05219689942    0.1398263139      0.01578307133     
830000000         0.1325370818      0.06268242002     -3.378552071      5.090493292       0.04459163412     -0.05417393092    0.145923887       -0.07058830921    
940000000         -0.129460752      -0.1001669019     -2.574311696      5.557173195       0.03615699997     -0.06042590745    0.02367331264     -0.06327937892    
1050000000        0.07294216752     0.1268755645      -2.090979259      5.858655547       0.02886840242     -0.06353842851    -0.0763810592     -0.2494923033     
1160000000        -0.04633157328    -0.1532079726     -1.1830831        6.025679231       0.02098414497     -0.06604660821    0.009587137721    0.0665831422      
1270000000        -0.01444669534    0.1361085027      -0.5373684998     6.049942187       0.01310348343     -0.06747391239    -0.2524817778     -0.09063498462    
1380000000        0.03860823438     -0.1434230208     0.3330605411      6.084427009       0.004601724921    -0.06846806231    0.140971772       0.06695174719     
1490000000        -0.09269800782    0.09693518281     1.002390292       5.967992124       -0.004189272858   -0.06621084957    -0.2532632977     0.150062704       
1600000000        0.08516614884     -0.08985749632    1.777968996       5.793167113       -0.01192547851    -0.0650845574     0.1554868739      -0.1227477324     
1710000000        -0.1206598952     0.03291283175     2.45963468        5.497994442       -0.01578387223    -0.06338077252    -0.09606716922    0.2671499409      
1820000000        0.0927638039      -0.02749790251    3.183707593       5.153694246       -0.0295999815     -0.05724270145    0.0366419783      -0.1070596218     
1930000000        -0.1168863177     -0.02504649572    3.767115801       4.749705095       -0.0339056267     -0.05717010877    0.2467965396      0.2984725303      
2040000000        0.06436574459     0.02383918501     4.323353434       4.248633853       -0.04034589769    -0.04937317414    0.003879906433    -0.1596378251     
2150000000        -0.09009069204    -0.04354408011    4.733601538       3.514051046       -0.04992086325    -0.03770608584    0.3678415446      -0.0859500681     
2260000000        0.03376379237     0.04138782993     5.194574115       2.907341456       -0.04806348396    -0.03890652746    -0.05405173644    -0.216202242      
2370000000        -0.06383066624    -0.0505018346     5.485674196       2.106788089       -0.05755868598    -0.02352338244    0.03852121751     -0.4342610599     
2480000000        0.00523685338     0.03641854599     5.643280729       1.587649752       -0.05112075188    -0.03246270668    -0.302997256      -0.1752303663     
2590000000        -0.06258428097    -0.03840201348    5.845179423       0.6355306938      -0.06278456398    -0.001816675006   -0.401942888      -0.0217806047     
2700000000        0.003950178158    0.03816111758     5.967614492       -0.1286587384     -0.05426523553    -0.02158613172    -0.27551639       0.2055990496      
2810000000        -0.05439218879    -0.05570612475    5.638114162       -0.9415096943     -0.05854172211    0.005352817998    -0.04946370774    0.514548738       
2920000000        0.007490294054    0.05679689348     5.814189357       -1.696944197      -0.0596310408     0.001988301623    0.05272793522     0.3323583751      
3030000000        -0.01686798781    -0.1016860902     5.542899955       -2.216202502      -0.05656397547    0.01055944514     0.7439323718      0.3020709785      
3140000000        -0.03582521901    0.06489064544     5.157041776       -2.817800669      -0.05634912653    0.01265449222     0.1949741193      -0.09082768886    
3250000000        0.01803357527     -0.105910033      4.805344023       -3.537571407      -0.0490137981     0.02896599111     0.7563099101      -0.7093714232     
3360000000        -0.09389669448    0.04965973645     4.495600816       -4.020229552      -0.051164992      0.01867227915     -0.3623578717     -0.2928953689     
3470000000        0.09143276513     -0.07648808509    3.648106067       -4.631614435      -0.0435988647     0.03232148675     -0.347954235      -0.9717201872     
3580000000        -0.1463582963     0.003898245282    3.200490694       -5.088804711      -0.04400328021    0.0314019677      -0.7165607265     0.5171922375      
3690000000        0.1068831906      -0.002744390629   2.410306009       -5.510025492      -0.03572392448    0.04166495391     -0.789107834      -0.1195820892     
3800000000        -0.1575230658     -0.04582910985    1.79999724        -5.630669552      -0.0300640704     0.04204080589     0.1858271811      1.13430229        
3910000000        0.0664556399      0.07921275496     1.146461789       -5.871365425      -0.02823995818    0.04636145171     -0.1786347665     0.3558557662      
4020000000        -0.1259583682     -0.1108732969     0.1423171336      -6.004099672      -0.02051511312    0.04655268875     1.089463673       0.3666230685      
4130000000        -0.01274311449    0.1168205142      -0.5475460101     -6.090558753      -0.02378968314    0.04912707795     0.2120827573      -0.06442338648    
4240000000        -0.07995022088    -0.1389533579     -1.87499872       -5.854391328      0.00452836064     0.05304727271     0.4205225725      -0.997557528      
4350000000        -0.1159966514     0.0926432386      -2.089197065      -5.897151152      -0.007464499302   0.05316032238     -0.4007378328     -0.04053831057    
4460000000        0.01528041624     -0.1115167588     -2.993677809      -5.418011975      0.01584640465     0.04968733858     -0.4459483035     -0.3264554392     
4570000000        -0.1614127755     0.007590490859    -3.562489099      -5.12521893       0.001374778782    0.05394247979     -0.2599347507     0.4923578596      
4680000000        0.04470584542     -0.02336942405    -4.375339219      -4.582092725      0.03739781582     0.04084611007     0.1977446006      0.3984658963      
4790000000        -0.126873225      -0.05985590443    -4.764155087      -3.819693303      0.01588583936     0.05295684787     0.5598264668      0.2971523079      
4900000000        0.01201599836     0.06347611547     -5.405601035      -3.069992376      0.04432087777     0.03184859958     0.7576368615      -0.6035171322     
5010000000        -0.07169803977    -0.07293815166    -5.567809676      -2.262938724      0.03543051759     0.04057810198     0.2001583754      -0.6736430307     
5120000000        -0.07637857646    0.07810089737     -5.99524471       -1.233633975      0.05213793593     0.01977612528     -0.8625969081     -1.221731883      
5230000000        0.001598700299    -0.04917771742    -6.086183273      -0.4081534624     0.04700972496     0.02795863202     -1.0664125        -0.1104448929     
5340000000        -0.1349624246     0.02407942154     -5.702553362      0.7109750743      0.05486344575     0.003015769408    -1.67436065       0.7645991545      
5450000000        0.03903501853     0.01556724589     -5.753778306      1.562725485       0.05509175024     0.007364947131    -0.1310544175     1.69664794        
5560000000        -0.1343756318     -0.0806088075     -5.104493265      2.372394859       0.05197953975     -0.007514278485   0.6778087542      1.882867186       
5670000000        0.02866709977     0.08738598228     -4.526194801      3.018542973       0.05326718386     -0.01037294122    2.311297486       0.7329931154      
5780000000        -0.05017536506    -0.1590873599     -4.036583024      3.709512228       0.04730589136     -0.02024282232    2.315014618       -0.574688748      
5890000000        -0.04187029973    0.1335498989      -2.918904974      3.835250068       0.04312854059     -0.03038639681    1.364681141       -3.102867636      
6000000000        0.08136168867     -0.1517889649     -1.919271188      4.471639439       0.03560261417     -0.03075112335    -1.014703313      -2.690053983      
