! RsaToolbox (C) 2015 Rohde & Schwarz America
! 
! Number of points: 51
! Number of ports: 2
! Balanced ports?: No
! 
! 
# Hz S RI R 50
500000000         -0.1525303721     0.06702517718     -4.913012773      3.436693169       0.06521192303     -0.03727167359    0.08244040958     0.1033642288      
610000000         0.1510372013      -0.01686219871    -4.496765255      4.041887323       0.0572933807      -0.04260826167    0.03706757075     0.1720560481      
720000000         -0.1633419842     -0.01354199369    -3.948759         4.572620948       0.04781121111     -0.05354992822    0.1290741803      0.02931208409     
830000000         0.1314314157      0.06205341965     -3.321941524      5.076411787       0.04499136408     -0.05495169514    0.1615536052      -0.09057292633    
940000000         -0.1268641055     -0.1035601646     -2.649281723      5.523270636       0.03651849663     -0.06036829185    0.03738304941     -0.07239307361    
1050000000        0.07322330773     0.1237803921      -1.970248919      5.806496443       0.0285856662      -0.06386463425    -0.08220455207    -0.2436861225     
1160000000        -0.04630171508    -0.1511773467     -1.193007856      6.013219809       0.01949042622     -0.06667912358    0.00917981618     0.0520252485      
1270000000        -0.01462301984    0.1353150606      -0.4543557942     6.075984581       0.01350707949     -0.06718415403    -0.2664041403     -0.08057503725    
1380000000        0.03749356791     -0.1409242451     0.36969523        6.032226731       0.006303662043    -0.06792725771    0.1328103873      0.06680642721     
1490000000        -0.08942256123    0.09510884434     1.041413294       5.937007441       -0.003505780726   -0.06762699159    -0.2356726617     0.1686359808      
1600000000        0.0823341012      -0.08983886242    1.85438768        5.765679181       -0.0112163697     -0.06419279828    0.1584534503      -0.1204993355     
1710000000        -0.1192238703     0.03190379217     2.486606459       5.486771451       -0.01595998139    -0.06380153206    -0.09804136071    0.2943493785      
1820000000        0.09027864784     -0.02818211354    3.1805893         5.121839331       -0.02929608279    -0.05754014466    -0.0004485096939  -0.1209325396     
1930000000        -0.1117521301     -0.02303584293    3.704167785       4.681409833       -0.03309453857    -0.05622163067    0.2437725647      0.2861194011      
2040000000        0.06177944317     0.01990504377     4.32330924        4.149654656       -0.03950389666    -0.04936417407    0.007125466856    -0.1539849897     
2150000000        -0.08874482661    -0.03924244642    4.773542437       3.420296684       -0.04931185318    -0.03825718292    0.378799822       -0.08422046616    
2260000000        0.03235908598     0.03781853616     5.18876487        2.850184356       -0.04732275112    -0.03987365188    -0.05690617701    -0.2080238478     
2370000000        -0.0635939315     -0.04418013617    5.435000219       2.003680198       -0.05722430627    -0.02401685517    0.05059798249     -0.4248499494     
2480000000        0.009245680645    0.03112982213     5.682619988       1.420232642       -0.0514067973     -0.03299286101    -0.3137752701     -0.1481043912     
2590000000        -0.06100167334    -0.03588071838    5.682816201       0.6187967662      -0.06003250685    -0.0004521977514  -0.4027659234     -0.04883381154    
2700000000        0.008135865442    0.03446303308     5.872663895       -0.1687752801     -0.05577091994    -0.02112161026    -0.2985258048     0.2400879778      
2810000000        -0.05741894618    -0.05086138844    5.607659452       -1.012263758      -0.05972222628    0.0067124754      -0.04572421964    0.5206522216      
2920000000        0.01328004245     0.05374171585     5.6449872         -1.65787417       -0.05738080568    -0.0005505556076  0.0544491116      0.359424912       
3030000000        -0.02116245776    -0.1019985452     5.388711167       -2.238979054      -0.05630249294    0.01233957287     0.7533656678      0.3138053464      
3140000000        -0.03287443519    0.06979590654     5.091091665       -2.882455621      -0.05522872941    0.0124437773      0.21247706        -0.1066627061     
3250000000        0.01177137438     -0.1074245647     4.668854961       -3.616260443      -0.04823508071    0.02999673422     0.7542072941      -0.729364794      
3360000000        -0.09045480192    0.05691672862     4.346943814       -4.040673736      -0.05080740826    0.01816014867     -0.3589952038     -0.3081279286     
3470000000        0.09007594734     -0.0835416317     3.505355246       -4.69153926       -0.04340510592    0.03430830446     -0.3719184675     -0.9452543374     
3580000000        -0.1436877102     0.008786272258    3.081221788       -4.993035277      -0.04329451017    0.0313691187      -0.695909388      0.5219974332      
3690000000        0.1080979705      -0.008362255059   2.297379979       -5.440095499      -0.03575899811    0.04145556318     -0.7688496531     -0.07359548899    
3800000000        -0.1597110182     -0.04259582236    1.695661574       -5.577745675      -0.02986141517    0.04132669505     0.2078771947      1.112416915       
3910000000        0.07223085314     0.07520215958     0.9832968274      -5.827903103      -0.02770693017    0.04663492085     -0.1486702343     0.3676146191      
4020000000        -0.13109079       -0.1055303514     0.00991863016     -5.859531715      -0.02059616407    0.04731467147     1.090555908       0.3509380346      
4130000000        -0.003886756254   0.1172509938      -0.684370342      -6.01932658       -0.02389118792    0.04784281402     0.2258571226      -0.05624147021    
4240000000        -0.08759077638    -0.1348559707     -1.94757035       -5.645256986      0.002947442919    0.05252202823     0.4128796656      -0.9943080707     
4350000000        -0.1066534147     0.09729088843     -2.198547259      -5.687388502      -0.00860510777    0.05281167337     -0.3709236691     -0.03648362724    
4460000000        0.006420238875    -0.1157431751     -3.068457088      -5.233243635      0.01607360414     0.05055162767     -0.4671622218     -0.2965003812     
4570000000        -0.1567447782     0.01902437955     -3.655068497      -4.875890032      0.0006106377947   0.05266444625     -0.2367107128     0.4791237043      
4680000000        0.03786414862     -0.03404399753    -4.350746233      -4.307216544      0.03626090044     0.04111766858     0.197108251       0.4132168054      
4790000000        -0.1318380982     -0.04914540797    -4.766518548      -3.614999873      0.01638461943     0.05158158571     0.5608061566      0.2734838303      
4900000000        0.01322543621     0.05107662827     -5.377664627      -2.858179079      0.04474209181     0.03153571039     0.7674599936      -0.5830217044     
5010000000        -0.07946998626    -0.06030633301    -5.46042422       -1.994491131      0.0353992996      0.04147949445     0.1878680714      -0.6832081084     
5120000000        -0.06535756588    0.06733320653     -5.849563566      -1.044601896      0.05072463032     0.02020180638     -0.8364631308     -1.19635049       
5230000000        -0.01266654953    -0.04239351675    -5.852273779      -0.1925736358     0.04720969989     0.02779368099     -1.073134732      -0.09262400138    
5340000000        -0.1181682572     0.0200606063      -5.467520579      0.8641954939      0.05431916414     0.003079660686    -1.648030586      0.7466897988      
5450000000        0.0205578804      0.01427918393     -5.467364977      1.670605226       0.0545937585      0.008562395481    -0.1450707733     1.711975482       
5560000000        -0.1182765216     -0.07303528488    -4.801454521      2.422060713       0.05306640717     -0.01025093922    0.7176410825      1.865881585       
5670000000        0.01420751866     0.07896994799     -4.248162717      3.06549849        0.05427879664     -0.01028161866    2.289469855       0.742093493       
5780000000        -0.03894529492    -0.1425650269     -3.718477729      3.641019056       0.04680256958     -0.02057185699    2.278521628       -0.6145528449     
5890000000        -0.04578915238    0.1211030632      -2.622251509      3.780171802       0.04289326937     -0.03091955176    1.347543254       -3.074975278      
6000000000        0.07957924157     -0.1341637671     -1.683907007      4.307401445       0.03615809399     -0.0320878033     -1.019184022      -2.685279663      
