! RsaToolbox (C) 2015 Rohde & Schwarz America
! 
! Number of points: 51
! Number of ports: 2
! Balanced ports?: No
! 
! 
# Hz S RI R 50
500000000         -0.1547516137     0.06827110797     -4.978980576      3.458770622       0.0642112468      -0.03783030368    0.09755002802     0.09871915629     
610000000         0.1529449373      -0.01717506163    -4.496492578      4.072241288       0.05826420942     -0.04403846362    0.03689000623     0.174443673       
720000000         -0.1665041447     -0.01390717272    -4.023765109      4.633078621       0.04787725302     -0.0537333246     0.1284956657      0.03031497371     
830000000         0.1324685067      0.06263871491     -3.341775397      5.096360457       0.04480295778     -0.0547976265     0.1507096737      -0.08955978894    
940000000         -0.1279702485     -0.1057986021     -2.690012868      5.533775387       0.03629992271     -0.06021582633    0.0413450163      -0.07390409153    
1050000000        0.07393271476     0.1251047403      -1.977741894      5.81202625        0.02934844377     -0.06378274273    -0.08296656788    -0.2336717619     
1160000000        -0.04631694779    -0.1519965678     -1.197551818      5.982671478       0.02025929359     -0.06617283725    0.01164396163     0.05540457137     
1270000000        -0.01417267788    0.137680009       -0.4857552069     6.094603253       0.0134169993      -0.06815765263    -0.2713667323     -0.0819775913     
1380000000        0.03864617646     -0.1436124891     0.3467464785      6.091200192       0.00676057146     -0.06803090123    0.1371326953      0.07159148812     
1490000000        -0.09084585309    0.09724836051     1.010335715       5.975648637       -0.003411401319   -0.06702572633    -0.2308514908     0.1656763308      
1600000000        0.08346252143     -0.09130001813    1.853821675       5.773651886       -0.01192465339    -0.06439369306    0.1561701609      -0.12707454       
1710000000        -0.1218903065     0.03204137087     2.432364716       5.528220098       -0.01697293076    -0.06358820734    -0.09716915791    0.2905134666      
1820000000        0.09254917502     -0.02801411413    3.175479389       5.163340012       -0.02933092776    -0.05807360278    -0.004996448808   -0.1218637609     
1930000000        -0.1133659557     -0.02354123071    3.69041874        4.68256046        -0.03332629924    -0.05549407582    0.2397878021      0.2919593061      
2040000000        0.06406456232     0.02170275338     4.320666112       4.202188753       -0.03939139782    -0.04951227306    0.01138036502     -0.1460221692     
2150000000        -0.08991185576    -0.04115560278    4.747948635       3.440026597       -0.04969005127    -0.03932109529    0.3720103476      -0.0831845131     
2260000000        0.03378645703     0.04095403105     5.181608155       2.905675179       -0.04861914784    -0.03939144241    -0.04308610559    -0.2084419303     
2370000000        -0.06443348527    -0.04825631529    5.465809483       2.090521151       -0.05721918061    -0.02430920102    0.05515547099     -0.4164580374     
2480000000        0.007177160587    0.03492125124     5.717833983       1.482600622       -0.0514226431     -0.03282264087    -0.3082624138     -0.1432197519     
2590000000        -0.06045043096    -0.0384192802     5.732371383       0.6107403292      -0.06135943734    -0.001151584228   -0.4100622222     -0.03659090827    
2700000000        0.004478555173    0.0360834673      5.939746376       -0.1752884735     -0.05391656626    -0.02055273254    -0.2922670418     0.246961817       
2810000000        -0.05460033566    -0.05505546182    5.690574449       -0.9825128729     -0.05936907176    0.006915400051    -0.054601929      0.5190607654      
2920000000        0.008221530356    0.05455251411     5.736017959       -1.596203487      -0.05767784779    -0.001074228027   0.04928100606     0.3432301793      
3030000000        -0.0187046919     -0.1010629386     5.491523725       -2.257128812      -0.05733614324    0.01206560984     0.7462964255      0.3215350406      
3140000000        -0.03819037601    0.06941142678     5.221160491       -2.917057649      -0.05787256654    0.01234953619     0.2094157003      -0.1150638766     
3250000000        0.01626227982     -0.1049158424     4.787527127       -3.62218424       -0.04886178857    0.02946216998     0.7582596434      -0.7145092274     
3360000000        -0.0948632583     0.05166089907     4.492043097       -4.014897837      -0.05135947636    0.02019368965     -0.3627096698     -0.3216850856     
3470000000        0.09128000587     -0.07821139693    3.5718418         -4.725258228      -0.04272229565    0.03332469583     -0.3530235213     -0.9426791166     
3580000000        -0.1458728164     0.003503800603    3.185482582       -5.050323386      -0.04353155666    0.03167120967     -0.7133858955     0.5165539792      
3690000000        0.1071694866      -0.002358071972   2.426186922       -5.468292371      -0.03596340904    0.04196366107     -0.7670372944     -0.06775475014    
3800000000        -0.1577843428     -0.04757354409    1.79081675        -5.649501991      -0.03055330023    0.0421155999      0.1899295479      1.133226571       
3910000000        0.06721046567     0.08018830419     1.082805172       -5.897299851      -0.02815835005    0.04606263125     -0.1421118114     0.3657050235      
4020000000        -0.1266266108     -0.1102432758     0.1069587055      -5.960142622      -0.0209739063     0.04788143439     1.101419425       0.365762153       
4130000000        -0.01290158648    0.1172637716      -0.5481432871     -6.119372958      -0.02399525856    0.04839178877     0.2251681413      -0.06714687259    
4240000000        -0.07972925156    -0.1373056322     -1.856874549      -5.811403239      0.00315905779     0.05270360942     0.4219010619      -0.9825058551     
4350000000        -0.1160123125     0.092568703       -2.112122394      -5.869252434      -0.007903527688   0.05272123693     -0.3779193168     -0.04254356217    
4460000000        0.01580029726     -0.111260362      -3.005587091      -5.388196809      0.01651248702     0.05051689633     -0.4633587815     -0.2903193449     
4570000000        -0.1614816338     0.008803563192    -3.586867344      -5.066093056      0.001730447661    0.05340050192     -0.2389106919     0.4814969626      
4680000000        0.04498881102     -0.02326754481    -4.307453056      -4.566251422      0.03678329068     0.04138312021     0.2183399789      0.4059509101      
4790000000        -0.1305966228     -0.06201378629    -4.816229139      -3.842251713      0.01640834344     0.05176348311     0.5457082641      0.2873529439      
4900000000        0.0121610621      0.06294047087     -5.437170604      -3.056965698      0.04474136394     0.03250514255     0.7722055329      -0.6070512183     
5010000000        -0.07266550511    -0.0710266009     -5.585658731      -2.184244215      0.03537562857     0.04101195096     0.1867401919      -0.6779849754     
5120000000        -0.07519308478    0.0782463029      -6.028041659      -1.264938444      0.05042555164     0.01899610523     -0.8389524963     -1.208489155      
5230000000        0.001833142014    -0.04820017144    -6.066391172      -0.3906822447     0.04655776579     0.027399349       -1.063572687      -0.08179023866    
5340000000        -0.1330517232     0.02468041517     -5.693993743      0.7230527115      0.05463693722     0.002269122763    -1.670154541      0.7602948418      
5450000000        0.03682219237     0.01406266075     -5.714666284      1.55047213        0.05420103996     0.007608088315    -0.135886326      1.716691521       
5560000000        -0.1333927214     -0.08024838567    -5.055842497      2.32202285        0.0518648774      -0.009579445606   0.6991772874      1.86223706        
5670000000        0.02703002281     0.08716318011     -4.506882768      3.016068841       0.05318101725     -0.01065764784    2.299168212       0.7380782698      
5780000000        -0.04853785038    -0.1563062817     -3.959683348      3.678500943       0.04716578729     -0.02126110199    2.278145764       -0.5975235152     
5890000000        -0.03869313747    0.1336604208      -2.863075286      3.836621482       0.04369147783     -0.03115455829    1.386295524       -3.107321404      
6000000000        0.07931864262     -0.1507403404     -1.897012962      4.433071118       0.03552106555     -0.03157026932    -1.03204548       -2.666179074      
