! RsaToolbox (C) 2015 Rohde & Schwarz America
! 
! Number of points: 51
! Number of ports: 2
! Balanced ports?: No
! 
! 
# Hz S RI R 50
500000000         -0.1520047188     0.06860899925     -4.898939539      3.456555968       0.06471849564     -0.03650549311    0.08374026872     0.100557979       
610000000         0.1516799927      -0.01764676906    -4.499308114      4.077998188       0.05873827018     -0.0437899134     0.03366167338     0.1776114486      
720000000         -0.1636728346     -0.01319330931    -3.95239123       4.581471741       0.04800167065     -0.05349781206    0.1312313261      0.02443855486     
830000000         0.132531479       0.06238804758     -3.352625839      5.077906214       0.04450021823     -0.05498696482    0.161819849       -0.08837195003    
940000000         -0.1265411377     -0.1045402363     -2.666752426      5.517735439       0.03663123698     -0.06066134909    0.03463856585     -0.07406704137    
1050000000        0.07401536405     0.1245526001      -1.983288318      5.804510962       0.0287018569      -0.06375897331    -0.08237864184    -0.2419140778     
1160000000        -0.0464062877     -0.1528835446     -1.207447462      6.014176422       0.02005184964     -0.06665597986    0.01165307578     0.05487229526     
1270000000        -0.01390585862    0.1364299357      -0.4520307129     6.06562664        0.01354760485     -0.06745886392    -0.2648322001     -0.07658918249    
1380000000        0.03793245554     -0.142181471      0.3422735462      6.043193897       0.006209642713    -0.06769905534    0.132976498       0.06670939468     
1490000000        -0.09031859785    0.09626191109     1.017669515       5.943623043       -0.003202347161   -0.06714535072    -0.2354641963     0.1676136721      
1600000000        0.08319925517     -0.0904930681     1.840685127       5.774971779       -0.01152982962    -0.06427267186    0.1573999114      -0.1187683885     
1710000000        -0.1207954586     0.03232438117     2.46187766        5.494229174       -0.01660496047    -0.06368285989    -0.09670900501    0.2908135933      
1820000000        0.09232533723     -0.02800061367    3.16677422        5.152348816       -0.02930281761    -0.05782654305    -0.001205180274   -0.1237399416     
1930000000        -0.1133405268     -0.02335350774    3.702416838       4.693226252       -0.0329120965     -0.05574941458    0.2447047788      0.2840738389      
2040000000        0.06320676208     0.02088267542     4.310270269       4.170914629       -0.03920364176    -0.04910256558    0.005860138885    -0.1525732467     
2150000000        -0.09012223035    -0.04028495029    4.776066828       3.450955745       -0.04913316968    -0.03906417527    0.3798172688      -0.08058981263    
2260000000        0.03325833753     0.040485017       5.179593116       2.89073441        -0.04818667856    -0.03906685152    -0.05419049684    -0.2096017129     
2370000000        -0.06450159103    -0.0470526889     5.4610894         2.046457649       -0.05723638974    -0.02379785276    0.05185128901     -0.4233741865     
2480000000        0.008212574758    0.03300854191     5.70760499        1.444439939       -0.05171774562    -0.0326055841     -0.3079037698     -0.1448375242     
2590000000        -0.06083227694    -0.03828256577    5.747457684       0.6348331135      -0.06042732911    -0.0004794598327  -0.4081500875     -0.04490985285    
2700000000        0.005013748538    0.03554361686     5.871922543       -0.1403555894     -0.05526171049    -0.02153573236    -0.2898689595     0.2343139414      
2810000000        -0.0553464368     -0.05297538266    5.648120989       -0.9948358781     -0.05887538064    0.007057635337    -0.04039772533    0.5218401734      
2920000000        0.01011374313     0.05483115837     5.701154777       -1.631941299      -0.05834762216    -0.0004999055991  0.05714573448     0.3575179005      
3030000000        -0.01772854291    -0.102381736      5.463861018       -2.194594791      -0.05745964403    0.01213412262     0.754685164       0.3164285737      
3140000000        -0.03472970426    0.06845634431     5.111155946       -2.876176408      -0.05628711843    0.01209258976     0.2183807544      -0.1095667425     
3250000000        0.01640363969     -0.1049530283     4.728085658       -3.57100197       -0.04823417821    0.0301564861      0.7627179919      -0.7253195814     
3360000000        -0.09303788096    0.05213389918     4.423217661       -4.029391638      -0.05201252277    0.0186838434      -0.3729584256     -0.3158674656     
3470000000        0.0912617743      -0.07881119847    3.553957131       -4.687623138      -0.04323472414    0.03417595003     -0.3618400524     -0.9629429491     
3580000000        -0.1443284154     0.004629621282    3.149210757       -5.013738446      -0.04378181376    0.03135115815     -0.6990493834     0.5185094689      
3690000000        0.1071596742      -0.003842790378   2.368389254       -5.468150593      -0.03606959375    0.04192498814     -0.7652617117     -0.0752219604     
3800000000        -0.1590411514     -0.04684325308    1.780251117       -5.623213172      -0.03005735979    0.04206278886     0.2043575728      1.119346364       
3910000000        0.06769853085     0.07884337008     1.072885324       -5.861866313      -0.02862248091    0.04621494783     -0.1418069963     0.3641709659      
4020000000        -0.1264938414     -0.1090223566     0.09364095245     -5.914828451      -0.02080339902    0.04752500005     1.098112876       0.3595318157      
4130000000        -0.009893522598   0.1185973287      -0.6279898987     -6.082363488      -0.02380003138    0.0482450857      0.2225266751      -0.06627377033    
4240000000        -0.08174030483    -0.1370017976     -1.90059151       -5.734618243      0.003156847052    0.05270416392     0.4238862504      -0.9889531842     
4350000000        -0.1142830625     0.09292865545     -2.109958601      -5.812196506      -0.008030668152   0.05288417821     -0.3743914811     -0.04208892381    
4460000000        0.0143534895      -0.1136862338     -3.019395655      -5.362871058      0.01625679228     0.05004689567     -0.4530328031     -0.2959753647     
4570000000        -0.1610516757     0.01067408174     -3.60182241       -5.026297912      0.001372682082    0.05356607773     -0.2435753565     0.481453069       
4680000000        0.04311774671     -0.02657511644    -4.336437877      -4.462758152      0.03674585728     0.04119326354     0.2097435937      0.4103002942      
4790000000        -0.1308003664     -0.05916146189    -4.781305871      -3.766900626      0.0166894705      0.05165590354     0.5528306837      0.276918684       
4900000000        0.01291470509     0.06083314866     -5.398954176      -3.022071678      0.04447660339     0.03198001891     0.7709807763      -0.590321055      
5010000000        -0.07368953526    -0.06958178431    -5.510142179      -2.153453315      0.03539860231     0.04077483272     0.1772023525      -0.676092571      
5120000000        -0.07292937487    0.0755796507      -5.951801262      -1.206561963      0.05061720284     0.01894742048     -0.8445344134     -1.209944477      
5230000000        -0.001351793529   -0.04825596884    -6.006015444      -0.3352617194     0.04717347375     0.02709622482     -1.0708676        -0.08629079977    
5340000000        -0.1299421191     0.02464420721     -5.630928362      0.7557988973      0.05427540479     0.002824405252    -1.664762463      0.7464678163      
5450000000        0.03425780311     0.01342660654     -5.665176584      1.567473843       0.05511341145     0.007578239964    -0.134148987      1.726842875       
5560000000        -0.1302113831     -0.07716936618    -4.988615234      2.36471813        0.05224535824     -0.009836201012   0.7106994349      1.87132149        
5670000000        0.02504743636     0.08486730605     -4.45432524       3.051005325       0.05317683949     -0.01096557971    2.303079349       0.7330113652      
5780000000        -0.0462702401     -0.1538467556     -3.934703062      3.643547934       0.04770361054     -0.02098863464    2.272614802       -0.6124355453     
5890000000        -0.03977357969    0.1306198239      -2.810651646      3.815867122       0.0429970674      -0.03102730452    1.350001574       -3.083288488      
6000000000        0.07862263918     -0.1478772312     -1.848962343      4.402554135       0.03596337543     -0.03211655663    -1.026184582      -2.688358812      
