! RsaToolbox (C) 2015 Rohde & Schwarz America
! 
! Number of points: 51
! Number of ports: 2
! Balanced ports?: No
! 
! 
# Hz S RI R 50
500000000         -0.1593514532     0.06740366668     -5.069278658      3.500832993       0.06508168601     -0.03811913304    0.06457458352     0.08678170399     
610000000         0.153120324       -0.01694255881    -4.53164679       4.081958057       0.05863605847     -0.04281450032    0.04297157803     0.1679327412      
720000000         -0.1654880345     -0.01313341502    -3.962393042      4.647023376       0.04761213569     -0.05356990936    0.1340449051      0.02050205274     
830000000         0.1315627694      0.06198031455     -3.275969482      5.113727877       0.04459911472     -0.05481128945    0.1532262702      -0.08654942165    
940000000         -0.1257855147     -0.1041908562     -2.716034389      5.507838936       0.03630969282     -0.06090229432    0.02484806582     -0.08050199523    
1050000000        0.07569489628     0.1254826635      -1.947759568      5.893213704       0.02923819847     -0.06395910347    -0.06214047231    -0.2429751941     
1160000000        -0.0473918654     -0.1548300087     -1.220356274      6.07753273        0.02020454711     -0.06671241459    0.002037592975    0.06156834435     
1270000000        -0.01325225271    0.1357209384      -0.4606986636     6.049488924       0.0132650258      -0.06751316047    -0.255580285      -0.07919805596    
1380000000        0.03854390234     -0.1438803971     0.3551878539      6.052792942       0.005615916768    -0.06788405777    0.1170493086      0.08030156777     
1490000000        -0.0909730196     0.09775176644     1.002566636       5.988965406       -0.003640614246   -0.06795985951    -0.2325588171     0.1718236534      
1600000000        0.08494383097     -0.08988635242    1.807332141       5.822140115       -0.01179690233    -0.06537479662    0.1665945643      -0.1108080654     
1710000000        -0.121834375      0.0338024646      2.462450981       5.499816617       -0.01690439435    -0.06328722831    -0.09997994097    0.2867883616      
1820000000        0.09215085953     -0.02789846994    3.186548878       5.171307646       -0.02967137932    -0.05756585541    0.007740049351    -0.1148434211     
1930000000        -0.1147879735     -0.02341652289    3.684571634       4.708239147       -0.03263038392    -0.05594077218    0.2460359024      0.2733608609      
2040000000        0.06462670863     0.02316112444     4.344156908       4.227923974       -0.03933215574    -0.05012753575    0.006129802641    -0.1643655413     
2150000000        -0.09090590477    -0.04265099764    4.765596779       3.481185367       -0.04987865579    -0.03924632083    0.36488362        -0.08001846224    
2260000000        0.0336821489      0.04236212745     5.179594989       2.945923746       -0.04743498331    -0.03877649813    -0.03439735241    -0.2292202687     
2370000000        -0.06421330571    -0.04820894077    5.521023364       2.081775075       -0.05748835665    -0.02363644345    0.02863539297     -0.4033666797     
2480000000        0.006099499762    0.03464709222     5.699212206       1.502573468       -0.05157760495    -0.03221382722    -0.3015866713     -0.1574099802     
2590000000        -0.06138273329    -0.04010767117    5.746650788       0.6592258318      -0.06221743174    -0.0008918601998  -0.4088814382     -0.05808335421    
2700000000        0.003505870933    0.03607696295     5.896544482       -0.2115221702     -0.05466581335    -0.0224978929     -0.2960447372     0.2182675954      
2810000000        -0.05321095139    -0.05622110888    5.695919574       -0.9075980036     -0.05902512343    0.008284306035    -0.05457666824    0.5199381436      
2920000000        0.009585625492    0.0553868562      5.718493955       -1.660347665      -0.05780506639    -0.00159023292    0.04972720709     0.3577341283      
3030000000        -0.01816933043    -0.1005451903     5.456614512       -2.193091357      -0.05730302424    0.01313147458     0.7736419057      0.3256768111      
3140000000        -0.0376502648     0.0663100034      5.176552206       -2.817992967      -0.05606385853    0.0106858116      0.2184307878      -0.1058609903     
3250000000        0.01792453416     -0.1022473946     4.710944288       -3.515679961      -0.0491137263     0.02844546793     0.7747592886      -0.7212374711     
3360000000        -0.09592959285    0.05110585317     4.482255454       -4.070604262      -0.05094907507    0.01751158233     -0.3603257726     -0.3024554202     
3470000000        0.09099705517     -0.0776713565     3.608939915       -4.695863305      -0.04326728957    0.03412945374     -0.3513552247     -0.964183861      
3580000000        -0.1440893859     0.005193538964    3.165224054       -5.043134814      -0.0437592585     0.0304837974      -0.7040766955     0.5374897206      
3690000000        0.1071754172      -0.001887182239   2.477377351       -5.505885585      -0.03616625292    0.04153786244     -0.7652576913     -0.09130657841    
3800000000        -0.1581863761     -0.04862521216    1.847466195       -5.634466265      -0.02986599078    0.04212830424     0.2089975095      1.130274893       
3910000000        0.06607022136     0.07971006632     1.134316635       -5.901686626      -0.02905437931    0.04744057935     -0.1542329833     0.3633538378      
4020000000        -0.1250759363     -0.1101023629     0.1294646607      -5.944715132      -0.02068918759    0.04716969844     1.103420996       0.3721798286      
4130000000        -0.01129768509    0.1173742563      -0.5360195467     -6.130005161      -0.02393258385    0.04800770071     0.2129165422      -0.0532388195     
4240000000        -0.07753416896    -0.1380651891     -1.805418376      -5.81161903       0.003496977098    0.05259283856     0.4341482747      -0.9771633005     
4350000000        -0.1154313013     0.09170931578     -2.054306028      -5.866618209      -0.007581738417   0.05350349716     -0.4049548043     -0.02999372031    
4460000000        0.01453759242     -0.1120248586     -3.027277298      -5.403687898      0.01680271289     0.04995168158     -0.4493967601     -0.3075211204     
4570000000        -0.1614685059     0.009564504959    -3.59312727       -5.113284968      0.001944371865    0.05364562067     -0.2515883864     0.4855245007      
4680000000        0.04471976683     -0.02405033261    -4.30877179       -4.531450437      0.03803745177     0.04131131484     0.2037935404      0.4090046045      
4790000000        -0.1305463016     -0.06322941929    -4.808623123      -3.896735101      0.01664769724     0.0510523048      0.565189364       0.2949069023      
4900000000        0.01184299216     0.06476857513     -5.442941919      -3.142615316      0.04444589368     0.03179789682     0.7456539376      -0.6067057319     
5010000000        -0.07089193165    -0.07097998261    -5.515062737      -2.241862452      0.03509055169     0.04051248699     0.1814551449      -0.6549151426     
5120000000        -0.07565608621    0.07919154316     -6.065715019      -1.249818375      0.05059369409     0.01976120464     -0.8707533692     -1.206835224      
5230000000        0.0001409761026   -0.04929929227    -6.034052746      -0.3765006347     0.0474278988      0.02722704953     -1.055542108      -0.07976236885    
5340000000        -0.1341438442     0.02490906231     -5.736575521      0.6864100734      0.05479562087     0.002033380438    -1.661062444      0.7687781673      
5450000000        0.03872058913     0.01566372067     -5.734700518      1.538149349       0.05587526436     0.007884492071    -0.1213814572     1.724563534       
5560000000        -0.1346167475     -0.08125995845    -5.116894697      2.341670553       0.05189655455     -0.009421974071   0.6862930552      1.894465044       
5670000000        0.02939168923     0.08713755012     -4.506682149      3.068945453       0.05316423794     -0.01116026202    2.307684751       0.726976326       
5780000000        -0.04787243903    -0.1574848741     -4.013443243      3.673570622       0.04784113056     -0.02098072657    2.277750865       -0.5925043758     
5890000000        -0.03913070261    0.1338405162      -2.875824644      3.813848063       0.04256403633     -0.03174621382    1.354039506       -3.10408978       
6000000000        0.0804920122      -0.1530989558     -1.915674955      4.490979424       0.03569044766     -0.03169656435    -1.022755289      -2.692189691      
