! RsaToolbox (C) 2015 Rohde & Schwarz America
! 
! Number of points: 51
! Number of ports: 2
! Balanced ports?: No
! 
! 
# Hz S RI R 50
500000000         -0.1521541029     0.06822196394     -4.931855308      3.436472213       0.06428613757     -0.03765460705    0.07411201818     0.1172788156      
610000000         0.152534768       -0.01533267368    -4.540439649      3.965526938       0.05812180661     -0.04358166873    0.02487211657     0.1727183097      
720000000         -0.1646572202     -0.01290034223    -3.947470576      4.575929449       0.0467392571      -0.05323043679    0.1269845571      0.02002051782     
830000000         0.1310097873      0.06258927286     -3.335039748      5.087568895       0.04495616355     -0.05517109939    0.1550348695      -0.07407941982    
940000000         -0.1285450608     -0.1060097516     -2.711138815      5.547395296       0.03653020502     -0.06026603331    0.03667396746     -0.06854079207    
1050000000        0.07380789518     0.1251806021      -1.985070473      5.793224785       0.02926636223     -0.06354825527    -0.07262308685    -0.2390380819     
1160000000        -0.0459809415     -0.1537584662     -1.247600949      6.04837423        0.02020698306     -0.06695362542    0.006014663802    0.04781920994     
1270000000        -0.0142188184     0.1373076886      -0.5164128873     6.094907898       0.01295917768     -0.06752226328    -0.2626944588     -0.07238820371    
1380000000        0.04003143683     -0.1436891109     0.308480292       6.101662259       0.005965709725    -0.06810583212    0.1316391467      0.07710190639     
1490000000        -0.0906522274     0.09679438174     1.012410745       5.985575737       -0.003444111652   -0.06771420113    -0.2467626313     0.1653156445      
1600000000        0.08351755887     -0.09048701823    1.830469193       5.773460117       -0.01122636461    -0.06464578743    0.1579811312      -0.1246818078     
1710000000        -0.1210328341     0.03232185543     2.435175052       5.528586586       -0.01658967449    -0.06348738565    -0.1067378486     0.2952777723      
1820000000        0.09273979813     -0.02790847421    3.155582741       5.13691609        -0.02865773339    -0.05756365527    0.005088816247    -0.113428109      
1930000000        -0.1150682122     -0.02436137386    3.725577903       4.779728888       -0.0324604541     -0.0559462242     0.2403723061      0.2797291011      
2040000000        0.0638647154      0.02239284292     4.290573286       4.223089716       -0.03901446085    -0.04975299785    0.01282725012     -0.1519683649     
2150000000        -0.09000746161    -0.04169963673    4.756715346       3.46391124        -0.04957042722    -0.03899845854    0.3654213054      -0.09010792236    
2260000000        0.03263814747     0.0415911898      5.212514543       2.909877804       -0.04773825537    -0.03904398628    -0.06210400234    -0.1971362869     
2370000000        -0.06516944617    -0.04823735729    5.442793419       2.054085208       -0.05714566073    -0.02387934666    0.05464291676     -0.4263416283     
2480000000        0.008089164272    0.03490344808     5.759220791       1.457115316       -0.05135181745    -0.03251406933    -0.3032724823     -0.1477591421     
2590000000        -0.06018634513    -0.03966353834    5.749973345       0.659804669       -0.06022479673    -0.0005075643238  -0.3959908316     -0.04506639706    
2700000000        0.004780983552    0.03743195906     5.945535808       -0.1123780142     -0.05502578696    -0.02175304514    -0.2795532453     0.2289557349      
2810000000        -0.05667296425    -0.05354588479    5.708462641       -1.032707989      -0.05813328043    0.007460938804    -0.06449339863    0.5237712077      
2920000000        0.00852284953     0.05475209281     5.725276535       -1.62899605       -0.05771042336    0.0009396114798   0.05105884154     0.3522427032      
3030000000        -0.01713868603    -0.1014024466     5.475110424       -2.226900803      -0.05667006247    0.01187698246     0.747501175       0.319447124       
3140000000        -0.03696617857    0.06830895692     5.17615393        -2.850469605      -0.05554798918    0.012052419       0.2075627355      -0.1101263719     
3250000000        0.01608219184     -0.104522042      4.739892284       -3.650922127      -0.04841363327    0.03036073497     0.748772961       -0.720613904      
3360000000        -0.09500005841    0.05092231557     4.446991505       -4.051559504      -0.05025893571    0.01859685118     -0.3625085814     -0.3145269856     
3470000000        0.09194605052     -0.07918006927    3.582200702       -4.679652908      -0.04241787436    0.03415482011     -0.3650597151     -0.9451520501     
3580000000        -0.1433336139     0.003447683761    3.131460264       -4.999444882      -0.04374128931    0.03163021146     -0.6954341907     0.516432374       
3690000000        0.1076681465      -0.002690373454   2.397428164       -5.504972078      -0.03566576775    0.04252797999     -0.760537383      -0.07354441378    
3800000000        -0.1580070853     -0.04771070555    1.783605004       -5.629735869      -0.03039538006    0.04275779693     0.1931500302      1.131549887       
3910000000        0.06687372923     0.08014905453     1.108680102       -5.8889231        -0.02840382991    0.04630497982     -0.1459436994     0.3531423297      
4020000000        -0.1259890497     -0.1097004935     0.1338809548      -5.950043859      -0.0207019764     0.04766654961     1.087506785       0.3611496968      
4130000000        -0.01239551976    0.1181812361      -0.5634538453     -6.139884574      -0.02428283131    0.04813330013     0.225748021       -0.06636473984    
4240000000        -0.07886132598    -0.1362887621     -1.858170752      -5.761200241      0.004167566709    0.05221941446     0.4173809401      -0.9904809749     
4350000000        -0.1163917258     0.09198852628     -2.084483396      -5.869293505      -0.008216242304   0.05285787231     -0.3851907489     -0.05277950048    
4460000000        0.01702265255     -0.1113557741     -2.977474761      -5.386361663      0.01668181833     0.05080431851     -0.4669016066     -0.2916797951     
4570000000        -0.1607289463     0.008550966159    -3.574509669      -5.051201835      0.001385029488    0.05400735452     -0.2532994095     0.48253423        
4680000000        0.04384453595     -0.02426936664    -4.310884851      -4.541430602      0.03662374722     0.04093875956     0.2193471661      0.4003286457      
4790000000        -0.1298215836     -0.06057783589    -4.800872887      -3.795882802      0.01636916647     0.05167520214     0.5507948646      0.2926710688      
4900000000        0.0129483426      0.06363622099     -5.463545185      -3.07244557       0.04484582029     0.03178831804     0.773831011       -0.5980977949     
5010000000        -0.07222290337    -0.07107321918    -5.555457304      -2.192335104      0.03648786195     0.04103130373     0.1882826578      -0.6715537897     
5120000000        -0.07495045662    0.07820476592     -6.008092881      -1.241879935      0.05064078403     0.01871414326     -0.850022255      -1.203584845      
5230000000        0.001877229312    -0.04911426827    -6.06494738       -0.3809818721     0.046857453       0.02737239383     -1.061636291      -0.06791800961    
5340000000        -0.1329239011     0.02540616132     -5.69760964       0.7521243427      0.05426527879     0.002639364519    -1.66474623       0.755997895       
5450000000        0.03718437999     0.01406243723     -5.719862175      1.548612746       0.05491354445     0.007456351192    -0.1283319866     1.716206787       
5560000000        -0.1327277124     -0.07941187173    -5.050671294      2.365649679       0.05225285055     -0.009829565887   0.6965316081      1.868565618       
5670000000        0.02737862431     0.08678840846     -4.496430115      3.05488506        0.05320995432     -0.01061820787    2.300684165       0.7340622668      
5780000000        -0.04767307639    -0.1561921686     -3.980654179      3.641672651       0.04709505731     -0.02077377036    2.280413855       -0.6133627116     
5890000000        -0.03810974211    0.1323455274      -2.839809131      3.819921759       0.04282115945     -0.03140010276    1.344065003       -3.089411458      
6000000000        0.07888633013     -0.1512812972     -1.862483915      4.441414166       0.0362255573      -0.03185501133    -1.012717609      -2.684728524      
