! RsaToolbox (C) 2015 Rohde & Schwarz America
! 
! Number of points: 51
! Number of ports: 2
! Balanced ports?: No
! 
! 
# Hz S RI R 50
500000000         -0.1537539214     0.06809744239     -4.911470584      3.428773795       0.06479691639     -0.0370686162     0.07716593169     0.1000437956      
610000000         0.154046461       -0.01814412326    -4.541657379      4.133214938       0.05783031173     -0.04473363101    0.03999745811     0.172934825       
720000000         -0.1627122909     -0.01474743523    -3.976785726      4.552336277       0.0474418515      -0.05358293129    0.1268155794      0.02826334275     
830000000         0.1337475479      0.06248140708     -3.342092938      5.087724792       0.0451777221      -0.05531206059    0.1690318769      -0.09057884474    
940000000         -0.1266700625     -0.1036637053     -2.661105856      5.524958512       0.03654201881     -0.06027527474    0.04325511871     -0.06386799229    
1050000000        0.07471176982     0.1251370013      -1.993307324      5.824833641       0.02907677828     -0.06393884412    -0.0813112997     -0.2479082734     
1160000000        -0.04717405885    -0.1521937996     -1.193220565      6.0076695         0.01926045229     -0.06587497715    0.002205966279    0.05334848867     
1270000000        -0.01351804659    0.1369473338      -0.4475743227     6.079044618       0.01358366245     -0.0673849936     -0.2598648771     -0.08649381278    
1380000000        0.03885213658     -0.142418772      0.3396309821      6.061592444       0.006056509913    -0.06851708839    0.1336187046      0.06441869482     
1490000000        -0.09065727144    0.09703353792     0.999419767       5.97587363        -0.003698668711   -0.06741141657    -0.2411956458     0.166941566       
1600000000        0.08403707296     -0.08941854537    1.784525981       5.795481382       -0.01137877351    -0.06451089307    0.1682403709      -0.1252938663     
1710000000        -0.1230571568     0.03257192671     2.465203006       5.558888822       -0.0165020726     -0.06311031113    -0.1019402103     0.2916152558      
1820000000        0.09336812049     -0.02868499421    3.190550543       5.158035373       -0.02928077148    -0.05780806252    -0.007281053124   -0.1195796399     
1930000000        -0.1137230769     -0.02439073287    3.696890723       4.740867365       -0.03243476818    -0.05603733333    0.2454688899      0.2758066621      
2040000000        0.06419692934     0.02163946256     4.351122631       4.218479593       -0.03924523814    -0.04963618385    0.01182001752     -0.1540891484     
2150000000        -0.09023530781    -0.04270928726    4.726511155       3.523806372       -0.04894750116    -0.03965687114    0.3628330358      -0.09338626576    
2260000000        0.03350592032     0.04043378681     5.174269666       2.902631596       -0.04822093956    -0.03909535054    -0.05791955087    -0.2158886758     
2370000000        -0.06369252503    -0.04691043869    5.469344685       2.031242868       -0.05806560117    -0.02420956612    0.04678881617     -0.4237998202     
2480000000        0.006478220224    0.03458347544     5.694729343       1.479011907       -0.05179791468    -0.03176974227    -0.3048755276     -0.1516027841     
2590000000        -0.06115411967    -0.03979377821    5.838693637       0.6585182772      -0.06145924765    -0.0004075069144  -0.4126890654     -0.03739876875    
2700000000        0.004704512656    0.03756932169     5.947406083       -0.1530250095     -0.05589465645    -0.02073872019    -0.2808115713     0.2193173254      
2810000000        -0.05535273254    -0.05310063437    5.666694581       -0.9796519949     -0.05829065246    0.007972436332    -0.05105350465    0.5203982607      
2920000000        0.007641600911    0.05564577878     5.82672767        -1.585075435      -0.05635485721    -0.0005487858438  0.05392080847     0.3410248203      
3030000000        -0.01779161952    -0.1014841273     5.507142834       -2.240536314      -0.05714659384    0.01371267752     0.7615763256      0.3228876361      
3140000000        -0.03711384162    0.06697887927     5.117492406       -2.838733092      -0.05417371371    0.01308082551     0.2088408701      -0.1223870784     
3250000000        0.01656498015     -0.1055102944     4.775427735       -3.612525049      -0.04820937038    0.03032607956     0.7744941028      -0.7179513798     
3360000000        -0.09472272545    0.05076212808     4.443921395       -4.029716604      -0.05195556397    0.01895074514     -0.3735972069     -0.3056552594     
3470000000        0.09309495986     -0.07773470879    3.599441717       -4.679004853      -0.04274081649    0.03504500349     -0.3616718372     -0.9429073812     
3580000000        -0.1448665261     0.002326387214    3.21243463        -5.016320749      -0.04471589565    0.03152955833     -0.7173308948     0.5249913653      
3690000000        0.1066510081      -0.001977848355   2.430353048       -5.482702081      -0.03616691233    0.04226475737     -0.7568759182     -0.07008662128    
3800000000        -0.1580696553     -0.04787381366    1.785779533       -5.644339158      -0.03017222209    0.04240871381     0.2073692773      1.127905793       
3910000000        0.06569624692     0.07954341173     1.104222261       -5.907140255      -0.02839606914    0.04633138154     -0.1474905569     0.3655907802      
4020000000        -0.1251319647     -0.109492667      0.117048484       -5.942899678      -0.02031864215    0.04816358638     1.093709944       0.3672803256      
4130000000        -0.01253311709    0.1169924438      -0.5797535113     -6.113746394      -0.0242180378     0.04824837556     0.2165095116      -0.06260234338    
4240000000        -0.07848349214    -0.1369281411     -1.843619656      -5.777354884      0.003650460743    0.0525953957      0.4317249527      -0.9724184986     
4350000000        -0.1160457954     0.0918359533      -2.098495847      -5.876673822      -0.007713600139   0.05326909332     -0.3756724869     -0.03950098445    
4460000000        0.01525941305     -0.1117915288     -3.010550044      -5.391231697      0.0172054527      0.05015114451     -0.4559276663     -0.296936254      
4570000000        -0.1607573628     0.007697990164    -3.581023003      -5.085830486      0.001767586276    0.0535383168      -0.2571784421     0.4766947548      
4680000000        0.04420866445     -0.02390324883    -4.328763801      -4.528785777      0.03727524565     0.04079510892     0.2123107454      0.4149021115      
4790000000        -0.129295215      -0.06027375907    -4.768420613      -3.780876012      0.01675277984     0.05186058312     0.5439826501      0.2820281255      
4900000000        0.01249406021     0.06314217299     -5.455040702      -3.079357263      0.04446987809     0.03187897965     0.762659784       -0.6017102247     
5010000000        -0.07303070277    -0.07114872336    -5.560709936      -2.188446641      0.03509028982     0.04171150343     0.1969676836      -0.6646490776     
5120000000        -0.07453753054    0.07735724747     -5.969907383      -1.244762456      0.05052508493     0.0191110692      -0.8418737155     -1.201374855      
5230000000        0.001378543442    -0.0485859178     -6.023222692      -0.3698592509     0.04716281791     0.02729793611     -1.077876519      -0.09197469261    
5340000000        -0.1317102313     0.02479130961     -5.658898538      0.7496092191      0.05415230494     0.002708771767    -1.664487039      0.7418938117      
5450000000        0.03765108064     0.01379139628     -5.698504641      1.58905724        0.05492276207     0.008259823818    -0.1490672675     1.737857426       
5560000000        -0.1331834346     -0.07840258628    -5.022631592      2.37325685        0.05274789904     -0.01023382332    0.7180649647      1.876727815       
5670000000        0.02870326489     0.08608993888     -4.526403743      3.027171158       0.05262458727     -0.01035839399    2.290520422       0.7268561358      
5780000000        -0.04776094854    -0.1580865234     -4.007225         3.691213822       0.04707794741     -0.02155098084    2.270701622       -0.6134049672     
5890000000        -0.03708006814    0.1328484267      -2.832475342      3.846096973       0.0432179392      -0.03059506501    1.35851787        -3.102457269      
6000000000        0.07840354741     -0.1513193995     -1.885936399      4.431594665       0.03584621787     -0.03168678718    -1.021695125      -2.667834127      
