! RsaToolbox (C) 2015 Rohde & Schwarz America
! 
! Number of points: 51
! Number of ports: 2
! Balanced ports?: No
! 
! 
# Hz S RI R 50
500000000         -0.1535803825     0.06693413854     -4.921381875      3.451210683       0.06407022034     -0.0363358152     0.09583906632     0.1103851048      
610000000         0.1518558413      -0.01699510776    -4.474586191      4.037826572       0.05962606309     -0.04380900113    0.03430915737     0.1772140347      
720000000         -0.1641233861     -0.01137243118    -3.911851865      4.580448893       0.0474653097      -0.05342443115    0.1350192761      0.02366945449     
830000000         0.1331023276      0.06220877543     -3.323649717      5.119723933       0.04454205813     -0.05552096288    0.1622802143      -0.09904736449    
940000000         -0.1262292862     -0.102934517      -2.660390422      5.509272428       0.03659067338     -0.05998209932    0.03846291265     -0.06710216412    
1050000000        0.07386025041     0.1260883659      -2.024508161      5.851872255       0.02925148179     -0.06304613773    -0.07308138656    -0.2425862127     
1160000000        -0.04697323963    -0.1529310644     -1.205192465      6.014277191       0.02018696266     -0.06653385905    0.009915078225    0.0573177453      
1270000000        -0.01507685613    0.1365282536      -0.5066123671     6.059247214       0.01355660859     -0.06735348341    -0.2598080088     -0.08094350851    
1380000000        0.0383810699      -0.1420460939     0.33975678        6.062644204       0.006316275343    -0.06824960142    0.1343173996      0.0695685381      
1490000000        -0.09073013067    0.09696840495     1.021656188       5.975973345       -0.003342199182   -0.06689427886    -0.2350762933     0.1725613002      
1600000000        0.08391386271     -0.09031952173    1.818798375       5.780594071       -0.01150822057    -0.06406393123    0.1566767491      -0.1171303685     
1710000000        -0.1213091165     0.03301844746     2.490359818       5.525484386       -0.0167556151     -0.06336453863    -0.09079800842    0.2861580514      
1820000000        0.09183632582     -0.02854639292    3.167151593       5.128077506       -0.02905631113    -0.0569666241     -0.002241964627   -0.1209525729     
1930000000        -0.1136608571     -0.02405568026    3.664373159       4.714031412       -0.03300440065    -0.0563724737     0.2478147126      0.2872106629      
2040000000        0.06343071163     0.02106337063     4.322825196       4.168714439       -0.03905061977    -0.04942537552    0.01026523346     -0.1518962195     
2150000000        -0.09067500383    -0.04083885998    4.765077529       3.434774713       -0.04918042108    -0.03895058466    0.3815020517      -0.08236044577    
2260000000        0.03409710526     0.04149611667     5.231913732       2.881521113       -0.04822324536    -0.03968498879    -0.0497679847     -0.2110977357     
2370000000        -0.06461503357    -0.0481219925     5.494942145       2.061359548       -0.05742587828    -0.02379516298    0.04036158735     -0.4290688439     
2480000000        0.00738328835     0.03481949493     5.728073522       1.472215682       -0.05210913979    -0.03206605546    -0.3151475575     -0.1447832143     
2590000000        -0.05992339551    -0.0395061262     5.753662719       0.6923830917      -0.06024264658    0.000393443148    -0.4080680775     -0.04768887863    
2700000000        0.00462931022     0.03600491211     5.930392665       -0.1315307864     -0.05472397825    -0.02178608655    -0.304776166      0.2376222286      
2810000000        -0.05396669358    -0.05428367481    5.64523377        -0.9699662325     -0.0581146194     0.0076893949      -0.04407192629    0.5260838436      
2920000000        0.008612774312    0.05501098186     5.712003365       -1.537062416      -0.05818613494    -0.0004637763086  0.05440741738     0.3555829008      
3030000000        -0.01768105291    -0.1021795943     5.485953496       -2.190609059      -0.05688206048    0.01095562308     0.7523233243      0.3301593687      
3140000000        -0.03794064745    0.06812959164     5.171744684       -2.871859683      -0.05613548075    0.01337774891     0.2134699575      -0.1162928868     
3250000000        0.01728854515     -0.1055077985     4.799530704       -3.583063358      -0.04840341072    0.0304021415      0.7634438366      -0.7103979842     
3360000000        -0.09318149835    0.04977383092     4.480009276       -4.003752468      -0.05127657417    0.0182562879      -0.3725904519     -0.3252654575     
3470000000        0.09163348377     -0.07743398845    3.577626927       -4.69813771       -0.04354803287    0.03433033696     -0.363429225      -0.9425288244     
3580000000        -0.1449107826     0.002955364296    3.193008596       -5.020585839      -0.04380214336    0.03092647379     -0.7071757583     0.5089053578      
3690000000        0.107828781       -0.002871243516   2.391326012       -5.507248738      -0.03617407388    0.04225344281     -0.7681830093     -0.08592550046    
3800000000        -0.1576567292     -0.0463902615     1.775204096       -5.625246133      -0.03031382506    0.04176845853     0.2007689096      1.124143305       
3910000000        0.06590532511     0.07991354913     1.096752472       -5.895013294      -0.02854651149    0.04594547996     -0.1549944656     0.3645163447      
4020000000        -0.1249445006     -0.1092235446     0.1095953616      -5.917222208      -0.02031967725    0.04746133455     1.090892424       0.3633609746      
4130000000        -0.01153062098    0.1175332591      -0.5797216966     -6.126814267      -0.0237227511     0.04845810413     0.229529907       -0.06055572737    
4240000000        -0.07869968563    -0.1387028396     -1.851843135      -5.813574922      0.003290338947    0.05226748445     0.4269319152      -0.9864074835     
4350000000        -0.115529038      0.09241209924     -2.110612294      -5.84356025       -0.008022265213   0.05273710463     -0.3855206765     -0.03897209097    
4460000000        0.01554537751     -0.1129681692     -3.005218815      -5.422072553      0.01638871035     0.05025902523     -0.4537422159     -0.2928674764     
4570000000        -0.1618945897     0.008660506457    -3.60748563       -5.080019383      0.001575861692    0.05350614825     -0.2513018695     0.4868894665      
4680000000        0.04444674402     -0.02497297525    -4.331478064      -4.542361449      0.03673553554     0.04097365953     0.2153388445      0.3976103554      
4790000000        -0.1300827414     -0.06112292409    -4.775442134      -3.817684655      0.0166510843      0.05238880134     0.5555151356      0.2777551912      
4900000000        0.0125361355      0.06382156163     -5.452131325      -3.094000021      0.04461661498     0.03168534246     0.7700506132      -0.6037998372     
5010000000        -0.0726192221     -0.07204195112    -5.552756752      -2.209325962      0.03548203718     0.04175417063     0.1892392961      -0.6711401492     
5120000000        -0.07575226575    0.0771375373      -6.016885901      -1.236755411      0.05072417094     0.01842945818     -0.8520184076     -1.210279249      
5230000000        0.0008678535232   -0.04896346107    -6.050502212      -0.3769795902     0.04741902898     0.02749414952     -1.087992907      -0.08226773007    
5340000000        -0.1331670433     0.0252964776      -5.694077081      0.717941624       0.05428849949     0.002113689726    -1.672414         0.7601314656      
5450000000        0.03768717498     0.01388256904     -5.733581883      1.58872069        0.05470447131     0.008535319875    -0.1401207293     1.723846007       
5560000000        -0.1332294792     -0.07842706144    -5.027129108      2.372987418       0.05278505668     -0.009223546215   0.7039997866      1.879756212       
5670000000        0.02757839113     0.08692674339     -4.518815188      3.062565081       0.05372485462     -0.01023449541    2.317133306       0.7374465146      
5780000000        -0.04795372114    -0.1552815288     -3.976880855      3.650576474       0.04745268707     -0.02118095727    2.275468473       -0.6120653966     
5890000000        -0.03803987056    0.1324585527      -2.832949638      3.840231803       0.04286912959     -0.03122391504    1.355933644       -3.091948387      
6000000000        0.07865291834     -0.1505437344     -1.886709797      4.425161085       0.035772247       -0.03192140069    -1.014012907      -2.683505908      
