! RsaToolbox (C) 2015 Rohde & Schwarz America
! 
! Number of points: 51
! Number of ports: 2
! Balanced ports?: No
! 
! 
# Hz S RI R 50
500000000         -0.1513511539     0.06750228256     -4.913033716      3.426333008       0.06467027972     -0.03694178638    0.08435249506     0.1019129547      
610000000         0.1518348455      -0.01606115326    -4.498325574      4.044485036       0.05931134072     -0.04391300005    0.03134817844     0.1865562734      
720000000         -0.1633306742     -0.01429613773    -3.960174083      4.554238499       0.04785073482     -0.05351787274    0.1368340847      0.02167942797     
830000000         0.13195467        0.06197595224     -3.323820799      5.114031977       0.04508494718     -0.05477653722    0.1645266211      -0.0945676322     
940000000         -0.1275582165     -0.1040490866     -2.663293479      5.521274614       0.03685011764     -0.06030190397    0.03889907781     -0.06777133255    
1050000000        0.07388930768     0.1245152429      -1.997098983      5.814086022       0.02824987561     -0.06373964756    -0.08534141604    -0.2351760194     
1160000000        -0.04699145257    -0.1533629745     -1.215987058      6.020219161       0.02046856232     -0.06614948595    0.00724809187     0.04830098838     
1270000000        -0.01420030463    0.1364076883      -0.4588155091     6.082851927       0.01342510892     -0.06749312724    -0.2662913927     -0.08131461122    
1380000000        0.03869400918     -0.1420183778     0.3285268424      6.05347366        0.006272394678    -0.06811697852    0.1283102053      0.06783316418     
1490000000        -0.09036389738    0.09666620195     1.030394156       5.942159352       -0.003430060526   -0.06698118923    -0.240239352      0.1683077795      
1600000000        0.0838098973      -0.09190061688    1.849601214       5.80051575        -0.01170045009    -0.06453343207    0.1603174767      -0.1271866056     
1710000000        -0.1211538315     0.03290644661     2.46451977        5.513128286       -0.01676274771    -0.06346274643    -0.09740822118    0.2912153052      
1820000000        0.09300678968     -0.02769930102    3.177169381       5.162264631       -0.02896568179    -0.05747151421    -0.0003758287435  -0.1142204264     
1930000000        -0.1139680073     -0.02452524938    3.686174526       4.710382143       -0.03259230355    -0.05643293784    0.2350668413      0.2796083469      
2040000000        0.06238427758     0.02146677859     4.301121937       4.18389023        -0.03942421239    -0.0497531775     0.01389006001     -0.1524322796     
2150000000        -0.09025231749    -0.0414983891     4.759554575       3.475480956       -0.04945518202    -0.03913815216    0.3761863396      -0.0805845738     
2260000000        0.03353791311     0.04143514112     5.186268528       2.896732206       -0.04780683117    -0.03906142458    -0.06179592072    -0.2038353017     
2370000000        -0.06409923732    -0.04791207984    5.500689405       2.072426232       -0.05707557495    -0.02416852887    0.04821588365     -0.4271178046     
2480000000        0.007754742168    0.03459877148     5.743745661       1.413800433       -0.05196261027    -0.03316392152    -0.312021997      -0.1450791077     
2590000000        -0.06159453094    -0.03933755308    5.765526755       0.6809111916      -0.06046521433    -0.0009697877724  -0.4175604381     -0.04976689132    
2700000000        0.004852407612    0.03621012717     5.893403624       -0.1117029776     -0.05502469196    -0.02256137171    -0.2895374147     0.2387136934      
2810000000        -0.05592925102    -0.05455001071    5.690473927       -1.01120108       -0.05912563473    0.005938447241    -0.0526977301     0.5202792278      
2920000000        0.009512066841    0.05499168485     5.737949648       -1.642204048      -0.05818707609    0.0001060615023   0.05988897807     0.353327901       
3030000000        -0.01826316491    -0.1028089151     5.500420404       -2.235365135      -0.05615909031    0.01254282252     0.7497078258      0.3105008266      
3140000000        -0.03640488908    0.06872601062     5.171048633       -2.906731971      -0.05528495089    0.01238035107     0.2084258735      -0.1172950654     
3250000000        0.0162358433      -0.1041831821     4.725471716       -3.608159173      -0.04906941595    0.02981272751     0.7591094806      -0.7175216928     
3360000000        -0.09506636113    0.05065135658     4.50599141        -4.021706753      -0.05179530933    0.01879077697     -0.3631962876     -0.316005592      
3470000000        0.09223823249     -0.0787820369     3.582778646       -4.680273996      -0.04318279335    0.03393299843     -0.3567043873     -0.947759607      
3580000000        -0.1444826275     0.003123035189    3.163777638       -5.002289605      -0.04329409128    0.03140234729     -0.7116404689     0.5138335362      
3690000000        0.1071634069      -0.002891632495   2.406576345       -5.471925046      -0.03626092126    0.04191940832     -0.7638433659     -0.08230955779    
3800000000        -0.1588381082     -0.04700826481    1.772462452       -5.643715437      -0.02980779925    0.04192284312     0.1937266724      1.124439021       
3910000000        0.06636289507     0.07976753265     1.098550817       -5.887891431      -0.02816667103    0.04625786088     -0.154690948      0.3549210191      
4020000000        -0.1258786917     -0.1095032468     0.1045965886      -5.933294115      -0.02040277773    0.04808670094     1.092533668       0.3634755295      
4130000000        -0.01137488615    0.1176199242      -0.5969490693     -6.110193283      -0.02431158433    0.04845816465     0.2288638756      -0.06971081322    
4240000000        -0.07903723419    -0.1369023919     -1.853051062      -5.781394702      0.003296835685    0.05232339663     0.4118856801      -0.9772784161     
4350000000        -0.1161606237     0.09127410501     -2.078572216      -5.882463479      -0.008081586703   0.05315369453     -0.3749505325     -0.04079296536    
4460000000        0.0146832522      -0.1125001982     -3.002358922      -5.379784864      0.01639578526     0.05022592988     -0.4564102448     -0.29562723       
4570000000        -0.1611981243     0.009737116285    -3.599772745      -5.045169636      0.001605114651    0.05323242013     -0.2478786562     0.4734921832      
4680000000        0.0443126671      -0.02486676723    -4.33029398       -4.505541772      0.03691941566     0.04069540851     0.2005368887      0.4077100243      
4790000000        -0.129818067      -0.05961661786    -4.76645586       -3.774441319      0.01709285228     0.05229259883     0.554730213       0.2748583309      
4900000000        0.01283579692     0.06377666444     -5.419733435      -3.099966958      0.04442190042     0.03141726203     0.7714308287      -0.6008095917     
5010000000        -0.07307940722    -0.07113166153    -5.557233055      -2.184550932      0.0356255305      0.04072206009     0.1820889595      -0.6741873306     
5120000000        -0.07558043301    0.07696763426     -5.973338995      -1.252413631      0.05063135776     0.01870884133     -0.8392059345     -1.209119852      
5230000000        0.0003767511225   -0.04935420677    -6.049033593      -0.3620497924     0.04726763194     0.02694564        -1.069729304      -0.07587602878    
5340000000        -0.1323112994     0.02380374633     -5.671204166      0.7384528418      0.05484522137     0.002541100211    -1.658451814      0.7481798247      
5450000000        0.0371354185      0.01441264618     -5.737754489      1.553384879       0.0546153002      0.007900552317    -0.1449118253     1.722249036       
5560000000        -0.1328300089     -0.07946815342    -5.051742745      2.36217608        0.05224201839     -0.009788279456   0.6981870385      1.874137165       
5670000000        0.02798264846     0.08667759597     -4.500731956      3.063124765       0.05343447418     -0.01110815582    2.310122192       0.7234186441      
5780000000        -0.04742384702    -0.1555982381     -3.960960451      3.664667982       0.04720978948     -0.02104164482    2.281995168       -0.5962228192     
5890000000        -0.03871975839    0.1313212663      -2.830811125      3.811612879       0.04275675534     -0.0311507581     1.357614806       -3.081178947      
6000000000        0.07915511727     -0.1503702849     -1.881002003      4.431899081       0.0359668901      -0.03167309358    -1.00642985       -2.683253661      
