! RsaToolbox (C) 2015 Rohde & Schwarz America
! 
! Number of points: 51
! Number of ports: 2
! Balanced ports?: No
! 
! 
# Hz S RI R 50
500000000         -0.1548915207     0.06947671622     -4.966971234      3.470993171       0.06331647923     -0.03661457685    0.09608199833     0.09902987919     
610000000         0.1526207924      -0.01613813639    -4.506756158      4.035356669       0.05949594003     -0.04438989567    0.03268524351     0.1811608603      
720000000         -0.1642885059     -0.01328185387    -3.955151855      4.581293071       0.04795481566     -0.05348241154    0.1262631262      0.02459128365     
830000000         0.1332232207      0.06339515746     -3.362999596      5.108701554       0.04507412529     -0.05559969581    0.1642440989      -0.08873923686    
940000000         -0.1278405041     -0.1028401405     -2.631422258      5.519809526       0.0368372433      -0.06091785941    0.04538721188     -0.07356200335    
1050000000        0.07429846376     0.1253869087      -1.987810281      5.839700518       0.02935335063     -0.06345587319    -0.08128446085    -0.2447796918     
1160000000        -0.04666013271    -0.1523490697     -1.214846196      5.981063679       0.02018545093     -0.06688604935    0.006805835037    0.05884762527     
1270000000        -0.01458338369    0.1364232898      -0.470867851      6.055750011       0.01348830886     -0.06721247469    -0.2624877063     -0.08073966573    
1380000000        0.03875251859     -0.1424910873     0.3150364645      6.062858052       0.006024760819    -0.06829337657    0.133258728       0.06078908129     
1490000000        -0.09088244289    0.09619350731     1.012073139       5.975671865       -0.003598690695   -0.06669027659    -0.2345041179     0.1691388639      
1600000000        0.08388164639     -0.09006856382    1.808585783       5.76307495        -0.01154277907    -0.06452412146    0.1523539305      -0.115252514      
1710000000        -0.1210409179     0.03226429224     2.436180924       5.518846257       -0.01623066899    -0.06357769911    -0.09362765687    0.2800190056      
1820000000        0.09184072912     -0.0283611808     3.171649284       5.13801519        -0.02898957819    -0.05689758969    -0.003891534156   -0.1105180266     
1930000000        -0.1140754968     -0.02480635419    3.682050842       4.759550575       -0.03221859597    -0.05583776933    0.2430072195      0.2886592656      
2040000000        0.06421396136     0.0222428143      4.291805453       4.205005403       -0.03938246478    -0.04922770537    0.006817603719    -0.1479192203     
2150000000        -0.09042543173    -0.04183271527    4.771870581       3.468829926       -0.04950839273    -0.0392867898     0.3727165717      -0.08074417411    
2260000000        0.03407455236     0.04109776765     5.224138013       2.915661598       -0.0483897103     -0.03881042063    -0.04901851972    -0.207718811      
2370000000        -0.06461440027    -0.04778286442    5.49754137        2.043107854       -0.05692536431    -0.0236563024     0.05446661197     -0.4113737506     
2480000000        0.008199731819    0.03472204506     5.682328927       1.45835325        -0.05137922275    -0.03266561325    -0.3064139779     -0.1368955801     
2590000000        -0.06118039042    -0.03854236007    5.762718685       0.6273158099      -0.06093918869    -0.0006564243435  -0.433083105      -0.04862301917    
2700000000        0.004452962428    0.03618045524     5.93491394        -0.1123588894     -0.05518701031    -0.02084736933    -0.2946009656     0.2287444274      
2810000000        -0.05502265319    -0.05391505361    5.653524138       -0.9194063782     -0.0587768342     0.007138824428    -0.04809375764    0.5168778568      
2920000000        0.009252417833    0.05511779338     5.733820908       -1.607444117      -0.05818623022    -0.0007817308573  0.0531389902      0.3464446889      
3030000000        -0.01664054208    -0.1020993218     5.491803561       -2.18625752       -0.05724168231    0.01193941838     0.7574273004      0.3133719192      
3140000000        -0.03769211471    0.06860823929     5.174096795       -2.872695506      -0.05657752811    0.01242741306     0.2088675387      -0.1040583786     
3250000000        0.01647588052     -0.1054636315     4.761063211       -3.594024259      -0.04811110644    0.03017202782     0.7698875274      -0.7292571964     
3360000000        -0.09386592358    0.05057573318     4.492168853       -4.003944975      -0.05172498577    0.01909424112     -0.3723093843     -0.3132477678     
3470000000        0.09119735658     -0.07758497447    3.570896913       -4.67752978       -0.04253911905    0.03341196703     -0.3617333604     -0.9487343618     
3580000000        -0.1448405981     0.002534844913    3.195260439       -5.010653756      -0.04366642659    0.03198175854     -0.7053480838     0.5183369965      
3690000000        0.1068640426      -0.002603137866   2.395147897       -5.477010771      -0.0364276828     0.04277410715     -0.7653487528     -0.07003758168    
3800000000        -0.158533603      -0.04728330672    1.7972299         -5.63111036       -0.03002150776    0.04175694303     0.2039306586      1.123976929       
3910000000        0.06608302891     0.08026008308     1.085386962       -5.901608422      -0.02792887284    0.04620229462     -0.1492933129     0.3672964113      
4020000000        -0.1270022988     -0.1089846268     0.1012072193      -5.95129339       -0.02034448013    0.04789485097     1.103387146       0.3611442129      
4130000000        -0.01205870695    0.1173131317      -0.5626904552     -6.109949667      -0.02378150975    0.04857071953     0.2297479331      -0.0632060532     
4240000000        -0.08043500036    -0.1367887408     -1.882693467      -5.76818838       0.003309432483    0.05229869511     0.4230928862      -0.9821158177     
4350000000        -0.1155215651     0.0918379575      -2.095331811      -5.854149088      -0.008077187384   0.05267860045     -0.3795093766     -0.0406795249     
4460000000        0.01554457378     -0.1121239588     -3.026343619      -5.396995859      0.01650818827     0.05025123165     -0.4581504277     -0.3001379383     
4570000000        -0.1615036875     0.009395352565    -3.609246776      -5.066544557      0.001716000942    0.05399287847     -0.2528528642     0.4843984175      
4680000000        0.04497142136     -0.02382946387    -4.312313848      -4.541291606      0.03689827256     0.04121234676     0.2066970439      0.4009653546      
4790000000        -0.1304486245     -0.06107848138    -4.791206949      -3.811995728      0.01684003384     0.05142790416     0.558196851       0.2781546639      
4900000000        0.01201931573     0.06334812194     -5.38019668       -3.083447466      0.04515342319     0.03193067675     0.7589831097      -0.6058446628     
5010000000        -0.07314911485    -0.0708630085     -5.563001143      -2.185572289      0.03521933263     0.04085941442     0.1912180698      -0.6627724631     
5120000000        -0.07487469167    0.07763984054     -5.992569815      -1.242274345      0.04991977803     0.01924260385     -0.8562398247     -1.211227481      
5230000000        0.0008999729762   -0.04861746728    -6.056814033      -0.3687081579     0.04746148443     0.02712291369     -1.061433568      -0.07998686697    
5340000000        -0.1320709437     0.02475006692     -5.677315023      0.7497812357      0.05464434506     0.00237589317     -1.660339914      0.7488772794      
5450000000        0.03698194772     0.01474518981     -5.712461605      1.593609377       0.05484554007     0.007577180878    -0.1321700308     1.730648116       
5560000000        -0.1336167157     -0.07855057716    -5.059992367      2.38218467        0.05268767401     -0.009710541386   0.7037941319      1.869840358       
5670000000        0.02776190452     0.0862377882      -4.490137133      3.042499799       0.05280231405     -0.01132656965    2.301963914       0.7242035618      
5780000000        -0.04827416316    -0.1564432383     -3.978001325      3.670104207       0.04751804295     -0.02103832268    2.281906193       -0.6179612288     
5890000000        -0.03910408542    0.1329124421      -2.855668792      3.836668542       0.04270756346     -0.03069212281    1.350136608       -3.092999706      
6000000000        0.07862604409     -0.1499386281     -1.868758612      4.426345285       0.03601575385     -0.03220325076    -1.031726344      -2.6771376        
