! RsaToolbox (C) 2015 Rohde & Schwarz America
! 
! Number of points: 51
! Number of ports: 2
! Balanced ports?: No
! 
! 
# Hz S RI R 50
500000000         -0.1545960605     0.06821037084     -4.93897205       3.46874504        0.0641010679      -0.03677311002    0.09102994768     0.09994355129     
610000000         0.1527877301      -0.01609477773    -4.513724541      4.048094898       0.0587445349      -0.04405363812    0.03474250328     0.1785572695      
720000000         -0.164196074      -0.01380413957    -3.987295045      4.588307038       0.04790637131     -0.05380897376    0.1253737679      0.02437811336     
830000000         0.1320522428      0.0620415546      -3.32444657       5.089399096       0.04484036995     -0.05517328104    0.1655092903      -0.08927798325    
940000000         -0.1272425056     -0.1047035009     -2.673710069      5.532166412       0.03675681724     -0.06068378211    0.03805993066     -0.07643650691    
1050000000        0.07404182851     0.1251341403      -1.995579406      5.819641317       0.02831893909     -0.06383361957    -0.08476826042    -0.2337868535     
1160000000        -0.04737532884    -0.1517090648     -1.193421786      6.008559361       0.02045990073     -0.06664981221    0.006890774433    0.05845654636     
1270000000        -0.01422593556    0.136435762       -0.4743686532     6.069606078       0.0131269571      -0.0672150638     -0.2617401514     -0.08002692452    
1380000000        0.03751315922     -0.1420875341     0.3644662737      6.043475911       0.006341677198    -0.06757700951    0.1338610642      0.06456980477     
1490000000        -0.09104972333    0.0962472856      1.007910656       5.967319419       -0.003766758125   -0.06715305853    -0.2322725711     0.174345385       
1600000000        0.0836180523      -0.09086847305    1.849641829       5.797394867       -0.01193008635    -0.06440811656    0.1549792482      -0.131663918      
1710000000        -0.1214028075     0.03291730583     2.464677511       5.524432597       -0.01625966063    -0.06387670668    -0.08972831676    0.2901027645      
1820000000        0.09254857153     -0.02759379148    3.153358981       5.174417797       -0.02923826675    -0.05757632768    -0.001328905462   -0.1204339658     
1930000000        -0.1139719859     -0.02412794158    3.717304207       4.701503328       -0.03300861104    -0.05599937251    0.2428435677      0.2881734185      
2040000000        0.06365950406     0.02195331082     4.304110088       4.192973978       -0.03948522938    -0.04973753423    -0.001065705503   -0.1446206236     
2150000000        -0.09045622498    -0.04125836119    4.770648897       3.446178936       -0.04950717258    -0.03907867625    0.3742408142      -0.08899958173    
2260000000        0.03355814889     0.04048587754     5.210691316       2.89242732        -0.0480664023     -0.0393028594     -0.05920317097    -0.2013648684     
2370000000        -0.0648117587     -0.04782145843    5.500850159       2.04132001        -0.05741320309    -0.02434867054    0.04720363306     -0.4220843469     
2480000000        0.008146300912    0.03392876312     5.675672515       1.492858739       -0.05167833051    -0.03289927675    -0.3135793116     -0.14566683       
2590000000        -0.06086126342    -0.03869025409    5.760725707       0.662380515       -0.06086779015    -0.000448777588   -0.414725511      -0.05009413165    
2700000000        0.005852515809    0.0359986499      5.940222841       -0.1774981331     -0.05507615726    -0.02157294058    -0.2946735971     0.2357011328      
2810000000        -0.05442039296    -0.05303688347    5.631282314       -0.9925004264     -0.05992320371    0.007777364659    -0.03810365545    0.5260078225      
2920000000        0.009201131761    0.05481885001     5.710075203       -1.629248534      -0.05751036579    -0.0008790724469  0.0590425743      0.3450039402      
3030000000        -0.01648537256    -0.1017381251     5.45360657        -2.174264474      -0.05721470396    0.01306930407     0.7476641251      0.3252722519      
3140000000        -0.0369867608     0.06758864224     5.170789845       -2.818872674      -0.05657936348    0.01262246854     0.2030589897      -0.1109551476     
3250000000        0.01596097648     -0.105539985      4.748641445       -3.61460729       -0.04861716957    0.02987878801     0.7702597978      -0.7334908216     
3360000000        -0.09449243546    0.05233122781     4.470764633       -4.054356959      -0.05112161193    0.0184493703      -0.3706240147     -0.308381572      
3470000000        0.09207332879     -0.07874940336    3.586288604       -4.699509302      -0.04306206606    0.03414971323     -0.3658702176     -0.95976754       
3580000000        -0.1443386376     0.004576526582    3.140034215       -5.023766945      -0.04419320201    0.03175136517     -0.7059712032     0.5163957577      
3690000000        0.1069681942      -0.002968412824   2.403385951       -5.490063603      -0.03593593096    0.04178457499     -0.7645513454     -0.0805377388     
3800000000        -0.1588865519     -0.04742719233    1.782374968       -5.634455834      -0.02985662789    0.04169779311     0.2030699691      1.122189805       
3910000000        0.06738933921     0.07910177112     1.087872606       -5.856307163      -0.02811015942    0.04631792005     -0.1425557493     0.3677402819      
4020000000        -0.126222685      -0.1105194986     0.116676048       -5.941521475      -0.02084937848    0.04726736677     1.089857456       0.3659732245      
4130000000        -0.01133176312    0.1171000227      -0.5579376365     -6.069105593      -0.02393774985    0.04810281063     0.2304377195      -0.06421337857    
4240000000        -0.08042464405    -0.1376551688     -1.868622269      -5.778814248      0.003507736379    0.05301223319     0.4214029989      -0.9950864201     
4350000000        -0.1154434979     0.09164820611     -2.072754694      -5.848366882      -0.008483880862   0.05314669326     -0.374676223      -0.05237213765    
4460000000        0.01541123167     -0.1129050031     -2.99608606       -5.392607046      0.01693117971     0.05005161956     -0.4571550316     -0.2939224299     
4570000000        -0.161371842      0.009534178302    -3.603830629      -5.063726407      0.00200426478     0.05358067809     -0.2493678964     0.4812255697      
4680000000        0.04361480847     -0.02467191219    -4.331298167      -4.486948744      0.0374153296      0.04076483843     0.2058032733      0.4064139268      
4790000000        -0.1311060637     -0.06089947373    -4.791666345      -3.817522857      0.01643504427     0.05242442439     0.5539270573      0.281534422       
4900000000        0.01324881986     0.06270852685     -5.433018095      -3.052522557      0.04453661992     0.03227527745     0.7727724456      -0.5955064517     
5010000000        -0.07364045084    -0.0705480054     -5.573322786      -2.175781069      0.0356991486      0.04107642111     0.1820730214      -0.6717477643     
5120000000        -0.07464049011    0.07715889812     -5.984239942      -1.232992761      0.05079854345     0.01882857514     -0.8443255128     -1.217736618      
5230000000        0.00088350242     -0.04901562631    -6.016066012      -0.3585225695     0.04722282019     0.02664003117     -1.067092021      -0.07775135176    
5340000000        -0.1319392771     0.02566604689     -5.664235892      0.7481745661      0.05466262507     0.002427185222    -1.669976056      0.7408684996      
5450000000        0.03567048162     0.01414829772     -5.708277436      1.552816849       0.05474279226     0.007758866017    -0.1341593178     1.712542965       
5560000000        -0.1316362619     -0.07987227291    -5.048466242      2.325574814       0.05253256674     -0.01003847736    0.7046838166      1.876607176       
5670000000        0.02643856965     0.08623075485     -4.49332453       3.043463087       0.05333803987     -0.01027532099    2.288586429       0.7346868579      
5780000000        -0.04810204729    -0.1548641622     -3.959732126      3.661709584       0.04761406307     -0.02061865784    2.277127839       -0.5962366004     
5890000000        -0.03858283162    0.1326208562      -2.836413479      3.833223625       0.04348099985     -0.03095702195    1.369166427       -3.100371833      
6000000000        0.07925987244     -0.1500947028     -1.86578129       4.417485943       0.03586588224     -0.03188471664    -1.011032704      -2.679565253      
