! RsaToolbox (C) 2015 Rohde & Schwarz America
! 
! Number of points: 51
! Number of ports: 2
! Balanced ports?: No
! 
! 
# Hz S RI R 50
500000000         -0.1537806094     0.06719361991     -4.965980701      3.465180706       0.06547542398     -0.03816240506    0.08386535366     0.1059156255      
610000000         0.1524950415      -0.01698321849    -4.51317891       4.039906303       0.05836683887     -0.04317665334    0.0467440732      0.1812516265      
720000000         -0.1632303745     -0.01739814132    -4.042644253      4.490333361       0.04706338395     -0.05377779296    0.1280925347      0.02438073489     
830000000         0.133529678       0.06249679253     -3.347458439      5.117987999       0.04535332124     -0.05409236137    0.1633697869      -0.09221181146    
940000000         -0.1288016289     -0.1050754115     -2.694493726      5.566742885       0.03678027059     -0.06142952683    0.0363117678      -0.08788998598    
1050000000        0.07349499315     0.1263315678      -2.03517422       5.844190958       0.0275017238      -0.06406449505    -0.07679801578    -0.2462786888     
1160000000        -0.04880340397    -0.150967896      -1.143992543      6.021005006       0.02001241813     -0.0658288709     0.008015778045    0.05425161092     
1270000000        -0.01424319297    0.136820823       -0.4842997251     6.098530744       0.01321247607     -0.06728544498    -0.2571993304     -0.0824925757     
1380000000        0.03957784176     -0.1416914761     0.2850959465      6.035522185       0.006946472127    -0.06759024352    0.1212838342      0.06945985945     
1490000000        -0.09063985944    0.0973117128      1.016837502       5.998878985       -0.003494708859   -0.06737701639    -0.2367875589     0.1693980308      
1600000000        0.08453297615     -0.08997996897    1.793585399       5.786627644       -0.01228248985    -0.06462888159    0.1505514521      -0.1173220858     
1710000000        -0.1207070202     0.03208952025     2.441714937       5.531703345       -0.01629548833    -0.06313884339    -0.1007017829     0.2975992915      
1820000000        0.09386368841     -0.02854027413    3.165466458       5.181216636       -0.03042279648    -0.05787901758    -0.01317683072    -0.1170889668     
1930000000        -0.1152063981     -0.02438269928    3.734542612       4.752267365       -0.03152284407    -0.05533473015    0.2500253684      0.2642288459      
2040000000        0.06276108325     0.02178868838     4.339827705       4.212854555       -0.03954539469    -0.0489901709     0.005657410984    -0.1523785448     
2150000000        -0.09039249271    -0.04187767208    4.748538222       3.504345614       -0.04988936005    -0.03888720775    0.3672081395      -0.09915986855    
2260000000        0.03331638873     0.04177190736     5.160733088       2.870655366       -0.04829198649    -0.03932558728    -0.0518670619     -0.2100829739     
2370000000        -0.06338437647    -0.04881914333    5.452245481       2.093464159       -0.05857569993    -0.02457394944    0.04798219089     -0.4101760903     
2480000000        0.006729950663    0.03511179984     5.748750851       1.507506024       -0.05184857476    -0.03273954125    -0.3010279549     -0.1536321118     
2590000000        -0.06092298031    -0.03888083622    5.794414193       0.7078618616      -0.06080087856    -0.0007843401616  -0.4019745082     -0.04208509301    
2700000000        0.004657074343    0.03685662523     5.9770572         -0.05252582886    -0.0550178331     -0.02000786253    -0.2874650656     0.2390025103      
2810000000        -0.05483612418    -0.05535382777    5.696000977       -0.9369772291     -0.05815263762    0.007205465031    -0.05147239673    0.5366874945      
2920000000        0.01039247215     0.05645684898     5.716446114       -1.652251001      -0.05886066617    -0.0003905108996  0.05150320754     0.337231969       
3030000000        -0.01629713364    -0.1023302004     5.495428041       -2.229174027      -0.05698082664    0.01040978406     0.7757987761      0.3219025696      
3140000000        -0.03677487373    0.06587873399     5.226078432       -2.849941376      -0.0561237546     0.01029694324     0.2315975622      -0.1192348264     
3250000000        0.01739721373     -0.1050633788     4.798992889       -3.556348509      -0.04997479096    0.03044268143     0.7635426124      -0.7413762394     
3360000000        -0.09114156663    0.05104798079     4.426581175       -4.024730533      -0.05061763238    0.01951095314     -0.3930821266     -0.3067737258     
3470000000        0.09313032776     -0.07634644955    3.616446136       -4.699681336      -0.04342584891    0.0350214238      -0.3379160057     -0.9647509643     
3580000000        -0.1455673277     0.003825446358    3.184762959       -5.04285779       -0.04333645316    0.03130902624     -0.7136798446     0.53621316        
3690000000        0.1068830639      -0.001967861783   2.368167488       -5.512956026      -0.03571737938    0.04188198243     -0.7698152002     -0.08066520142    
3800000000        -0.1586809158     -0.04913478345    1.846785169       -5.657545971      -0.03000785854    0.04255275044     0.2069256667      1.143055522       
3910000000        0.0671204105      0.08026854694     1.127858467       -5.928703173      -0.02815383346    0.04644662799     -0.1500448386     0.3620382106      
4020000000        -0.1259991974     -0.1101472601     0.1251725437      -5.95724784       -0.02021225119    0.04717652873     1.10108042        0.3735684569      
4130000000        -0.01196566969    0.1179489121      -0.5888172906     -6.119345862      -0.02429653609    0.04835675564     0.2186907282      -0.07746973784    
4240000000        -0.08009171486    -0.1370406896     -1.843611014      -5.773886586      0.003527075341    0.05204932272     0.4478590384      -0.9845245436     
4350000000        -0.1154857278     0.09154195338     -2.088501591      -5.867912254      -0.008422585796   0.05251576803     -0.3896567292     -0.05464720301    
4460000000        0.01692347787     -0.1115479916     -3.001136084      -5.437496801      0.01767074143     0.04971481437     -0.4555270169     -0.310611132      
4570000000        -0.1624556929     0.008473077789    -3.628437012      -5.075748451      0.001850074034    0.05305701971     -0.2627421262     0.4801665778      
4680000000        0.04422492534     -0.02289825119    -4.284011421      -4.490587662      0.03639535232     0.04117889939     0.2057499571      0.39544233        
4790000000        -0.1290428191     -0.06128001958    -4.753628078      -3.854456462      0.01682989556     0.05236380086     0.554292229       0.3046362035      
4900000000        0.01200139988     0.06392681599     -5.443534708      -3.062448916      0.04472745247     0.03147260217     0.7548275783      -0.6081819721     
5010000000        -0.07163596153    -0.07193290442    -5.546015192      -2.224876818      0.03528700978     0.04133432166     0.2148622245      -0.6514151751     
5120000000        -0.07754249871    0.07828406245     -6.008244228      -1.29446176       0.05049900719     0.0201575902      -0.8500850192     -1.21516661       
5230000000        0.001912111766    -0.04907192662    -6.046975317      -0.4031192035     0.04844633651     0.02816984601     -1.075341905      -0.08027343296    
5340000000        -0.1318023354     0.02468209341     -5.671200696      0.737652602       0.05500526558     0.002975820439    -1.665742186      0.7532912463      
5450000000        0.03777779639     0.01418572199     -5.742296867      1.55996986        0.05561936517     0.008202340489    -0.1417353609     1.742685569       
5560000000        -0.1332291961     -0.07993887365    -5.046692635      2.301159578       0.05229455643     -0.009330901432   0.7020816388      1.874804133       
5670000000        0.02734520286     0.08630058169     -4.532738194      2.997843966       0.05337376938     -0.01000764655    2.314617814       0.7345789768      
5780000000        -0.04692116007    -0.1567337811     -3.982054406      3.650945234       0.04707983369     -0.02118723133    2.29520895        -0.582187286      
5890000000        -0.03628311679    0.1335918307      -2.840151131      3.851351537       0.04239771361     -0.03110522259    1.337225085       -3.129210324      
6000000000        0.07905508578     -0.1511744261     -1.90286416       4.441457307       0.03557419603     -0.03148982235    -1.017667467      -2.666350206      
