!CSV A.01.01
!Agilent Technologies,N5241A,MY52011414,A.09.80.16
!Date: Friday, February, 27, 2015 18:02:12
!Source: GCA Sweep Data

"Calibration State:","ON",,,,,,,
"Num Freq Points:",201,,,,,,,
"Num Power Points:",21,,,,,,,

Frequency,S11,,Pin Data,,Pout Data,,S21,,Delta Gain,,AI1,AI2,
<Hz>,<LogMag (dB)>,<Phase (Deg)>,<LogMag (dBm)>,<Phase (Deg)>,<LogMag (dBm)>,<Phase (Deg)>,<LogMag (dB)>,<Phase (Deg)>,<LogMag (dBm)>,<Phase (Deg)>,<Real (U)>,<Real (U)>
2.05e+009,-6.47621,100.689,19.7683,148.828,35.6793,-64.9499,15.911,146.223,0,0,0,0
2.05e+009,-6.5009,100.484,20.596,149.625,36.561,-64.16,15.965,146.216,0.0540081,-0.00706825,0,0
2.05e+009,-6.57471,100.28,21.4758,150.44,37.4899,-63.3168,16.0141,146.243,0.103088,0.0202314,0,0
2.05e+009,-6.60767,100.048,22.2997,151.802,38.3879,-61.9711,16.0882,146.227,0.177187,0.00416834,0,0
2.05e+009,-6.69613,99.8516,23.1433,153.145,39.2807,-60.6642,16.1374,146.191,0.226452,-0.0312966,0,0
2.05e+009,-6.74435,99.7901,23.9771,154.424,40.2007,-59.4145,16.2236,146.162,0.312598,-0.0606503,0,0
2.05e+009,-6.83196,99.5906,24.8297,155.99,41.1136,-58.0002,16.2839,146.009,0.372923,-0.213127,0,0
2.05e+009,-6.90993,99.4126,25.6792,157.08,42.0417,-57.0929,16.3626,145.827,0.451584,-0.395646,0,0
2.05e+009,-6.99979,99.1442,26.5305,158.421,42.9598,-56.0634,16.4293,145.515,0.518336,-0.707277,0,0
2.05e+009,-7.09817,99.0039,27.3549,160.043,43.8359,-54.7204,16.481,145.237,0.570039,-0.985635,0,0
2.05e+009,-7.20984,98.5702,28.1887,161.158,44.7213,-54.1742,16.5326,144.667,0.621609,-1.55513,0,0
2.05e+009,-7.35723,98.117,29.039,162.444,45.5773,-53.594,16.5383,143.962,0.627342,-2.26031,0,0
2.05e+009,-7.54637,97.2967,29.9034,163.842,46.4212,-53.3051,16.5178,142.853,0.606845,-3.36991,0,0
2.05e+009,-7.80236,95.9082,30.7328,165.252,47.1406,-53.3475,16.4078,141.401,0.49686,-4.8216,0,0
2.05e+009,-8.10228,93.6629,31.5878,166.739,47.7485,-53.5813,16.1608,139.68,0.249798,-6.54281,0,0
2.05e+009,-8.2679,91.0783,32.4127,168.435,48.1811,-53.3181,15.7684,138.246,-0.142621,-7.97618,0,0
2.05e+009,-8.30469,88.3456,33.2611,169.514,48.5151,-53.5521,15.254,136.934,-0.65703,-9.28903,0,0
2.05e+009,-8.26929,85.8404,34.1089,170.704,48.7718,-53.478,14.6629,135.818,-1.24813,-10.4044,0,0
2.05e+009,-8.20593,83.4657,34.9563,172.501,48.9828,-52.8205,14.0264,134.679,-1.88454,-11.5437,0,0
2.05e+009,-8.16028,81.2022,35.7938,173.878,49.1454,-52.5481,13.3516,133.574,-2.55934,-12.6489,0,0
2.05e+009,-8.11897,78.8774,36.6595,174.874,49.2828,-52.7328,12.6233,132.393,-3.28772,-13.8292,0,0
2.051e+009,-6.44229,100.129,19.7883,135.076,35.6712,-79.0779,15.8829,145.846,0,0,0,0
2.051e+009,-6.4861,100.044,20.6236,135.821,36.5484,-78.2043,15.9248,145.975,0.0419301,0.128757,0,0
2.051e+009,-6.55558,99.9797,21.4933,136.598,37.4628,-77.2916,15.9695,146.111,0.0865585,0.264392,0,0
2.051e+009,-6.61032,99.6875,22.3282,138.32,38.3713,-75.6531,16.0431,146.027,0.160212,0.180716,0,0
2.051e+009,-6.67428,99.5407,23.1704,139.45,39.2732,-74.5881,16.1028,145.962,0.219882,0.115845,0,0
2.051e+009,-6.72628,99.4634,23.9824,140.9,40.1669,-73.1125,16.1845,145.988,0.301565,0.141712,0,0
2.051e+009,-6.80751,99.2049,24.8497,142.143,41.103,-72.0569,16.2534,145.8,0.370462,-0.0461189,0,0
2.051e+009,-6.8795,98.9312,25.663,143.455,41.9944,-71.0207,16.3313,145.524,0.448445,-0.321634,0,0
2.051e+009,-6.98452,98.8614,26.5425,144.78,42.9352,-69.8557,16.3927,145.364,0.509774,-0.482248,0,0
2.051e+009,-7.08671,98.5347,27.3688,145.998,43.8126,-69.0341,16.4438,144.968,0.560914,-0.878138,0,0
2.051e+009,-7.19154,98.2144,28.1978,147.711,44.6896,-67.8782,16.4918,144.41,0.608889,-1.43575,0,0
2.051e+009,-7.35482,97.6669,29.0577,148.882,45.5497,-67.4752,16.492,143.643,0.609124,-2.20329,0,0
2.051e+009,-7.54153,96.8159,29.8992,150.108,46.3683,-67.3386,16.469,142.553,0.586124,-3.2927,0,0
2.051e+009,-7.81971,95.4046,30.7457,151.656,47.0859,-67.2827,16.3403,141.061,0.457368,-4.78465,0,0
2.051e+009,-8.11034,93.0119,31.6115,153.144,47.6945,-67.562,16.083,139.294,0.20011,-6.5517,0,0
2.051e+009,-8.26978,90.3368,32.4348,154.417,48.1124,-67.7339,15.6776,137.849,-0.20528,-7.99747,0,0
2.051e+009,-8.29925,87.6488,33.2763,155.739,48.4358,-67.6703,15.1595,136.591,-0.723433,-9.25504,0,0
2.051e+009,-8.25999,85.0835,34.1243,157.343,48.6895,-67.2339,14.5652,135.423,-1.31772,-10.4229,0,0
2.051e+009,-8.19855,82.6069,34.991,158.814,48.8985,-66.9303,13.9074,134.256,-1.97545,-11.5903,0,0
2.051e+009,-8.15118,80.3478,35.8127,159.796,49.0563,-67.0652,13.2436,133.139,-2.63929,-12.7071,0,0
2.051e+009,-8.11983,78.0662,36.667,161.337,49.1887,-66.6711,12.5217,131.992,-3.36121,-13.8537,0,0
2.052e+009,-6.57023,99.5164,19.7902,120.762,35.6629,-94.1634,15.8727,145.074,0,0,0,0
2.052e+009,-6.60766,99.36,20.6352,121.594,36.5603,-93.3112,15.9251,145.095,0.0524449,0.0208516,0,0
2.052e+009,-6.68603,99.268,21.5142,122.711,37.4772,-92.032,15.963,145.257,0.0903016,0.182648,0,0
2.052e+009,-6.71639,98.9729,22.3026,124.318,38.3532,-90.586,16.0506,145.096,0.177951,0.021736,0,0
2.052e+009,-6.80834,98.9599,23.1729,125.249,39.2648,-89.6006,16.0918,145.151,0.219151,0.0765273,0,0
2.052e+009,-6.85826,98.6651,24.0111,126.946,40.1927,-88.0918,16.1816,144.963,0.308897,-0.111507,0,0
2.052e+009,-6.93322,98.4664,24.8427,127.957,41.0959,-87.2402,16.2532,144.803,0.380496,-0.271228,0,0
2.052e+009,-7.01433,98.2606,25.6891,129.587,42.0168,-85.7791,16.3277,144.634,0.455,-0.440182,0,0
2.052e+009,-7.11509,98.0625,26.5414,130.823,42.9249,-84.7867,16.3835,144.39,0.510828,-0.68413,0,0
2.052e+009,-7.22291,97.7869,27.3943,131.98,43.8338,-84.0482,16.4395,143.972,0.566792,-1.10249,0,0
2.052e+009,-7.33918,97.4006,28.2274,133.443,44.7104,-83.1386,16.483,143.419,0.61028,-1.65553,0,0
2.052e+009,-7.48965,96.9081,29.0714,135.033,45.5686,-82.293,16.4972,142.674,0.624512,-2.40047,0,0
2.052e+009,-7.68401,96.1232,29.9033,136.191,46.364,-82.1848,16.4608,141.624,0.588066,-3.44993,0,0
2.052e+009,-7.96727,94.6138,30.7654,137.493,47.1035,-82.4001,16.3381,140.107,0.46543,-4.96718,0,0
2.052e+009,-8.26214,92.2641,31.6095,139.466,47.6873,-82.1725,16.0778,138.362,0.205164,-6.71261,0,0
2.052e+009,-8.42513,89.4953,32.4528,140.744,48.1183,-82.3691,15.6656,136.887,-0.207129,-8.18693,0,0
2.052e+009,-8.4537,86.7465,33.289,141.826,48.4362,-82.5518,15.1473,135.622,-0.725409,-9.45199,0,0
2.052e+009,-8.41252,84.2145,34.1206,143.28,48.6866,-82.2529,14.566,134.468,-1.3067,-10.6066,0,0
2.052e+009,-8.35881,81.6262,34.9899,144.934,48.8943,-81.8256,13.9044,133.24,-1.96829,-11.8337,0,0
2.052e+009,-8.31209,79.3258,35.8212,146.239,49.0572,-81.6224,13.236,132.138,-2.63671,-12.9358,0,0
2.052e+009,-8.27402,77.0066,36.6689,147.175,49.1879,-81.8632,12.519,130.961,-3.35371,-14.1127,0,0
2.053e+009,-6.63021,98.8819,19.778,106.686,35.5235,-109.29,15.7455,144.025,0,0,0,0
2.053e+009,-6.69167,98.8792,20.6446,107.911,36.4313,-107.953,15.7867,144.137,0.0411787,0.112043,0,0
2.053e+009,-6.7292,98.5671,21.4692,109.093,37.3053,-106.864,15.8362,144.043,0.0906208,0.0180467,0,0
2.053e+009,-6.79741,98.5394,22.3379,110.495,38.2373,-105.355,15.8994,144.151,0.153851,0.125893,0,0
2.053e+009,-6.85585,98.2839,23.1528,111.813,39.1299,-104.129,15.9771,144.058,0.231573,0.0336477,0,0
2.053e+009,-6.91876,98.1684,23.993,112.973,40.0398,-103.035,16.0468,143.992,0.301277,-0.0324835,0,0
2.053e+009,-6.99946,97.9569,24.8451,114.498,40.963,-101.649,16.1179,143.853,0.372406,-0.171364,0,0
2.053e+009,-7.0859,97.7694,25.696,116.011,41.8876,-100.353,16.1916,143.637,0.44611,-0.387907,0,0
2.053e+009,-7.1936,97.5895,26.5608,116.997,42.8068,-99.5686,16.246,143.435,0.500458,-0.590033,0,0
2.053e+009,-7.28775,97.2929,27.3706,118.704,43.6813,-98.2641,16.3106,143.032,0.565101,-0.992912,0,0
2.053e+009,-7.40866,96.9221,28.2227,119.628,44.5786,-97.9172,16.356,142.455,0.610427,-1.56949,0,0
2.053e+009,-7.56931,96.3484,29.0755,121.396,45.4307,-96.9325,16.3553,141.671,0.609741,-2.35358,0,0
2.053e+009,-7.76388,95.5799,29.9117,122.504,46.2375,-96.8735,16.3257,140.622,0.580188,-3.40249,0,0
2.053e+009,-8.04821,93.9901,30.7669,123.433,46.9697,-97.518,16.2028,139.049,0.457237,-4.97559,0,0
2.053e+009,-8.33911,91.6511,31.6041,125.288,47.5521,-97.3669,15.9479,137.345,0.202397,-6.67947,0,0
2.053e+009,-8.49952,88.8345,32.4459,126.964,47.9809,-97.1868,15.535,135.849,-0.210496,-8.17533,0,0
2.053e+009,-8.53156,86.0909,33.2846,128.294,48.2995,-97.0915,15.0149,134.614,-0.730646,-9.41045,0,0
2.053e+009,-8.49176,83.4383,34.1335,129.63,48.5538,-96.9725,14.4203,133.398,-1.32526,-10.6271,0,0
2.053e+009,-8.43563,80.9529,34.9836,130.837,48.758,-96.9202,13.7744,132.243,-1.97117,-11.7821,0,0
2.053e+009,-8.3911,78.5456,35.8319,132.271,48.9219,-96.6658,13.09,131.064,-2.65555,-12.961,0,0
2.053e+009,-8.35567,76.2112,36.6762,133.023,49.0518,-97.0836,12.3757,129.893,-3.36986,-14.1316,0,0
2.054e+009,-6.54922,98.2464,19.7674,92.9043,35.7945,-123.302,16.0271,143.794,0,0,0,0
2.054e+009,-6.58958,98.1054,20.6121,94.2456,36.6927,-121.89,16.0806,143.864,0.0535196,0.0703816,0,0
2.054e+009,-6.61504,97.9832,21.4379,95.186,37.5963,-120.888,16.1584,143.926,0.131327,0.132062,0,0
2.054e+009,-6.69101,97.8463,22.2889,96.6882,38.5022,-119.315,16.2133,143.996,0.186219,0.20269,0,0
2.054e+009,-6.76131,97.6702,23.13,97.4959,39.4023,-118.597,16.2723,143.907,0.245179,0.113612,0,0
2.054e+009,-6.81006,97.4984,23.9553,99.0774,40.3211,-117.089,16.3657,143.834,0.338616,0.0402095,0,0
2.054e+009,-6.90016,97.2866,24.7975,100.625,41.2256,-115.667,16.4281,143.708,0.400967,-0.0854228,0,0
2.054e+009,-6.99882,97.0993,25.6805,101.814,42.169,-114.737,16.4885,143.449,0.46138,-0.345045,0,0
2.054e+009,-7.09044,96.907,26.5041,102.887,43.0547,-113.925,16.5506,143.188,0.523489,-0.606122,0,0
2.054e+009,-7.20057,96.5484,27.3434,104.324,43.9465,-112.909,16.6031,142.768,0.575971,-1.0262,0,0
2.054e+009,-7.33079,96.1107,28.2062,106.042,44.8464,-111.805,16.6403,142.153,0.613138,-1.64104,0,0
2.054e+009,-7.48105,95.6983,29.0361,107.154,45.6924,-111.376,16.6562,141.47,0.629106,-2.32406,0,0
2.054e+009,-7.68646,94.8462,29.8864,108.749,46.5029,-110.875,16.6165,140.376,0.589371,-3.41798,0,0
2.054e+009,-7.97583,93.2309,30.7326,109.856,47.2243,-111.377,16.4916,138.767,0.464503,-5.02686,0,0
2.054e+009,-8.27607,90.7633,31.5896,111.456,47.8115,-111.529,16.2219,137.016,0.194745,-6.77821,0,0
2.054e+009,-8.43824,87.9233,32.4281,112.955,48.2349,-111.516,15.8068,135.528,-0.220309,-8.26537,0,0
2.054e+009,-8.46525,85.1166,33.2709,114.182,48.5544,-111.555,15.2835,134.262,-0.743637,-9.53128,0,0
2.054e+009,-8.42796,82.4874,34.114,115.601,48.8038,-111.307,14.6899,133.092,-1.33726,-10.7021,0,0
2.054e+009,-8.36963,79.9154,34.9678,116.873,49.0078,-111.244,14.0401,131.883,-1.98705,-11.9111,0,0
2.054e+009,-8.32804,77.526,35.8014,118.284,49.1683,-110.996,13.3669,130.72,-2.66025,-13.0742,0,0
2.054e+009,-8.28806,75.0794,36.658,119.594,49.3006,-110.925,12.6427,129.481,-3.38446,-14.3131,0,0
2.055e+009,-6.74603,97.438,19.7885,79.0186,35.5086,-137.69,15.7201,143.291,0,0,0,0
2.055e+009,-6.7755,97.4381,20.6333,80.2995,36.3974,-136.2,15.764,143.5,0.0439878,0.209024,0,0
2.055e+009,-6.83045,97.4251,21.4826,81.7618,37.304,-134.591,15.8214,143.647,0.101316,0.356101,0,0
2.055e+009,-6.89252,97.2133,22.3297,82.8347,38.2187,-133.57,15.889,143.595,0.168928,0.303783,0,0
2.055e+009,-6.9598,97.0066,23.1632,83.7155,39.1176,-132.797,15.9544,143.488,0.234321,0.196341,0,0
2.055e+009,-7.03748,96.9095,24.0139,85.2095,40.0306,-131.288,16.0166,143.502,0.296593,0.210755,0,0
2.055e+009,-7.11288,96.6673,24.8347,86.7136,40.9322,-130.025,16.0974,143.261,0.377361,-0.0304206,0,0
2.055e+009,-7.20455,96.4508,25.706,87.8161,41.8697,-129.14,16.1637,143.044,0.443604,-0.247284,0,0
2.055e+009,-7.30217,96.22,26.5467,89.4841,42.7767,-127.729,16.2301,142.787,0.51,-0.504716,0,0
2.055e+009,-7.41476,95.9948,27.4006,90.6654,43.6787,-126.898,16.2781,142.437,0.558077,-0.854409,0,0
2.055e+009,-7.52774,95.6172,28.2094,92.2647,44.5364,-125.841,16.3271,141.894,0.607017,-1.39717,0,0
2.055e+009,-7.69189,95.0999,29.0696,93.5336,45.3995,-125.349,16.3299,141.118,0.609886,-2.17369,0,0
2.055e+009,-7.89514,94.2332,29.8986,94.6773,46.1973,-125.296,16.2987,140.026,0.578681,-3.26498,0,0
2.055e+009,-8.18946,92.6635,30.7567,95.8813,46.9312,-125.652,16.1745,138.466,0.454461,-4.82497,0,0
2.055e+009,-8.49359,90.156,31.6052,97.3914,47.5128,-125.918,15.9076,136.691,0.187557,-6.60043,0,0
2.055e+009,-8.65422,87.3115,32.4295,99.165,47.934,-125.619,15.5044,135.216,-0.21561,-8.07544,0,0
2.055e+009,-8.68529,84.454,33.2804,100.409,48.2555,-125.66,14.9751,133.931,-0.744998,-9.36052,0,0
2.055e+009,-8.65027,81.7015,34.1426,101.682,48.5119,-125.606,14.3693,132.712,-1.35075,-10.5794,0,0
2.055e+009,-8.60016,79.1539,34.9854,103.276,48.7145,-125.19,13.729,131.534,-1.99102,-11.7572,0,0
2.055e+009,-8.54851,76.6904,35.8238,104.447,48.8775,-125.218,13.0537,130.335,-2.66637,-12.9564,0,0
2.055e+009,-8.51756,74.2761,36.6709,105.827,49.0046,-125.02,12.3337,129.154,-3.38637,-14.1376,0,0
2.056e+009,-6.77944,96.5368,19.7959,65.4479,35.682,-152.024,15.886,142.528,0,0,0,0
2.056e+009,-6.82732,96.5492,20.6569,66.3307,36.5899,-151.035,15.9331,142.635,0.0470161,0.106619,0,0
2.056e+009,-6.87462,96.3464,21.5049,67.7761,37.4958,-149.539,15.9909,142.684,0.104858,0.156272,0,0
2.056e+009,-6.92724,96.2215,22.3168,69.0303,38.385,-148.275,16.0681,142.695,0.1821,0.166924,0,0
2.056e+009,-7.0045,95.9816,23.1685,70.1929,39.2923,-147.247,16.1239,142.56,0.237819,0.0320219,0,0
2.056e+009,-7.07185,95.9187,24.0077,71.3111,40.211,-146.131,16.2033,142.558,0.317274,0.0296233,0,0
2.056e+009,-7.15762,95.7261,24.8576,72.9672,41.1216,-144.605,16.264,142.428,0.377996,-0.100589,0,0
2.056e+009,-7.23558,95.525,25.7028,73.8394,42.0484,-143.926,16.3456,142.235,0.459613,-0.293568,0,0
2.056e+009,-7.33778,95.2279,26.5424,75.608,42.9482,-142.521,16.4057,141.871,0.519689,-0.657535,0,0
2.056e+009,-7.44228,95.0007,27.3716,76.6765,43.8321,-141.78,16.4604,141.543,0.574411,-0.984936,0,0
2.056e+009,-7.57343,94.6744,28.2161,78.0198,44.7159,-140.967,16.4998,141.014,0.613782,-1.51465,0,0
2.056e+009,-7.72837,94.1162,29.0617,79.3998,45.5766,-140.394,16.515,140.206,0.628955,-2.32246,0,0
2.056e+009,-7.94062,93.2267,29.8974,80.8721,46.3723,-140.033,16.4749,139.095,0.588862,-3.43333,0,0
2.056e+009,-8.24377,91.6433,30.7645,82.1608,47.1067,-140.298,16.3422,137.541,0.456205,-4.98729,0,0
2.056e+009,-8.55123,89.1705,31.6068,83.7533,47.681,-140.448,16.0741,135.799,0.188096,-6.72948,0,0
2.056e+009,-8.71688,86.2598,32.4449,85.4427,48.1068,-140.278,15.6619,134.279,-0.224139,-8.24885,0,0
2.056e+009,-8.74639,83.4284,33.2788,86.4208,48.4196,-140.557,15.1408,133.022,-0.745285,-9.50575,0,0
2.056e+009,-8.71343,80.6778,34.1376,87.5627,48.676,-140.621,14.5385,131.816,-1.34758,-10.7123,0,0
2.056e+009,-8.66084,78.0111,34.9919,89.5812,48.8784,-139.83,13.8865,130.589,-1.99957,-11.9393,0,0
2.056e+009,-8.6159,75.5705,35.8193,90.8236,49.0395,-139.772,13.2201,129.405,-2.66589,-13.1237,0,0
2.056e+009,-8.5893,73.1255,36.6703,92.0533,49.1679,-139.745,12.4976,128.202,-3.38846,-14.3263,0,0
2.057e+009,-6.80091,96.3503,19.817,51.4371,35.7243,-166.791,15.9073,141.772,0,0,0,0
2.057e+009,-6.82198,96.2034,20.6266,52.6353,36.6079,-165.547,15.9813,141.818,0.0739802,0.0459896,0,0
2.057e+009,-6.87744,96.1298,21.4901,53.4338,37.521,-164.629,16.0309,141.937,0.123607,0.16555,0,0
2.057e+009,-6.92007,95.9122,22.2974,55.3867,38.4137,-162.724,16.1163,141.889,0.209016,0.117447,0,0
2.057e+009,-7.00947,95.647,23.1634,56.3489,39.3279,-161.903,16.1645,141.748,0.25719,-0.0236855,0,0
2.057e+009,-7.07551,95.6319,23.9955,57.3814,40.2449,-160.809,16.2495,141.81,0.342173,0.0383544,0,0
2.057e+009,-7.18351,95.3649,24.8771,58.8336,41.1691,-159.588,16.292,141.578,0.384693,-0.193409,0,0
2.057e+009,-7.25135,95.1711,25.6967,60.283,42.0819,-158.359,16.3852,141.358,0.477936,-0.414057,0,0
2.057e+009,-7.37173,94.9636,26.5538,61.699,42.9811,-157.222,16.4273,141.079,0.520045,-0.692471,0,0
2.057e+009,-7.47585,94.6364,27.3862,62.7658,43.877,-156.53,16.4908,140.704,0.583501,-1.06787,0,0
2.057e+009,-7.60414,94.2812,28.2243,64.2329,44.7499,-155.644,16.5256,140.123,0.618263,-1.64821,0,0
2.057e+009,-7.7573,93.7825,29.052,66.0752,45.5934,-154.543,16.5414,139.382,0.63412,-2.3896,0,0
2.057e+009,-7.98367,92.8216,29.9172,66.8733,46.4122,-154.928,16.495,138.198,0.587717,-3.57314,0,0
2.057e+009,-8.29102,91.1873,30.7635,68.2457,47.1275,-155.111,16.364,136.644,0.456683,-5.1279,0,0
2.057e+009,-8.60951,88.6563,31.6224,69.9755,47.7051,-155.138,16.0827,134.886,0.175427,-6.88516,0,0
2.057e+009,-8.77483,85.6475,32.4654,71.3739,48.1269,-155.257,15.6615,133.369,-0.245801,-8.40239,0,0
2.057e+009,-8.80127,82.7955,33.2948,72.4711,48.4376,-155.408,15.1428,132.121,-0.764466,-9.65067,0,0
2.057e+009,-8.76871,79.9323,34.1579,73.8866,48.691,-155.255,14.5331,130.858,-1.37421,-10.9136,0,0
2.057e+009,-8.71283,77.2914,34.997,75.394,48.8919,-154.956,13.8949,129.65,-2.01239,-12.1214,0,0
2.057e+009,-8.66273,74.757,35.8423,76.8912,49.0537,-154.661,13.2114,128.448,-2.69593,-13.3235,0,0
2.057e+009,-8.6402,72.2808,36.6825,78.0479,49.178,-154.725,12.4956,127.227,-3.41173,-14.5445,0,0
2.058e+009,-6.84459,95.8153,19.7873,37.0946,35.7316,178.641,15.9442,141.546,0,0,0,0
2.058e+009,-6.87458,95.6459,20.6162,38.5187,36.6149,-179.893,15.9986,141.588,0.0543919,0.0421428,0,0
2.058e+009,-6.95383,95.4836,21.4879,39.8383,37.5293,-178.505,16.0414,141.657,0.0972107,0.110442,0,0
2.058e+009,-7.00197,95.3354,22.3095,40.799,38.4243,-177.534,16.1148,141.667,0.170558,0.120378,0,0
2.058e+009,-7.08649,95.1529,23.158,42.2815,39.3227,-176.114,16.1647,141.604,0.220477,0.058249,0,0
2.058e+009,-7.1551,94.9271,24.0002,43.5738,40.2422,-174.989,16.242,141.438,0.297762,-0.108539,0,0
2.058e+009,-7.23657,94.8163,24.8443,45.0523,41.1601,-173.596,16.3159,141.351,0.371623,-0.194768,0,0
2.058e+009,-7.33092,94.6657,25.7003,45.967,42.082,-172.867,16.3817,141.166,0.437432,-0.380521,0,0
2.058e+009,-7.43436,94.2877,26.5462,48.0729,42.9904,-171.154,16.4442,140.773,0.499949,-0.773295,0,0
2.058e+009,-7.55691,94.0111,27.3867,48.718,43.8847,-170.864,16.498,140.418,0.553794,-1.12854,0,0
2.058e+009,-7.67996,93.7169,28.2254,50.2199,44.7599,-169.871,16.5346,139.909,0.590333,-1.63756,0,0
2.058e+009,-7.85396,93.1146,29.078,51.9086,45.6144,-169.044,16.5365,139.047,0.592231,-2.49891,0,0
2.058e+009,-8.0779,92.1162,29.9146,53.2722,46.4051,-168.883,16.4905,137.845,0.546278,-3.70127,0,0
2.058e+009,-8.38443,90.4586,30.763,54.5086,47.1206,-169.217,16.3576,136.274,0.413377,-5.27203,0,0
2.058e+009,-8.70582,87.8581,31.6197,55.97,47.6905,-169.497,16.0708,134.533,0.126602,-7.01359,0,0
2.058e+009,-8.85791,84.8606,32.4487,57.2862,48.102,-169.698,15.6533,133.015,-0.29091,-8.53074,0,0
2.058e+009,-8.88096,81.8759,33.2938,58.5072,48.4165,-169.78,15.1227,131.713,-0.82149,-9.83361,0,0
2.058e+009,-8.85013,79.1046,34.133,60.1211,48.6611,-169.385,14.5281,130.493,-1.41618,-11.0527,0,0
2.058e+009,-8.79807,76.3197,35.0001,61.5433,48.8666,-169.246,13.8665,129.211,-2.07771,-12.335,0,0
2.058e+009,-8.75322,73.7468,35.8398,63.1438,49.0246,-168.864,13.1848,127.992,-2.75944,-13.5538,0,0
2.058e+009,-8.71775,71.2427,36.6779,64.315,49.1488,-168.933,12.4709,126.752,-3.47332,-14.7938,0,0
2.059e+009,-6.87697,94.9788,19.7951,23.2725,35.7297,164.68,15.9346,141.408,0,0,0,0
2.059e+009,-6.90218,94.7051,20.6225,24.7232,36.6266,166.151,16.004,141.427,0.0694652,0.0194887,0,0
2.059e+009,-6.95821,94.5884,21.4908,25.6662,37.5475,167.155,16.0567,141.488,0.122157,0.0805507,0,0
2.059e+009,-7.0318,94.4966,22.3162,27.0642,38.4325,168.577,16.1163,141.513,0.181759,0.105006,0,0
2.059e+009,-7.08744,94.4838,23.1469,28.2459,39.3358,169.797,16.1889,141.551,0.254342,0.142823,0,0
2.059e+009,-7.16625,94.1738,23.9945,29.2542,40.2552,170.666,16.2607,141.411,0.326142,0.0035334,0,0
2.059e+009,-7.26192,94.0125,24.85,31.0358,41.1746,172.324,16.3246,141.288,0.390035,-0.119721,0,0
2.059e+009,-7.34321,93.7169,25.6896,32.6155,42.0928,173.613,16.4032,140.998,0.468657,-0.410443,0,0
2.059e+009,-7.45273,93.5817,26.5548,33.8493,43.0153,174.644,16.4604,140.795,0.525879,-0.613254,0,0
2.059e+009,-7.55476,93.2258,27.3635,34.8305,43.8839,175.154,16.5204,140.324,0.585872,-1.08421,0,0
2.059e+009,-7.70136,92.8817,28.2277,36.145,44.7741,175.919,16.5463,139.774,0.611761,-1.63388,0,0
